hour, t(sec), P1 (kW), Q1 (kvar), P2 (kW), Q2 (kvar), P3 (kW), Q3 (kvar), P4 (kW), Q4 (kvar)
1, 0.00000, 5.11431, 2.09897, 5.11584, 2.09916, 5.11543, 2.09867, 0, 0
2, 0.00000, 5.11431, 2.09897, 5.11584, 2.09916, 5.11543, 2.09867, 0, 0
3, 0.00000, 5.11431, 2.09897, 5.11584, 2.09916, 5.11543, 2.09867, 0, 0
4, 0.00000, 5.11431, 2.09897, 5.11584, 2.09916, 5.11543, 2.09867, 0, 0
5, 0.00000, 5.11431, 2.09897, 5.11584, 2.09916, 5.11543, 2.09867, 0, 0
6, 0.00000, 5.11431, 2.09897, 5.11584, 2.09916, 5.11543, 2.09867, 0, 0
7, 0.00000, 5.11431, 2.09897, 5.11584, 2.09916, 5.11543, 2.09867, 0, 0
8, 0.00000, 5.11431, 2.09897, 5.11584, 2.09916, 5.11543, 2.09867, 0, 0
9, 0.00000, 5.11431, 2.09897, 5.11584, 2.09916, 5.11543, 2.09867, 0, 0
10, 0.00000, 5.11431, 2.09897, 5.11584, 2.09916, 5.11543, 2.09867, 0, 0
11, 0.00000, 5.11431, 2.09897, 5.11584, 2.09916, 5.11543, 2.09867, 0, 0
12, 0.00000, 5.11431, 2.09897, 5.11584, 2.09916, 5.11543, 2.09867, 0, 0
13, 0.00000, 5.11431, 2.09897, 5.11584, 2.09916, 5.11543, 2.09867, 0, 0
14, 0.00000, 5.11431, 2.09897, 5.11584, 2.09916, 5.11543, 2.09867, 0, 0
15, 0.00000, 5.11431, 2.09897, 5.11584, 2.09916, 5.11543, 2.09867, 0, 0
16, 0.00000, 5.11431, 2.09897, 5.11584, 2.09916, 5.11543, 2.09867, 0, 0
17, 0.00000, 5.11431, 2.09897, 5.11584, 2.09916, 5.11543, 2.09867, 0, 0
18, 0.00000, 5.11431, 2.09897, 5.11584, 2.09916, 5.11543, 2.09867, 0, 0
19, 0.00000, 5.11431, 2.09897, 5.11584, 2.09916, 5.11543, 2.09867, 0, 0
20, 0.00000, 5.11431, 2.09897, 5.11584, 2.09916, 5.11543, 2.09867, 0, 0
21, 0.00000, 5.11431, 2.09897, 5.11584, 2.09916, 5.11543, 2.09867, 0, 0
22, 0.00000, 5.11431, 2.09897, 5.11584, 2.09916, 5.11543, 2.09867, 0, 0
23, 0.00000, 3.43542, 1.18684, 3.43643, 1.18673, 3.4363, 1.18654, 0, 0
24, 0.00000, 1.76221, 0.572901, 1.76272, 0.57265, 1.76281, 0.572678, 0, 0
25, 0.00000, -1.94219, 0.386943, -1.94251, 0.386866, -1.94217, 0.387061, 0, 0
26, 0.00000, -2.72913, 0.387322, -2.72955, 0.387278, -2.72919, 0.387478, 0, 0
27, 0.00000, -2.7289, 0.382159, -2.7292, 0.382129, -2.72895, 0.382272, 0, 0
28, 0.00000, -2.72879, 0.379492, -2.72902, 0.379471, -2.72882, 0.379583, 0, 0
29, 0.00000, -2.72863, 0.375593, -2.72875, 0.375595, -2.72863, 0.375659, 0, 0
30, 0.00000, -2.72857, 0.374021, -2.72864, 0.374037, -2.72856, 0.37408, 0, 0
31, 0.00000, -2.72855, 0.373754, -2.72862, 0.373768, -2.72855, 0.373809, 0, 0
32, 0.00000, -2.72852, 0.372988, -2.72857, 0.373003, -2.72851, 0.373036, 0, 0
33, 0.00000, -2.72853, 0.373446, -2.72859, 0.373457, -2.72853, 0.373496, 0, 0
34, 0.00000, -2.72846, 0.371772, -2.72849, 0.371784, -2.72845, 0.371805, 0, 0
35, 0.00000, -2.72858, 0.374589, -2.72869, 0.374582, -2.72859, 0.374638, 0, 0
36, 0.00000, -2.72855, 0.37393, -2.72864, 0.37393, -2.72856, 0.373977, 0, 0
37, 0.00000, -2.72843, 0.371031, -2.72844, 0.371045, -2.72842, 0.371057, 0, 0
38, 0.00000, -2.72843, 0.371029, -2.72844, 0.371043, -2.72842, 0.371055, 0, 0
39, 0.00000, -2.72843, 0.371029, -2.72844, 0.371043, -2.72842, 0.371055, 0, 0
40, 0.00000, -2.72843, 0.371029, -2.72844, 0.371043, -2.72842, 0.371055, 0, 0
41, 0.00000, -2.72843, 0.371029, -2.72844, 0.371043, -2.72842, 0.371055, 0, 0
42, 0.00000, -2.72843, 0.371029, -2.72844, 0.371043, -2.72842, 0.371055, 0, 0
43, 0.00000, -2.72843, 0.371029, -2.72844, 0.371043, -2.72842, 0.371055, 0, 0
44, 0.00000, -2.72843, 0.371029, -2.72844, 0.371043, -2.72842, 0.371055, 0, 0
45, 0.00000, -2.72843, 0.371029, -2.72844, 0.371043, -2.72842, 0.371055, 0, 0
46, 0.00000, -2.72843, 0.371029, -2.72844, 0.371043, -2.72842, 0.371055, 0, 0
47, 0.00000, -2.72843, 0.371029, -2.72844, 0.371043, -2.72842, 0.371055, 0, 0
48, 0.00000, -2.72843, 0.371029, -2.72844, 0.371043, -2.72842, 0.371055, 0, 0
49, 0.00000, -2.28273, 0.575689, -2.28276, 0.575703, -2.28272, 0.575727, 0, 0
50, 0.00000, -2.28273, 0.575689, -2.28276, 0.575703, -2.28272, 0.575727, 0, 0
51, 0.00000, -2.28273, 0.575689, -2.28276, 0.575703, -2.28272, 0.575727, 0, 0
52, 0.00000, -2.28273, 0.575689, -2.28276, 0.575703, -2.28272, 0.575727, 0, 0
53, 0.00000, -2.28273, 0.575689, -2.28276, 0.575703, -2.28272, 0.575727, 0, 0
54, 0.00000, -2.28273, 0.575689, -2.28276, 0.575703, -2.28272, 0.575727, 0, 0
55, 0.00000, -2.28273, 0.575689, -2.28276, 0.575703, -2.28272, 0.575727, 0, 0
56, 0.00000, -2.28273, 0.575689, -2.28276, 0.575703, -2.28272, 0.575727, 0, 0
57, 0.00000, -2.28273, 0.575689, -2.28276, 0.575703, -2.28272, 0.575727, 0, 0
58, 0.00000, -2.28273, 0.575689, -2.28276, 0.575703, -2.28272, 0.575727, 0, 0
59, 0.00000, -2.28273, 0.575689, -2.28276, 0.575703, -2.28272, 0.575727, 0, 0
60, 0.00000, -2.28273, 0.575689, -2.28276, 0.575703, -2.28272, 0.575727, 0, 0
61, 0.00000, -2.28273, 0.575689, -2.28276, 0.575703, -2.28272, 0.575727, 0, 0
62, 0.00000, -2.28274, 0.575917, -2.28278, 0.57593, -2.28273, 0.575957, 0, 0
63, 0.00000, -2.28276, 0.576331, -2.2828, 0.576342, -2.28275, 0.576373, 0, 0
64, 0.00000, -2.28278, 0.576766, -2.28283, 0.576775, -2.28277, 0.576811, 0, 0
65, 0.00000, -2.2828, 0.577223, -2.28286, 0.577231, -2.28279, 0.577271, 0, 0
66, 0.00000, -2.28284, 0.577829, -2.28291, 0.577835, -2.28283, 0.577881, 0, 0
67, 0.00000, -2.28286, 0.578535, -2.28295, 0.578538, -2.28285, 0.578591, 0, 0
68, 0.00000, -2.28307, 0.583408, -2.2833, 0.583376, -2.28308, 0.583485, 0, 0
69, 0.00000, -2.28327, 0.588247, -2.28364, 0.588173, -2.28331, 0.588339, 0, 0
70, 0.00000, 3.51, 0.62191, 3.51092, 0.621732, 3.51092, 0.621545, 0, 0
71, 0.00000, 5.18706, 0.647432, 5.18845, 0.647242, 5.1883, 0.646916, 0, 0
72, 0.00000, 5.18706, 0.647435, 5.18845, 0.647245, 5.18831, 0.646919, 0, 0
73, 0.00000, 7.59663, 1.80315, 7.59931, 1.80305, 7.59887, 1.80235, 0, 0
74, 0.00000, 7.59663, 1.80316, 7.59931, 1.80305, 7.59888, 1.80235, 0, 0
75, 0.00000, 7.59663, 1.80316, 7.59931, 1.80305, 7.59888, 1.80235, 0, 0
76, 0.00000, 7.59663, 1.80316, 7.59931, 1.80305, 7.59888, 1.80235, 0, 0
77, 0.00000, 7.59663, 1.80316, 7.59931, 1.80305, 7.59888, 1.80235, 0, 0
78, 0.00000, 7.59663, 1.80316, 7.59931, 1.80305, 7.59888, 1.80235, 0, 0
79, 0.00000, 7.59663, 1.80316, 7.59931, 1.80305, 7.59888, 1.80235, 0, 0
80, 0.00000, 7.59663, 1.80316, 7.59931, 1.80305, 7.59888, 1.80235, 0, 0
81, 0.00000, 7.59663, 1.80316, 7.59931, 1.80305, 7.59888, 1.80235, 0, 0
82, 0.00000, 7.59663, 1.80316, 7.59931, 1.80305, 7.59888, 1.80235, 0, 0
83, 0.00000, 7.59663, 1.80316, 7.59931, 1.80305, 7.59888, 1.80235, 0, 0
84, 0.00000, 7.59663, 1.80316, 7.59931, 1.80305, 7.59888, 1.80235, 0, 0
85, 0.00000, 7.59663, 1.80316, 7.59931, 1.80305, 7.59888, 1.80235, 0, 0
86, 0.00000, 7.59663, 1.80316, 7.59931, 1.80305, 7.59888, 1.80235, 0, 0
87, 0.00000, 7.59663, 1.80316, 7.59931, 1.80305, 7.59888, 1.80235, 0, 0
88, 0.00000, 7.59663, 1.80316, 7.59931, 1.80305, 7.59888, 1.80235, 0, 0
89, 0.00000, 7.59663, 1.80316, 7.59931, 1.80305, 7.59888, 1.80235, 0, 0
90, 0.00000, 7.59663, 1.80316, 7.59931, 1.80305, 7.59888, 1.80235, 0, 0
91, 0.00000, 7.59663, 1.80316, 7.59931, 1.80305, 7.59888, 1.80235, 0, 0
92, 0.00000, 7.59663, 1.80316, 7.59931, 1.80305, 7.59888, 1.80235, 0, 0
93, 0.00000, 7.59663, 1.80316, 7.59931, 1.80305, 7.59888, 1.80235, 0, 0
94, 0.00000, 7.59663, 1.80316, 7.59931, 1.80305, 7.59888, 1.80235, 0, 0
95, 0.00000, 7.59663, 1.80316, 7.59931, 1.80305, 7.59888, 1.80235, 0, 0
96, 0.00000, 7.59663, 1.80316, 7.59931, 1.80305, 7.59888, 1.80235, 0, 0
