hour, t(sec), P1 (kW), Q1 (kvar), P2 (kW), Q2 (kvar), P3 (kW), Q3 (kvar), P4 (kW), Q4 (kvar)
1, 0.00000, 20.632, 8.76109, 20.6338, 8.76131, 20.6333, 8.76072, 0, 0
2, 0.00000, 20.632, 8.76109, 20.6338, 8.76131, 20.6333, 8.76072, 0, 0
3, 0.00000, 20.632, 8.76109, 20.6338, 8.76131, 20.6333, 8.76072, 0, 0
4, 0.00000, 20.632, 8.76109, 20.6338, 8.76131, 20.6333, 8.76072, 0, 0
5, 0.00000, 20.632, 8.76109, 20.6338, 8.76131, 20.6333, 8.76072, 0, 0
6, 0.00000, 20.632, 8.76109, 20.6338, 8.76131, 20.6333, 8.76072, 0, 0
7, 0.00000, 20.632, 8.76109, 20.6338, 8.76131, 20.6333, 8.76072, 0, 0
8, 0.00000, 20.632, 8.76109, 20.6338, 8.76131, 20.6333, 8.76072, 0, 0
9, 0.00000, 20.632, 8.76109, 20.6338, 8.76131, 20.6333, 8.76072, 0, 0
10, 0.00000, 20.632, 8.76109, 20.6338, 8.76131, 20.6333, 8.76072, 0, 0
11, 0.00000, 20.632, 8.76109, 20.6338, 8.76131, 20.6333, 8.76072, 0, 0
12, 0.00000, 20.632, 8.76109, 20.6338, 8.76131, 20.6333, 8.76072, 0, 0
13, 0.00000, 20.632, 8.76109, 20.6338, 8.76131, 20.6333, 8.76072, 0, 0
14, 0.00000, 20.632, 8.76109, 20.6338, 8.76131, 20.6333, 8.76072, 0, 0
15, 0.00000, 20.632, 8.76109, 20.6338, 8.76131, 20.6333, 8.76072, 0, 0
16, 0.00000, 20.632, 8.76109, 20.6338, 8.76131, 20.6333, 8.76072, 0, 0
17, 0.00000, 20.632, 8.76109, 20.6338, 8.76131, 20.6333, 8.76072, 0, 0
18, 0.00000, 20.632, 8.76109, 20.6338, 8.76131, 20.6333, 8.76072, 0, 0
19, 0.00000, 20.632, 8.76109, 20.6338, 8.76131, 20.6333, 8.76072, 0, 0
20, 0.00000, 20.632, 8.76109, 20.6338, 8.76131, 20.6333, 8.76072, 0, 0
21, 0.00000, 20.632, 8.76109, 20.6338, 8.76131, 20.6333, 8.76072, 0, 0
22, 0.00000, 20.632, 8.76109, 20.6338, 8.76131, 20.6333, 8.76072, 0, 0
23, 0.00000, 20.632, 8.76098, 20.6338, 8.7612, 20.6333, 8.76062, 0, 0
24, 0.00000, 20.6321, 8.76055, 20.6337, 8.76077, 20.6333, 8.76021, 0, 0
25, 0.00000, 12.9482, 5.01254, 12.949, 5.0125, 12.9489, 5.01231, 0, 0
26, 0.00000, 11.2677, 4.45325, 11.2684, 4.4532, 11.2683, 4.45307, 0, 0
27, 0.00000, 4.56483, 1.72279, 4.56501, 1.72265, 4.56511, 1.72268, 0, 0
28, 0.00000, -0.441347, 0.0962806, -0.44135, 0.0961249, -0.44121, 0.0962141, 0, 0
29, 0.00000, -8.75009, 0.106075, -8.75021, 0.106016, -8.75008, 0.106097, 0, 0
30, 0.00000, -11.1882, 0.129413, -11.1882, 0.129392, -11.1882, 0.129452, 0, 0
31, 0.00000, -11.1882, 0.12903, -11.1882, 0.129012, -11.1882, 0.129068, 0, 0
32, 0.00000, -11.1882, 0.128335, -11.1882, 0.12832, -11.1881, 0.128368, 0, 0
33, 0.00000, -11.1881, 0.128672, -11.1882, 0.128654, -11.1881, 0.128706, 0, 0
34, 0.00000, -11.1881, 0.127213, -11.1882, 0.127201, -11.1881, 0.127238, 0, 0
35, 0.00000, -11.1881, 0.12986, -11.1883, 0.129813, -11.1882, 0.129887, 0, 0
36, 0.00000, -11.1881, 0.129023, -11.1883, 0.128989, -11.1882, 0.129051, 0, 0
37, 0.00000, -11.1881, 0.126544, -11.1882, 0.126536, -11.1881, 0.126566, 0, 0
38, 0.00000, -11.1881, 0.126541, -11.1882, 0.126533, -11.1881, 0.126563, 0, 0
39, 0.00000, -11.1881, 0.126541, -11.1882, 0.126532, -11.1881, 0.126563, 0, 0
40, 0.00000, -11.1881, 0.126541, -11.1882, 0.126532, -11.1881, 0.126563, 0, 0
41, 0.00000, -11.1881, 0.126541, -11.1882, 0.126532, -11.1881, 0.126563, 0, 0
42, 0.00000, -11.1881, 0.126541, -11.1882, 0.126532, -11.1881, 0.126563, 0, 0
43, 0.00000, -11.1881, 0.126541, -11.1882, 0.126532, -11.1881, 0.126563, 0, 0
44, 0.00000, -11.1881, 0.126541, -11.1882, 0.126532, -11.1881, 0.126563, 0, 0
45, 0.00000, -11.1881, 0.126541, -11.1882, 0.126532, -11.1881, 0.126563, 0, 0
46, 0.00000, -11.1881, 0.126541, -11.1882, 0.126532, -11.1881, 0.126563, 0, 0
47, 0.00000, -11.1881, 0.126541, -11.1882, 0.126532, -11.1881, 0.126563, 0, 0
48, 0.00000, -11.1881, 0.126541, -11.1882, 0.126532, -11.1881, 0.126563, 0, 0
49, 0.00000, -9.35272, 0.963601, -9.35279, 0.963586, -9.35271, 0.963636, 0, 0
50, 0.00000, -9.35272, 0.963601, -9.35279, 0.963585, -9.35271, 0.963636, 0, 0
51, 0.00000, -9.35272, 0.963601, -9.35279, 0.963585, -9.35271, 0.963636, 0, 0
52, 0.00000, -9.35272, 0.963601, -9.35279, 0.963585, -9.35271, 0.963636, 0, 0
53, 0.00000, -9.35272, 0.963601, -9.35279, 0.963585, -9.35271, 0.963636, 0, 0
54, 0.00000, -9.35272, 0.963601, -9.35279, 0.963585, -9.35271, 0.963636, 0, 0
55, 0.00000, -9.35272, 0.963601, -9.35279, 0.963585, -9.35271, 0.963636, 0, 0
56, 0.00000, -9.35272, 0.963601, -9.35279, 0.963585, -9.35271, 0.963636, 0, 0
57, 0.00000, -9.35272, 0.963601, -9.35279, 0.963585, -9.35271, 0.963636, 0, 0
58, 0.00000, -9.35272, 0.963601, -9.35279, 0.963585, -9.35271, 0.963636, 0, 0
59, 0.00000, -9.35272, 0.963601, -9.35279, 0.963585, -9.35271, 0.963636, 0, 0
60, 0.00000, -9.35272, 0.963601, -9.35279, 0.963585, -9.35271, 0.963636, 0, 0
61, 0.00000, -9.35272, 0.963601, -9.35279, 0.963585, -9.35271, 0.963636, 0, 0
62, 0.00000, -9.35272, 0.963764, -9.35279, 0.963746, -9.35271, 0.963799, 0, 0
63, 0.00000, -9.35273, 0.964068, -9.3528, 0.964047, -9.35271, 0.964103, 0, 0
64, 0.00000, -9.35273, 0.964398, -9.35281, 0.964375, -9.35271, 0.964434, 0, 0
65, 0.00000, -9.35273, 0.964756, -9.35282, 0.96473, -9.35271, 0.964793, 0, 0
66, 0.00000, -9.35274, 0.965236, -9.35283, 0.965206, -9.35272, 0.965274, 0, 0
67, 0.00000, -9.35274, 0.96596, -9.35286, 0.965921, -9.35273, 0.965999, 0, 0
68, 0.00000, 1.40614, 0.434633, 1.40618, 0.434446, 1.40634, 0.434525, 0, 0
69, 0.00000, 11.4446, 0.603787, 11.4451, 0.603469, 11.4452, 0.603434, 0, 0
70, 0.00000, 21.5457, 0.941573, 21.5473, 0.941085, 21.5472, 0.940768, 0, 0
71, 0.00000, 21.5459, 0.942227, 21.5476, 0.941733, 21.5475, 0.94141, 0, 0
72, 0.00000, 21.5459, 0.942229, 21.5476, 0.941735, 21.5475, 0.941413, 0, 0
73, 0.00000, 31.256, 5.86788, 31.2592, 5.8674, 31.2588, 5.86667, 0, 0
74, 0.00000, 31.256, 5.86792, 31.2592, 5.86744, 31.2588, 5.86671, 0, 0
75, 0.00000, 31.256, 5.86792, 31.2592, 5.86744, 31.2588, 5.86671, 0, 0
76, 0.00000, 31.256, 5.86792, 31.2592, 5.86744, 31.2588, 5.86671, 0, 0
77, 0.00000, 31.256, 5.86792, 31.2592, 5.86744, 31.2588, 5.86671, 0, 0
78, 0.00000, 31.256, 5.86792, 31.2592, 5.86744, 31.2588, 5.86671, 0, 0
79, 0.00000, 31.256, 5.86792, 31.2592, 5.86744, 31.2588, 5.86671, 0, 0
80, 0.00000, 31.256, 5.86792, 31.2592, 5.86744, 31.2588, 5.86671, 0, 0
81, 0.00000, 31.256, 5.86792, 31.2592, 5.86744, 31.2588, 5.86671, 0, 0
82, 0.00000, 31.256, 5.86792, 31.2592, 5.86744, 31.2588, 5.86671, 0, 0
83, 0.00000, 31.256, 5.86792, 31.2592, 5.86744, 31.2588, 5.86671, 0, 0
84, 0.00000, 31.256, 5.86792, 31.2592, 5.86744, 31.2588, 5.86671, 0, 0
85, 0.00000, 31.256, 5.86792, 31.2592, 5.86744, 31.2588, 5.86671, 0, 0
86, 0.00000, 31.256, 5.86792, 31.2592, 5.86744, 31.2588, 5.86671, 0, 0
87, 0.00000, 31.256, 5.86792, 31.2592, 5.86744, 31.2588, 5.86671, 0, 0
88, 0.00000, 31.256, 5.86792, 31.2592, 5.86744, 31.2588, 5.86671, 0, 0
89, 0.00000, 31.256, 5.86792, 31.2592, 5.86744, 31.2588, 5.86671, 0, 0
90, 0.00000, 31.256, 5.86792, 31.2592, 5.86744, 31.2588, 5.86671, 0, 0
91, 0.00000, 31.256, 5.86792, 31.2592, 5.86744, 31.2588, 5.86671, 0, 0
92, 0.00000, 31.256, 5.86792, 31.2592, 5.86744, 31.2588, 5.86671, 0, 0
93, 0.00000, 31.256, 5.86792, 31.2592, 5.86744, 31.2588, 5.86671, 0, 0
94, 0.00000, 31.256, 5.86792, 31.2592, 5.86744, 31.2588, 5.86671, 0, 0
95, 0.00000, 31.256, 5.86792, 31.2592, 5.86744, 31.2588, 5.86671, 0, 0
96, 0.00000, 31.256, 5.86792, 31.2592, 5.86744, 31.2588, 5.86671, 0, 0
