hour, t(sec), P1 (kW), Q1 (kvar), P2 (kW), Q2 (kvar), P3 (kW), Q3 (kvar), P4 (kW), Q4 (kvar)
1, 0.00000, 17.1132, 0.397495, 17.1176, 0.395171, 17.1171, 0.394995, 0, 0
2, 0.00000, 17.1132, 0.397495, 17.1176, 0.395171, 17.1171, 0.394995, 0, 0
3, 0.00000, 17.1132, 0.397495, 17.1176, 0.395171, 17.1171, 0.394995, 0, 0
4, 0.00000, 17.1132, 0.397495, 17.1176, 0.395171, 17.1171, 0.394995, 0, 0
5, 0.00000, 17.1132, 0.397495, 17.1176, 0.395171, 17.1171, 0.394995, 0, 0
6, 0.00000, 17.1132, 0.397495, 17.1176, 0.395171, 17.1171, 0.394995, 0, 0
7, 0.00000, 17.1132, 0.397495, 17.1176, 0.395171, 17.1171, 0.394995, 0, 0
8, 0.00000, 17.1132, 0.397495, 17.1176, 0.395171, 17.1171, 0.394995, 0, 0
9, 0.00000, 17.1132, 0.397495, 17.1176, 0.395171, 17.1171, 0.394995, 0, 0
10, 0.00000, 17.1132, 0.397495, 17.1176, 0.395171, 17.1171, 0.394995, 0, 0
11, 0.00000, 17.1132, 0.397495, 17.1176, 0.395171, 17.1171, 0.394995, 0, 0
12, 0.00000, 17.1132, 0.397495, 17.1176, 0.395171, 17.1171, 0.394995, 0, 0
13, 0.00000, 17.1132, 0.397495, 17.1176, 0.395171, 17.1171, 0.394995, 0, 0
14, 0.00000, 17.1132, 0.397495, 17.1176, 0.395171, 17.1171, 0.394995, 0, 0
15, 0.00000, 17.1132, 0.397495, 17.1176, 0.395171, 17.1171, 0.394995, 0, 0
16, 0.00000, 17.1132, 0.397495, 17.1176, 0.395171, 17.1171, 0.394995, 0, 0
17, 0.00000, 17.1132, 0.397495, 17.1176, 0.395171, 17.1171, 0.394995, 0, 0
18, 0.00000, 17.1132, 0.397495, 17.1176, 0.395171, 17.1171, 0.394995, 0, 0
19, 0.00000, 17.1132, 0.397495, 17.1176, 0.395171, 17.1171, 0.394995, 0, 0
20, 0.00000, 17.1132, 0.397495, 17.1176, 0.395171, 17.1171, 0.394995, 0, 0
21, 0.00000, 17.1132, 0.397495, 17.1176, 0.395171, 17.1171, 0.394995, 0, 0
22, 0.00000, 17.1132, 0.397495, 17.1176, 0.395171, 17.1171, 0.394995, 0, 0
23, 0.00000, 17.1132, 0.39441, 17.1176, 0.392146, 17.117, 0.391968, 0, 0
24, 0.00000, 17.1134, 0.385597, 17.1175, 0.383502, 17.117, 0.383322, 0, 0
25, 0.00000, 15.1317, -0.619688, 15.1345, -0.621364, 15.1342, -0.621381, 0, 0
26, 0.00000, 15.132, -0.631888, 15.1344, -0.633334, 15.1341, -0.633361, 0, 0
27, 0.00000, 15.1325, -0.655077, 15.1342, -0.656119, 15.134, -0.656131, 0, 0
28, 0.00000, 15.1328, -0.666974, 15.1341, -0.66781, 15.134, -0.66781, 0, 0
29, 0.00000, 15.1332, -0.684243, 15.134, -0.684802, 15.1339, -0.684752, 0, 0
30, 0.00000, 15.1334, -0.691196, 15.134, -0.691651, 15.1339, -0.691568, 0, 0
31, 0.00000, 15.1334, -0.692385, 15.134, -0.692815, 15.1339, -0.692735, 0, 0
32, 0.00000, 15.1335, -0.695761, 15.134, -0.696122, 15.1339, -0.696048, 0, 0
33, 0.00000, 15.1334, -0.693737, 15.1339, -0.69413, 15.1338, -0.694062, 0, 0
34, 0.00000, 15.1336, -0.701119, 15.1339, -0.701365, 15.1338, -0.70131, 0, 0
35, 0.00000, 15.1333, -0.688721, 15.134, -0.689162, 15.1339, -0.689149, 0, 0
36, 0.00000, 15.1334, -0.691634, 15.134, -0.692035, 15.1339, -0.692004, 0, 0
37, 0.00000, 15.1337, -0.704383, 15.1339, -0.704569, 15.1338, -0.704514, 0, 0
38, 0.00000, 15.1337, -0.704391, 15.1339, -0.704577, 15.1338, -0.704522, 0, 0
39, 0.00000, 15.1337, -0.704391, 15.1339, -0.704578, 15.1338, -0.704522, 0, 0
40, 0.00000, 15.1337, -0.704391, 15.1339, -0.704578, 15.1338, -0.704522, 0, 0
41, 0.00000, 15.1337, -0.704391, 15.1339, -0.704578, 15.1338, -0.704522, 0, 0
42, 0.00000, 15.1337, -0.704391, 15.1339, -0.704578, 15.1338, -0.704522, 0, 0
43, 0.00000, 15.1337, -0.704391, 15.1339, -0.704578, 15.1338, -0.704522, 0, 0
44, 0.00000, 15.1337, -0.704391, 15.1339, -0.704578, 15.1338, -0.704522, 0, 0
45, 0.00000, 15.1337, -0.704391, 15.1339, -0.704578, 15.1338, -0.704522, 0, 0
46, 0.00000, 15.1337, -0.704391, 15.1339, -0.704578, 15.1338, -0.704522, 0, 0
47, 0.00000, 15.1337, -0.704391, 15.1339, -0.704578, 15.1338, -0.704522, 0, 0
48, 0.00000, 15.1337, -0.704391, 15.1339, -0.704578, 15.1338, -0.704522, 0, 0
49, 0.00000, 16.3719, -0.0883264, 16.3723, -0.088652, 16.3722, -0.0885891, 0, 0
50, 0.00000, 16.3719, -0.0883269, 16.3723, -0.0886525, 16.3722, -0.0885896, 0, 0
51, 0.00000, 16.3719, -0.0883269, 16.3723, -0.0886525, 16.3722, -0.0885896, 0, 0
52, 0.00000, 16.3719, -0.0883269, 16.3723, -0.0886525, 16.3722, -0.0885896, 0, 0
53, 0.00000, 16.3719, -0.0883269, 16.3723, -0.0886525, 16.3722, -0.0885896, 0, 0
54, 0.00000, 16.3719, -0.0883269, 16.3723, -0.0886525, 16.3722, -0.0885896, 0, 0
55, 0.00000, 16.3719, -0.0883269, 16.3723, -0.0886525, 16.3722, -0.0885896, 0, 0
56, 0.00000, 16.3719, -0.0883269, 16.3723, -0.0886525, 16.3722, -0.0885896, 0, 0
57, 0.00000, 16.3719, -0.0883269, 16.3723, -0.0886525, 16.3722, -0.0885896, 0, 0
58, 0.00000, 16.3719, -0.0883269, 16.3723, -0.0886525, 16.3722, -0.0885896, 0, 0
59, 0.00000, 16.3719, -0.0883269, 16.3723, -0.0886525, 16.3722, -0.0885896, 0, 0
60, 0.00000, 16.3719, -0.0883269, 16.3723, -0.0886525, 16.3722, -0.0885896, 0, 0
61, 0.00000, 16.3719, -0.0883269, 16.3723, -0.0886525, 16.3722, -0.0885896, 0, 0
62, 0.00000, 16.3718, -0.0873195, 16.3723, -0.0876587, 16.3722, -0.0876013, 0, 0
63, 0.00000, 16.3718, -0.0854883, 16.3723, -0.0858536, 16.3722, -0.0858048, 0, 0
64, 0.00000, 16.3717, -0.0835647, 16.3723, -0.0839593, 16.3722, -0.0839176, 0, 0
65, 0.00000, 16.3717, -0.0815434, 16.3723, -0.0819705, 16.3722, -0.0819345, 0, 0
66, 0.00000, 16.3717, -0.0788862, 16.3724, -0.0793572, 16.3723, -0.0793281, 0, 0
67, 0.00000, 16.3716, -0.075731, 16.3724, -0.0762473, 16.3723, -0.0762318, 0, 0
68, 0.00000, 16.371, -0.0540845, 16.3726, -0.0548728, 16.3725, -0.055013, 0, 0
69, 0.00000, 16.3704, -0.0324448, 16.3729, -0.033472, 16.3727, -0.0338023, 0, 0
70, 0.00000, 16.3691, 0.00549574, 16.373, 0.00402697, 16.3728, 0.00339814, 0, 0
71, 0.00000, 16.3693, 0.00789486, 16.3733, 0.00639972, 16.3732, 0.00575082, 0, 0
72, 0.00000, 16.3693, 0.00789971, 16.3733, 0.00640449, 16.3732, 0.00575553, 0, 0
73, 0.00000, 24.8371, 4.29635, 24.8451, 4.29497, 24.8442, 4.29322, 0, 0
74, 0.00000, 24.8372, 4.2964, 24.8452, 4.29501, 24.8443, 4.29326, 0, 0
75, 0.00000, 24.8372, 4.2964, 24.8452, 4.29501, 24.8443, 4.29326, 0, 0
76, 0.00000, 24.8372, 4.2964, 24.8452, 4.29501, 24.8443, 4.29326, 0, 0
77, 0.00000, 24.8372, 4.2964, 24.8452, 4.29501, 24.8443, 4.29326, 0, 0
78, 0.00000, 24.8372, 4.2964, 24.8452, 4.29501, 24.8443, 4.29326, 0, 0
79, 0.00000, 24.8372, 4.2964, 24.8452, 4.29501, 24.8443, 4.29326, 0, 0
80, 0.00000, 24.8372, 4.2964, 24.8452, 4.29501, 24.8443, 4.29326, 0, 0
81, 0.00000, 24.8372, 4.2964, 24.8452, 4.29501, 24.8443, 4.29326, 0, 0
82, 0.00000, 24.8372, 4.2964, 24.8452, 4.29501, 24.8443, 4.29326, 0, 0
83, 0.00000, 24.8372, 4.2964, 24.8452, 4.29501, 24.8443, 4.29326, 0, 0
84, 0.00000, 24.8372, 4.2964, 24.8452, 4.29501, 24.8443, 4.29326, 0, 0
85, 0.00000, 24.8372, 4.2964, 24.8452, 4.29501, 24.8443, 4.29326, 0, 0
86, 0.00000, 24.8372, 4.2964, 24.8452, 4.29501, 24.8443, 4.29326, 0, 0
87, 0.00000, 24.8372, 4.2964, 24.8452, 4.29501, 24.8443, 4.29326, 0, 0
88, 0.00000, 24.8372, 4.2964, 24.8452, 4.29501, 24.8443, 4.29326, 0, 0
89, 0.00000, 24.8372, 4.2964, 24.8452, 4.29501, 24.8443, 4.29326, 0, 0
90, 0.00000, 24.8372, 4.2964, 24.8452, 4.29501, 24.8443, 4.29326, 0, 0
91, 0.00000, 24.8372, 4.2964, 24.8452, 4.29501, 24.8443, 4.29326, 0, 0
92, 0.00000, 24.8372, 4.2964, 24.8452, 4.29501, 24.8443, 4.29326, 0, 0
93, 0.00000, 24.8372, 4.2964, 24.8452, 4.29501, 24.8443, 4.29326, 0, 0
94, 0.00000, 24.8372, 4.2964, 24.8452, 4.29501, 24.8443, 4.29326, 0, 0
95, 0.00000, 24.8372, 4.2964, 24.8452, 4.29501, 24.8443, 4.29326, 0, 0
96, 0.00000, 24.8372, 4.2964, 24.8452, 4.29501, 24.8443, 4.29326, 0, 0
