hour, t(sec), P1 (kW), Q1 (kvar), P2 (kW), Q2 (kvar), P3 (kW), Q3 (kvar), P4 (kW), Q4 (kvar)
1, 0.00000, 0.320906, -0.0547113, 0.321026, -0.0547839, 0.320997, -0.0547622, 0, 0
2, 0.00000, 0.320906, -0.0547113, 0.321026, -0.0547839, 0.320997, -0.0547622, 0, 0
3, 0.00000, 0.320906, -0.0547113, 0.321026, -0.0547839, 0.320997, -0.0547622, 0, 0
4, 0.00000, 0.320906, -0.0547113, 0.321026, -0.0547839, 0.320997, -0.0547622, 0, 0
5, 0.00000, 0.320906, -0.0547113, 0.321026, -0.0547839, 0.320997, -0.0547622, 0, 0
6, 0.00000, 0.320906, -0.0547113, 0.321026, -0.0547839, 0.320997, -0.0547622, 0, 0
7, 0.00000, 0.320906, -0.0547113, 0.321026, -0.0547839, 0.320997, -0.0547622, 0, 0
8, 0.00000, 0.320906, -0.0547113, 0.321026, -0.0547839, 0.320997, -0.0547622, 0, 0
9, 0.00000, 0.320906, -0.0547113, 0.321026, -0.0547839, 0.320997, -0.0547622, 0, 0
10, 0.00000, 0.320906, -0.0547113, 0.321026, -0.0547839, 0.320997, -0.0547622, 0, 0
11, 0.00000, 0.320906, -0.0547113, 0.321026, -0.0547839, 0.320997, -0.0547622, 0, 0
12, 0.00000, 0.320906, -0.0547113, 0.321026, -0.0547839, 0.320997, -0.0547622, 0, 0
13, 0.00000, 0.320906, -0.0547113, 0.321026, -0.0547839, 0.320997, -0.0547622, 0, 0
14, 0.00000, 0.320906, -0.0547113, 0.321026, -0.0547839, 0.320997, -0.0547622, 0, 0
15, 0.00000, 0.320906, -0.0547113, 0.321026, -0.0547839, 0.320997, -0.0547622, 0, 0
16, 0.00000, 0.320906, -0.0547113, 0.321026, -0.0547839, 0.320997, -0.0547622, 0, 0
17, 0.00000, 0.320906, -0.0547113, 0.321026, -0.0547839, 0.320997, -0.0547622, 0, 0
18, 0.00000, 0.320906, -0.0547113, 0.321026, -0.0547839, 0.320997, -0.0547622, 0, 0
19, 0.00000, 0.320906, -0.0547113, 0.321026, -0.0547839, 0.320997, -0.0547622, 0, 0
20, 0.00000, 0.320906, -0.0547113, 0.321026, -0.0547839, 0.320997, -0.0547622, 0, 0
21, 0.00000, 0.320906, -0.0547113, 0.321026, -0.0547839, 0.320997, -0.0547622, 0, 0
22, 0.00000, 0.320906, -0.0547113, 0.321026, -0.0547839, 0.320997, -0.0547622, 0, 0
23, 0.00000, 0.320946, -0.0547751, 0.321064, -0.0548462, 0.321036, -0.054825, 0, 0
24, 0.00000, 0.321064, -0.0549607, 0.321175, -0.0550274, 0.321149, -0.0550077, 0, 0
25, 0.00000, 0.329183, -0.0520867, 0.329273, -0.0521378, 0.329252, -0.0521237, 0, 0
26, 0.00000, 0.329364, -0.0523706, 0.329442, -0.0524151, 0.329424, -0.052403, 0, 0
27, 0.00000, 0.329705, -0.0529074, 0.329762, -0.05294, 0.329749, -0.052931, 0, 0
28, 0.00000, 0.329884, -0.0531888, 0.32993, -0.0532151, 0.329919, -0.0532078, 0, 0
29, 0.00000, 0.330152, -0.0536078, 0.33018, -0.0536251, 0.330172, -0.0536196, 0, 0
30, 0.00000, 0.33026, -0.0537766, 0.33028, -0.0537904, 0.330274, -0.0537853, 0, 0
31, 0.00000, 0.330279, -0.053806, 0.330298, -0.053819, 0.330292, -0.0538143, 0, 0
32, 0.00000, 0.330335, -0.0538932, 0.33035, -0.0539041, 0.330345, -0.0539, 0, 0
33, 0.00000, 0.330299, -0.0538405, 0.330317, -0.0538525, 0.330312, -0.0538483, 0, 0
34, 0.00000, 0.330422, -0.0540316, 0.330432, -0.054039, 0.330429, -0.0540362, 0, 0
35, 0.00000, 0.33022, -0.0537164, 0.330244, -0.0537305, 0.330239, -0.0537265, 0, 0
36, 0.00000, 0.330266, -0.0537876, 0.330287, -0.0538003, 0.330282, -0.0537964, 0, 0
37, 0.00000, 0.330476, -0.0541158, 0.330483, -0.0541213, 0.33048, -0.054119, 0, 0
38, 0.00000, 0.330475, -0.054116, 0.330482, -0.0541214, 0.33048, -0.0541192, 0, 0
39, 0.00000, 0.330475, -0.054116, 0.330482, -0.0541214, 0.33048, -0.0541192, 0, 0
40, 0.00000, 0.330475, -0.054116, 0.330482, -0.0541214, 0.33048, -0.0541192, 0, 0
41, 0.00000, 0.330475, -0.054116, 0.330482, -0.0541214, 0.33048, -0.0541192, 0, 0
42, 0.00000, 0.330475, -0.054116, 0.330482, -0.0541214, 0.33048, -0.0541192, 0, 0
43, 0.00000, 0.330475, -0.054116, 0.330482, -0.0541214, 0.33048, -0.0541192, 0, 0
44, 0.00000, 0.330475, -0.054116, 0.330482, -0.0541214, 0.33048, -0.0541192, 0, 0
45, 0.00000, 0.330475, -0.054116, 0.330482, -0.0541214, 0.33048, -0.0541192, 0, 0
46, 0.00000, 0.330475, -0.054116, 0.330482, -0.0541214, 0.33048, -0.0541192, 0, 0
47, 0.00000, 0.330475, -0.054116, 0.330482, -0.0541214, 0.33048, -0.0541192, 0, 0
48, 0.00000, 0.330475, -0.054116, 0.330482, -0.0541214, 0.33048, -0.0541192, 0, 0
49, 0.00000, 0.357361, -0.0416315, 0.357374, -0.0416407, 0.35737, -0.0416375, 0, 0
50, 0.00000, 0.357361, -0.0416315, 0.357374, -0.0416407, 0.35737, -0.0416375, 0, 0
51, 0.00000, 0.357361, -0.0416315, 0.357374, -0.0416407, 0.35737, -0.0416375, 0, 0
52, 0.00000, 0.357361, -0.0416315, 0.357374, -0.0416407, 0.35737, -0.0416375, 0, 0
53, 0.00000, 0.357361, -0.0416315, 0.357374, -0.0416407, 0.35737, -0.0416375, 0, 0
54, 0.00000, 0.357361, -0.0416315, 0.357374, -0.0416407, 0.35737, -0.0416375, 0, 0
55, 0.00000, 0.357361, -0.0416315, 0.357374, -0.0416407, 0.35737, -0.0416375, 0, 0
56, 0.00000, 0.357361, -0.0416315, 0.357374, -0.0416407, 0.35737, -0.0416375, 0, 0
57, 0.00000, 0.357361, -0.0416315, 0.357374, -0.0416407, 0.35737, -0.0416375, 0, 0
58, 0.00000, 0.357361, -0.0416315, 0.357374, -0.0416407, 0.35737, -0.0416375, 0, 0
59, 0.00000, 0.357361, -0.0416315, 0.357374, -0.0416407, 0.35737, -0.0416375, 0, 0
60, 0.00000, 0.357361, -0.0416315, 0.357374, -0.0416407, 0.35737, -0.0416375, 0, 0
61, 0.00000, 0.357361, -0.0416315, 0.357374, -0.0416407, 0.35737, -0.0416375, 0, 0
62, 0.00000, 0.357344, -0.0416055, 0.357359, -0.0416152, 0.357354, -0.0416119, 0, 0
63, 0.00000, 0.357313, -0.0415582, 0.35733, -0.0415688, 0.357325, -0.0415654, 0, 0
64, 0.00000, 0.357281, -0.0415085, 0.357301, -0.0415201, 0.357295, -0.0415166, 0, 0
65, 0.00000, 0.357248, -0.0414563, 0.35727, -0.0414691, 0.357264, -0.0414653, 0, 0
66, 0.00000, 0.357206, -0.0413878, 0.357231, -0.041402, 0.357224, -0.041398, 0, 0
67, 0.00000, 0.357154, -0.0413088, 0.357182, -0.0413247, 0.357175, -0.0413204, 0, 0
68, 0.00000, 0.356814, -0.0407819, 0.356869, -0.0408078, 0.356859, -0.0408031, 0, 0
69, 0.00000, 0.356484, -0.0402711, 0.356566, -0.0403059, 0.356552, -0.0403016, 0, 0
70, 0.00000, 0.355922, -0.0394063, 0.356048, -0.0394566, 0.356028, -0.0394522, 0, 0
71, 0.00000, 0.355896, -0.0393583, 0.356024, -0.0394094, 0.356004, -0.0394051, 0, 0
72, 0.00000, 0.355896, -0.0393582, 0.356024, -0.0394094, 0.356004, -0.039405, 0, 0
73, 0.00000, 0.48249, 0.0197491, 0.482707, 0.0196921, 0.482663, 0.0196825, 0, 0
74, 0.00000, 0.48249, 0.0197493, 0.482707, 0.0196923, 0.482663, 0.0196828, 0, 0
75, 0.00000, 0.48249, 0.0197493, 0.482707, 0.0196923, 0.482663, 0.0196828, 0, 0
76, 0.00000, 0.48249, 0.0197493, 0.482707, 0.0196923, 0.482663, 0.0196828, 0, 0
77, 0.00000, 0.48249, 0.0197493, 0.482707, 0.0196923, 0.482663, 0.0196828, 0, 0
78, 0.00000, 0.48249, 0.0197493, 0.482707, 0.0196923, 0.482663, 0.0196828, 0, 0
79, 0.00000, 0.48249, 0.0197493, 0.482707, 0.0196923, 0.482663, 0.0196828, 0, 0
80, 0.00000, 0.48249, 0.0197493, 0.482707, 0.0196923, 0.482663, 0.0196828, 0, 0
81, 0.00000, 0.48249, 0.0197493, 0.482707, 0.0196923, 0.482663, 0.0196828, 0, 0
82, 0.00000, 0.48249, 0.0197493, 0.482707, 0.0196923, 0.482663, 0.0196828, 0, 0
83, 0.00000, 0.48249, 0.0197493, 0.482707, 0.0196923, 0.482663, 0.0196828, 0, 0
84, 0.00000, 0.48249, 0.0197493, 0.482707, 0.0196923, 0.482663, 0.0196828, 0, 0
85, 0.00000, 0.48249, 0.0197493, 0.482707, 0.0196923, 0.482663, 0.0196828, 0, 0
86, 0.00000, 0.48249, 0.0197493, 0.482707, 0.0196923, 0.482663, 0.0196828, 0, 0
87, 0.00000, 0.48249, 0.0197493, 0.482707, 0.0196923, 0.482663, 0.0196828, 0, 0
88, 0.00000, 0.48249, 0.0197493, 0.482707, 0.0196923, 0.482663, 0.0196828, 0, 0
89, 0.00000, 0.48249, 0.0197493, 0.482707, 0.0196923, 0.482663, 0.0196828, 0, 0
90, 0.00000, 0.48249, 0.0197493, 0.482707, 0.0196923, 0.482663, 0.0196828, 0, 0
91, 0.00000, 0.48249, 0.0197493, 0.482707, 0.0196923, 0.482663, 0.0196828, 0, 0
92, 0.00000, 0.48249, 0.0197493, 0.482707, 0.0196923, 0.482663, 0.0196828, 0, 0
93, 0.00000, 0.48249, 0.0197493, 0.482707, 0.0196923, 0.482663, 0.0196828, 0, 0
94, 0.00000, 0.48249, 0.0197493, 0.482707, 0.0196923, 0.482663, 0.0196828, 0, 0
95, 0.00000, 0.48249, 0.0197493, 0.482707, 0.0196923, 0.482663, 0.0196828, 0, 0
96, 0.00000, 0.48249, 0.0197493, 0.482707, 0.0196923, 0.482663, 0.0196828, 0, 0
