hour, t(sec), P1 (kW), Q1 (kvar), P2 (kW), Q2 (kvar), P3 (kW), Q3 (kvar), P4 (kW), Q4 (kvar)
1, 0.00000, 53.9663, 0.353028, 53.9913, 0.340686, 53.9891, 0.338907, 0, 0
2, 0.00000, 53.9663, 0.353027, 53.9913, 0.340685, 53.9891, 0.338906, 0, 0
3, 0.00000, 53.9663, 0.353027, 53.9913, 0.340685, 53.9891, 0.338906, 0, 0
4, 0.00000, 53.9663, 0.353027, 53.9913, 0.340685, 53.9891, 0.338906, 0, 0
5, 0.00000, 53.9663, 0.353027, 53.9913, 0.340685, 53.9891, 0.338906, 0, 0
6, 0.00000, 53.9663, 0.353027, 53.9913, 0.340685, 53.9891, 0.338906, 0, 0
7, 0.00000, 53.9663, 0.353027, 53.9913, 0.340685, 53.9891, 0.338906, 0, 0
8, 0.00000, 53.9663, 0.353027, 53.9913, 0.340685, 53.9891, 0.338906, 0, 0
9, 0.00000, 53.9663, 0.353027, 53.9913, 0.340685, 53.9891, 0.338906, 0, 0
10, 0.00000, 53.9663, 0.353027, 53.9913, 0.340685, 53.9891, 0.338906, 0, 0
11, 0.00000, 53.9663, 0.353027, 53.9913, 0.340685, 53.9891, 0.338906, 0, 0
12, 0.00000, 53.9663, 0.353027, 53.9913, 0.340685, 53.9891, 0.338906, 0, 0
13, 0.00000, 53.9663, 0.353027, 53.9913, 0.340685, 53.9891, 0.338906, 0, 0
14, 0.00000, 53.9663, 0.353027, 53.9913, 0.340685, 53.9891, 0.338906, 0, 0
15, 0.00000, 53.9663, 0.353027, 53.9913, 0.340685, 53.9891, 0.338906, 0, 0
16, 0.00000, 53.9663, 0.353027, 53.9913, 0.340685, 53.9891, 0.338906, 0, 0
17, 0.00000, 53.9663, 0.353027, 53.9913, 0.340685, 53.9891, 0.338906, 0, 0
18, 0.00000, 53.9663, 0.353027, 53.9913, 0.340685, 53.9891, 0.338906, 0, 0
19, 0.00000, 53.9663, 0.353027, 53.9913, 0.340685, 53.9891, 0.338906, 0, 0
20, 0.00000, 53.9663, 0.353027, 53.9913, 0.340685, 53.9891, 0.338906, 0, 0
21, 0.00000, 53.9663, 0.353027, 53.9913, 0.340685, 53.9891, 0.338906, 0, 0
22, 0.00000, 53.9663, 0.353027, 53.9913, 0.340685, 53.9891, 0.338906, 0, 0
23, 0.00000, 53.9663, 0.351104, 53.9913, 0.338793, 53.9891, 0.337012, 0, 0
24, 0.00000, 53.9668, 0.329754, 53.991, 0.31793, 53.9889, 0.316121, 0, 0
25, 0.00000, 53.9692, 0.235258, 53.9897, 0.225622, 53.9882, 0.22373, 0, 0
26, 0.00000, 53.9705, 0.182158, 53.989, 0.173812, 53.9878, 0.171851, 0, 0
27, 0.00000, 53.9741, 0.0481689, 53.9872, 0.0428437, 53.9866, 0.0409712, 0, 0
28, 0.00000, 53.9758, -0.0190086, 53.9862, -0.0228888, 53.9859, -0.024631, 0, 0
29, 0.00000, 53.9777, -0.0853972, 53.9852, -0.0880675, 53.985, -0.0894295, 0, 0
30, 0.00000, 53.9786, -0.112527, 53.9848, -0.114793, 53.9846, -0.115873, 0, 0
31, 0.00000, 53.9787, -0.116818, 53.9847, -0.119023, 53.9846, -0.120065, 0, 0
32, 0.00000, 53.9788, -0.119613, 53.9847, -0.121775, 53.9846, -0.122807, 0, 0
33, 0.00000, 53.9788, -0.118742, 53.9847, -0.120917, 53.9845, -0.121952, 0, 0
34, 0.00000, 53.9788, -0.122571, 53.9847, -0.124684, 53.9845, -0.125723, 0, 0
35, 0.00000, 53.9782, -0.100447, 53.9851, -0.102846, 53.985, -0.104138, 0, 0
36, 0.00000, 53.9786, -0.113074, 53.9848, -0.115287, 53.9847, -0.11644, 0, 0
37, 0.00000, 53.9789, -0.125185, 53.9846, -0.12722, 53.9846, -0.128289, 0, 0
38, 0.00000, 53.9789, -0.125195, 53.9846, -0.12723, 53.9845, -0.128299, 0, 0
39, 0.00000, 53.9789, -0.125195, 53.9846, -0.12723, 53.9845, -0.128299, 0, 0
40, 0.00000, 53.9789, -0.125195, 53.9846, -0.12723, 53.9845, -0.128299, 0, 0
41, 0.00000, 53.9789, -0.125195, 53.9846, -0.12723, 53.9845, -0.128299, 0, 0
42, 0.00000, 53.9789, -0.125195, 53.9846, -0.12723, 53.9845, -0.128299, 0, 0
43, 0.00000, 53.9789, -0.125195, 53.9846, -0.12723, 53.9845, -0.128299, 0, 0
44, 0.00000, 53.9789, -0.125195, 53.9846, -0.12723, 53.9845, -0.128299, 0, 0
45, 0.00000, 53.9789, -0.125195, 53.9846, -0.12723, 53.9845, -0.128299, 0, 0
46, 0.00000, 53.9789, -0.125195, 53.9846, -0.12723, 53.9845, -0.128299, 0, 0
47, 0.00000, 53.9789, -0.125195, 53.9846, -0.12723, 53.9845, -0.128299, 0, 0
48, 0.00000, 53.9789, -0.125195, 53.9846, -0.12723, 53.9845, -0.128299, 0, 0
49, 0.00000, 53.9779, -0.0832692, 53.9852, -0.0863731, 53.9848, -0.0873259, 0, 0
50, 0.00000, 53.9779, -0.0832699, 53.9852, -0.0863738, 53.9848, -0.0873266, 0, 0
51, 0.00000, 53.9779, -0.0832699, 53.9852, -0.0863738, 53.9848, -0.0873266, 0, 0
52, 0.00000, 53.9779, -0.0832699, 53.9852, -0.0863738, 53.9848, -0.0873266, 0, 0
53, 0.00000, 53.9779, -0.0832699, 53.9852, -0.0863738, 53.9848, -0.0873266, 0, 0
54, 0.00000, 53.9779, -0.0832699, 53.9852, -0.0863738, 53.9848, -0.0873266, 0, 0
55, 0.00000, 53.9779, -0.0832699, 53.9852, -0.0863738, 53.9848, -0.0873266, 0, 0
56, 0.00000, 53.9779, -0.0832699, 53.9852, -0.0863738, 53.9848, -0.0873266, 0, 0
57, 0.00000, 53.9779, -0.0832699, 53.9852, -0.0863738, 53.9848, -0.0873266, 0, 0
58, 0.00000, 53.9779, -0.0832699, 53.9852, -0.0863738, 53.9848, -0.0873266, 0, 0
59, 0.00000, 53.9779, -0.0832699, 53.9852, -0.0863738, 53.9848, -0.0873266, 0, 0
60, 0.00000, 53.9779, -0.0832699, 53.9852, -0.0863738, 53.9848, -0.0873266, 0, 0
61, 0.00000, 53.9779, -0.0832699, 53.9852, -0.0863738, 53.9848, -0.0873266, 0, 0
62, 0.00000, 53.9779, -0.0828521, 53.9852, -0.085962, 53.9848, -0.086917, 0, 0
63, 0.00000, 53.9778, -0.0820683, 53.9852, -0.0851898, 53.9848, -0.0861482, 0, 0
64, 0.00000, 53.9778, -0.0812135, 53.9852, -0.084348, 53.9848, -0.0853091, 0, 0
65, 0.00000, 53.9778, -0.0802842, 53.9852, -0.083433, 53.9848, -0.0843962, 0, 0
66, 0.00000, 53.9778, -0.079048, 53.9852, -0.082216, 53.9848, -0.0831817, 0, 0
67, 0.00000, 53.9776, -0.0719958, 53.9854, -0.0752406, 53.9851, -0.0762993, 0, 0
68, 0.00000, 53.9749, 0.00731241, 53.9866, 0.00302503, 53.9863, 0.00099236, 0, 0
69, 0.00000, 53.9709, 0.124654, 53.9884, 0.11874, 53.9881, 0.115375, 0, 0
70, 0.00000, 53.964, 0.275277, 53.9887, 0.267116, 53.9883, 0.262279, 0, 0
71, 0.00000, 53.9659, 0.277355, 53.9906, 0.269159, 53.9903, 0.264302, 0, 0
72, 0.00000, 53.9659, 0.277362, 53.9906, 0.269166, 53.9903, 0.264309, 0, 0
73, 0.00000, 53.9607, 0.488593, 53.9933, 0.475039, 53.9915, 0.470796, 0, 0
74, 0.00000, 53.961, 0.488758, 53.9936, 0.475199, 53.9918, 0.470955, 0, 0
75, 0.00000, 53.961, 0.488759, 53.9936, 0.4752, 53.9918, 0.470956, 0, 0
76, 0.00000, 53.961, 0.488759, 53.9936, 0.4752, 53.9918, 0.470956, 0, 0
77, 0.00000, 53.961, 0.488759, 53.9936, 0.4752, 53.9918, 0.470956, 0, 0
78, 0.00000, 53.961, 0.488759, 53.9936, 0.4752, 53.9918, 0.470956, 0, 0
79, 0.00000, 53.961, 0.488759, 53.9936, 0.4752, 53.9918, 0.470956, 0, 0
80, 0.00000, 53.961, 0.488759, 53.9936, 0.4752, 53.9918, 0.470956, 0, 0
81, 0.00000, 53.961, 0.488759, 53.9936, 0.4752, 53.9918, 0.470956, 0, 0
82, 0.00000, 53.961, 0.488759, 53.9936, 0.4752, 53.9918, 0.470956, 0, 0
83, 0.00000, 53.961, 0.488759, 53.9936, 0.4752, 53.9918, 0.470956, 0, 0
84, 0.00000, 53.961, 0.488759, 53.9936, 0.4752, 53.9918, 0.470956, 0, 0
85, 0.00000, 53.961, 0.488759, 53.9936, 0.4752, 53.9918, 0.470956, 0, 0
86, 0.00000, 53.961, 0.488759, 53.9936, 0.4752, 53.9918, 0.470956, 0, 0
87, 0.00000, 53.961, 0.488759, 53.9936, 0.4752, 53.9918, 0.470956, 0, 0
88, 0.00000, 53.961, 0.488759, 53.9936, 0.4752, 53.9918, 0.470956, 0, 0
89, 0.00000, 53.961, 0.488759, 53.9936, 0.4752, 53.9918, 0.470956, 0, 0
90, 0.00000, 53.961, 0.488759, 53.9936, 0.4752, 53.9918, 0.470956, 0, 0
91, 0.00000, 53.961, 0.488759, 53.9936, 0.4752, 53.9918, 0.470956, 0, 0
92, 0.00000, 53.961, 0.488759, 53.9936, 0.4752, 53.9918, 0.470956, 0, 0
93, 0.00000, 53.961, 0.488759, 53.9936, 0.4752, 53.9918, 0.470956, 0, 0
94, 0.00000, 53.961, 0.488759, 53.9936, 0.4752, 53.9918, 0.470956, 0, 0
95, 0.00000, 53.961, 0.488759, 53.9936, 0.4752, 53.9918, 0.470956, 0, 0
96, 0.00000, 53.961, 0.488759, 53.9936, 0.4752, 53.9918, 0.470956, 0, 0
