hour, t(sec), P1 (kW), Q1 (kvar), P2 (kW), Q2 (kvar), P3 (kW), Q3 (kvar), P4 (kW), Q4 (kvar)
1, 0.00000, 3.36369, 1.43104, 3.36454, 1.43119, 3.36429, 1.4309, 0, 0
2, 0.00000, 3.36369, 1.43104, 3.36454, 1.43119, 3.36429, 1.4309, 0, 0
3, 0.00000, 3.36369, 1.43104, 3.36454, 1.43119, 3.36429, 1.4309, 0, 0
4, 0.00000, 3.36369, 1.43104, 3.36454, 1.43119, 3.36429, 1.4309, 0, 0
5, 0.00000, 3.36369, 1.43104, 3.36454, 1.43119, 3.36429, 1.4309, 0, 0
6, 0.00000, 3.36369, 1.43104, 3.36454, 1.43119, 3.36429, 1.4309, 0, 0
7, 0.00000, 3.36369, 1.43104, 3.36454, 1.43119, 3.36429, 1.4309, 0, 0
8, 0.00000, 3.36369, 1.43104, 3.36454, 1.43119, 3.36429, 1.4309, 0, 0
9, 0.00000, 3.36369, 1.43104, 3.36454, 1.43119, 3.36429, 1.4309, 0, 0
10, 0.00000, 3.36369, 1.43104, 3.36454, 1.43119, 3.36429, 1.4309, 0, 0
11, 0.00000, 3.36369, 1.43104, 3.36454, 1.43119, 3.36429, 1.4309, 0, 0
12, 0.00000, 3.36369, 1.43104, 3.36454, 1.43119, 3.36429, 1.4309, 0, 0
13, 0.00000, 3.36369, 1.43104, 3.36454, 1.43119, 3.36429, 1.4309, 0, 0
14, 0.00000, 3.36369, 1.43104, 3.36454, 1.43119, 3.36429, 1.4309, 0, 0
15, 0.00000, 3.36369, 1.43104, 3.36454, 1.43119, 3.36429, 1.4309, 0, 0
16, 0.00000, 3.36369, 1.43104, 3.36454, 1.43119, 3.36429, 1.4309, 0, 0
17, 0.00000, 3.36369, 1.43104, 3.36454, 1.43119, 3.36429, 1.4309, 0, 0
18, 0.00000, 3.36369, 1.43104, 3.36454, 1.43119, 3.36429, 1.4309, 0, 0
19, 0.00000, 3.36369, 1.43104, 3.36454, 1.43119, 3.36429, 1.4309, 0, 0
20, 0.00000, 3.36369, 1.43104, 3.36454, 1.43119, 3.36429, 1.4309, 0, 0
21, 0.00000, 3.36369, 1.43104, 3.36454, 1.43119, 3.36429, 1.4309, 0, 0
22, 0.00000, 3.36369, 1.43104, 3.36454, 1.43119, 3.36429, 1.4309, 0, 0
23, 0.00000, 1.69019, 0.665337, 1.69062, 0.665285, 1.69059, 0.66522, 0, 0
24, 0.00000, 0.021783, 0.00903709, 0.0218188, 0.00884077, 0.0219727, 0.00896433, 0, 0
25, 0.00000, -1.33713, 0.0453248, -1.33732, 0.0452235, -1.33711, 0.0453653, 0, 0
26, 0.00000, -1.337, 0.043418, -1.33717, 0.0433277, -1.33698, 0.0434511, 0, 0
27, 0.00000, -1.33676, 0.0397516, -1.33688, 0.039688, -1.33675, 0.0397755, 0, 0
28, 0.00000, -1.33664, 0.0378954, -1.33673, 0.0378463, -1.33663, 0.0379152, 0, 0
29, 0.00000, -1.33647, 0.035234, -1.33651, 0.0352112, -1.33646, 0.0352523, 0, 0
30, 0.00000, -1.3364, 0.034167, -1.33643, 0.0341572, -1.33639, 0.0341865, 0, 0
31, 0.00000, -1.33639, 0.0339858, -1.33641, 0.0339768, -1.33638, 0.0340043, 0, 0
32, 0.00000, -1.33636, 0.0334795, -1.33638, 0.0334733, -1.33635, 0.0334959, 0, 0
33, 0.00000, -1.33637, 0.0337815, -1.33639, 0.0337722, -1.33636, 0.0337978, 0, 0
34, 0.00000, -1.3363, 0.032676, -1.33631, 0.032673, -1.33629, 0.0326879, 0, 0
35, 0.00000, -1.33642, 0.0345477, -1.33646, 0.0345248, -1.33641, 0.0345595, 0, 0
36, 0.00000, -1.33639, 0.0341018, -1.33643, 0.0340849, -1.33639, 0.0341146, 0, 0
37, 0.00000, -1.33627, 0.0321854, -1.33627, 0.0321859, -1.33626, 0.0321958, 0, 0
38, 0.00000, -1.33627, 0.0321842, -1.33627, 0.0321846, -1.33626, 0.0321946, 0, 0
39, 0.00000, -1.33627, 0.0321841, -1.33627, 0.0321846, -1.33626, 0.0321946, 0, 0
40, 0.00000, -1.33627, 0.0321841, -1.33627, 0.0321846, -1.33626, 0.0321946, 0, 0
41, 0.00000, -1.33627, 0.0321841, -1.33627, 0.0321846, -1.33626, 0.0321946, 0, 0
42, 0.00000, -1.33627, 0.0321841, -1.33627, 0.0321846, -1.33626, 0.0321946, 0, 0
43, 0.00000, -1.33627, 0.0321841, -1.33627, 0.0321846, -1.33626, 0.0321946, 0, 0
44, 0.00000, -1.33627, 0.0321841, -1.33627, 0.0321846, -1.33626, 0.0321946, 0, 0
45, 0.00000, -1.33627, 0.0321841, -1.33627, 0.0321846, -1.33626, 0.0321946, 0, 0
46, 0.00000, -1.33627, 0.0321841, -1.33627, 0.0321846, -1.33626, 0.0321946, 0, 0
47, 0.00000, -1.33627, 0.0321841, -1.33627, 0.0321846, -1.33626, 0.0321946, 0, 0
48, 0.00000, -1.33627, 0.0321841, -1.33627, 0.0321846, -1.33626, 0.0321946, 0, 0
49, 0.00000, -1.19294, 0.0945113, -1.19295, 0.0945065, -1.19293, 0.0945257, 0, 0
50, 0.00000, -1.19294, 0.0945112, -1.19295, 0.0945065, -1.19293, 0.0945256, 0, 0
51, 0.00000, -1.19294, 0.0945112, -1.19295, 0.0945065, -1.19293, 0.0945256, 0, 0
52, 0.00000, -1.19294, 0.0945112, -1.19295, 0.0945065, -1.19293, 0.0945256, 0, 0
53, 0.00000, -1.19294, 0.0945112, -1.19295, 0.0945065, -1.19293, 0.0945256, 0, 0
54, 0.00000, -1.19294, 0.0945112, -1.19295, 0.0945065, -1.19293, 0.0945256, 0, 0
55, 0.00000, -1.19294, 0.0945112, -1.19295, 0.0945065, -1.19293, 0.0945256, 0, 0
56, 0.00000, -1.19294, 0.0945112, -1.19295, 0.0945065, -1.19293, 0.0945256, 0, 0
57, 0.00000, -1.19294, 0.0945112, -1.19295, 0.0945065, -1.19293, 0.0945256, 0, 0
58, 0.00000, -1.19294, 0.0945112, -1.19295, 0.0945065, -1.19293, 0.0945256, 0, 0
59, 0.00000, -1.19294, 0.0945112, -1.19295, 0.0945065, -1.19293, 0.0945256, 0, 0
60, 0.00000, -1.19294, 0.0945112, -1.19295, 0.0945065, -1.19293, 0.0945256, 0, 0
61, 0.00000, -1.19294, 0.0945112, -1.19295, 0.0945065, -1.19293, 0.0945256, 0, 0
62, 0.00000, -1.19295, 0.0946614, -1.19297, 0.0946552, -1.19294, 0.0946757, 0, 0
63, 0.00000, -1.19297, 0.0949345, -1.19299, 0.0949255, -1.19296, 0.0949487, 0, 0
64, 0.00000, -1.19299, 0.0952212, -1.19301, 0.0952096, -1.19297, 0.0952356, 0, 0
65, 0.00000, -1.19301, 0.0955225, -1.19303, 0.0955084, -1.19299, 0.0955372, 0, 0
66, 0.00000, -1.19304, 0.0959206, -1.19307, 0.0959033, -1.19302, 0.095936, 0, 0
67, 0.00000, -1.19306, 0.0963933, -1.1931, 0.0963714, -1.19305, 0.0964086, 0, 0
68, 0.00000, -1.19327, 0.0996929, -1.19337, 0.0996308, -1.19326, 0.0997022, 0, 0
69, 0.00000, -1.19349, 0.103054, -1.19365, 0.102948, -1.19347, 0.103054, 0, 0
70, 0.00000, 1.93034, 0.118772, 1.93076, 0.118575, 1.93081, 0.118539, 0, 0
71, 0.00000, 3.60343, 0.135669, 3.60424, 0.13546, 3.60416, 0.135309, 0, 0
72, 0.00000, 3.60343, 0.13567, 3.60424, 0.135461, 3.60416, 0.13531, 0, 0
73, 0.00000, 4.90426, 0.71434, 4.90571, 0.714105, 4.90548, 0.713804, 0, 0
74, 0.00000, 4.90426, 0.714344, 4.90571, 0.714108, 4.90548, 0.713807, 0, 0
75, 0.00000, 4.90426, 0.714344, 4.90571, 0.714108, 4.90548, 0.713807, 0, 0
76, 0.00000, 4.90426, 0.714344, 4.90571, 0.714108, 4.90548, 0.713807, 0, 0
77, 0.00000, 4.90426, 0.714344, 4.90571, 0.714108, 4.90548, 0.713807, 0, 0
78, 0.00000, 4.90426, 0.714344, 4.90571, 0.714108, 4.90548, 0.713807, 0, 0
79, 0.00000, 4.90426, 0.714344, 4.90571, 0.714108, 4.90548, 0.713807, 0, 0
80, 0.00000, 4.90426, 0.714344, 4.90571, 0.714108, 4.90548, 0.713807, 0, 0
81, 0.00000, 4.90426, 0.714344, 4.90571, 0.714108, 4.90548, 0.713807, 0, 0
82, 0.00000, 4.90426, 0.714344, 4.90571, 0.714108, 4.90548, 0.713807, 0, 0
83, 0.00000, 4.90426, 0.714344, 4.90571, 0.714108, 4.90548, 0.713807, 0, 0
84, 0.00000, 4.90426, 0.714344, 4.90571, 0.714108, 4.90548, 0.713807, 0, 0
85, 0.00000, 4.90426, 0.714344, 4.90571, 0.714108, 4.90548, 0.713807, 0, 0
86, 0.00000, 4.90426, 0.714344, 4.90571, 0.714108, 4.90548, 0.713807, 0, 0
87, 0.00000, 4.90426, 0.714344, 4.90571, 0.714108, 4.90548, 0.713807, 0, 0
88, 0.00000, 4.90426, 0.714344, 4.90571, 0.714108, 4.90548, 0.713807, 0, 0
89, 0.00000, 4.90426, 0.714344, 4.90571, 0.714108, 4.90548, 0.713807, 0, 0
90, 0.00000, 4.90426, 0.714344, 4.90571, 0.714108, 4.90548, 0.713807, 0, 0
91, 0.00000, 4.90426, 0.714344, 4.90571, 0.714108, 4.90548, 0.713807, 0, 0
92, 0.00000, 4.90426, 0.714344, 4.90571, 0.714108, 4.90548, 0.713807, 0, 0
93, 0.00000, 4.90426, 0.714344, 4.90571, 0.714108, 4.90548, 0.713807, 0, 0
94, 0.00000, 4.90426, 0.714344, 4.90571, 0.714108, 4.90548, 0.713807, 0, 0
95, 0.00000, 4.90426, 0.714344, 4.90571, 0.714108, 4.90548, 0.713807, 0, 0
96, 0.00000, 4.90426, 0.714344, 4.90571, 0.714108, 4.90548, 0.713807, 0, 0
