hour, t(sec), P1 (kW), Q1 (kvar), P2 (kW), Q2 (kvar), P3 (kW), Q3 (kvar), P4 (kW), Q4 (kvar)
1, 0.00000, 0.26663, 1.87445, 0.266964, 1.87588, 0.266578, 1.87529, 0, 0
2, 0.00000, 0.26663, 1.87445, 0.266964, 1.87588, 0.266578, 1.87529, 0, 0
3, 0.00000, 0.26663, 1.87445, 0.266964, 1.87588, 0.266578, 1.87529, 0, 0
4, 0.00000, 0.26663, 1.87445, 0.266964, 1.87588, 0.266578, 1.87529, 0, 0
5, 0.00000, 0.26663, 1.87445, 0.266964, 1.87588, 0.266578, 1.87529, 0, 0
6, 0.00000, 0.26663, 1.87445, 0.266964, 1.87588, 0.266578, 1.87529, 0, 0
7, 0.00000, 0.26663, 1.87445, 0.266964, 1.87588, 0.266578, 1.87529, 0, 0
8, 0.00000, 0.26663, 1.87445, 0.266964, 1.87588, 0.266578, 1.87529, 0, 0
9, 0.00000, 0.26663, 1.87445, 0.266964, 1.87588, 0.266578, 1.87529, 0, 0
10, 0.00000, 0.26663, 1.87445, 0.266964, 1.87588, 0.266578, 1.87529, 0, 0
11, 0.00000, 0.26663, 1.87445, 0.266964, 1.87588, 0.266578, 1.87529, 0, 0
12, 0.00000, 0.26663, 1.87445, 0.266964, 1.87588, 0.266578, 1.87529, 0, 0
13, 0.00000, 0.26663, 1.87445, 0.266964, 1.87588, 0.266578, 1.87529, 0, 0
14, 0.00000, 0.26663, 1.87445, 0.266964, 1.87588, 0.266578, 1.87529, 0, 0
15, 0.00000, 0.26663, 1.87445, 0.266964, 1.87588, 0.266578, 1.87529, 0, 0
16, 0.00000, 0.26663, 1.87445, 0.266964, 1.87588, 0.266578, 1.87529, 0, 0
17, 0.00000, 0.26663, 1.87445, 0.266964, 1.87588, 0.266578, 1.87529, 0, 0
18, 0.00000, 0.26663, 1.87445, 0.266964, 1.87588, 0.266578, 1.87529, 0, 0
19, 0.00000, 0.26663, 1.87445, 0.266964, 1.87588, 0.266578, 1.87529, 0, 0
20, 0.00000, 0.26663, 1.87445, 0.266964, 1.87588, 0.266578, 1.87529, 0, 0
21, 0.00000, 0.26663, 1.87445, 0.266964, 1.87588, 0.266578, 1.87529, 0, 0
22, 0.00000, 0.26663, 1.87445, 0.266964, 1.87588, 0.266578, 1.87529, 0, 0
23, 0.00000, 0.266649, 1.87458, 0.266982, 1.87601, 0.266597, 1.87542, 0, 0
24, 0.00000, 0.266862, 1.87607, 0.267183, 1.87746, 0.266811, 1.87689, 0, 0
25, 0.00000, 0.267801, 1.88266, 0.268072, 1.88386, 0.267755, 1.88339, 0, 0
26, 0.00000, 0.26833, 1.88637, 0.268571, 1.88746, 0.268286, 1.88704, 0, 0
27, 0.00000, 0.269663, 1.89574, 0.26983, 1.89653, 0.269628, 1.89625, 0, 0
28, 0.00000, 0.270332, 1.90045, 0.270461, 1.90108, 0.270302, 1.90087, 0, 0
29, 0.00000, 0.270992, 1.90511, 0.271084, 1.90558, 0.270969, 1.90542, 0, 0
30, 0.00000, 0.271262, 1.90703, 0.271338, 1.90741, 0.271243, 1.90729, 0, 0
31, 0.00000, 0.271304, 1.90733, 0.271379, 1.9077, 0.271287, 1.90758, 0, 0
32, 0.00000, 0.271332, 1.90753, 0.271405, 1.90789, 0.271315, 1.90777, 0, 0
33, 0.00000, 0.271323, 1.90747, 0.271397, 1.90783, 0.271306, 1.90771, 0, 0
34, 0.00000, 0.271362, 1.90774, 0.271434, 1.9081, 0.271344, 1.90798, 0, 0
35, 0.00000, 0.271142, 1.90618, 0.271226, 1.9066, 0.271121, 1.90646, 0, 0
36, 0.00000, 0.271267, 1.90707, 0.271344, 1.90745, 0.271248, 1.90733, 0, 0
37, 0.00000, 0.271388, 1.90792, 0.271458, 1.90827, 0.27137, 1.90816, 0, 0
38, 0.00000, 0.271388, 1.90792, 0.271458, 1.90827, 0.27137, 1.90816, 0, 0
39, 0.00000, 0.271388, 1.90792, 0.271458, 1.90827, 0.27137, 1.90816, 0, 0
40, 0.00000, 0.271388, 1.90792, 0.271458, 1.90827, 0.27137, 1.90816, 0, 0
41, 0.00000, 0.271388, 1.90792, 0.271458, 1.90827, 0.27137, 1.90816, 0, 0
42, 0.00000, 0.271388, 1.90792, 0.271458, 1.90827, 0.27137, 1.90816, 0, 0
43, 0.00000, 0.271388, 1.90792, 0.271458, 1.90827, 0.27137, 1.90816, 0, 0
44, 0.00000, 0.271388, 1.90792, 0.271458, 1.90827, 0.27137, 1.90816, 0, 0
45, 0.00000, 0.271388, 1.90792, 0.271458, 1.90827, 0.27137, 1.90816, 0, 0
46, 0.00000, 0.271388, 1.90792, 0.271458, 1.90827, 0.27137, 1.90816, 0, 0
47, 0.00000, 0.271388, 1.90792, 0.271458, 1.90827, 0.27137, 1.90816, 0, 0
48, 0.00000, 0.271388, 1.90792, 0.271458, 1.90827, 0.27137, 1.90816, 0, 0
49, 0.00000, 0.27097, 1.90499, 0.271064, 1.90543, 0.270951, 1.90527, 0, 0
50, 0.00000, 0.27097, 1.90499, 0.271064, 1.90543, 0.270951, 1.90527, 0, 0
51, 0.00000, 0.27097, 1.90499, 0.271064, 1.90543, 0.270951, 1.90527, 0, 0
52, 0.00000, 0.27097, 1.90499, 0.271064, 1.90543, 0.270951, 1.90527, 0, 0
53, 0.00000, 0.27097, 1.90499, 0.271064, 1.90543, 0.270951, 1.90527, 0, 0
54, 0.00000, 0.27097, 1.90499, 0.271064, 1.90543, 0.270951, 1.90527, 0, 0
55, 0.00000, 0.27097, 1.90499, 0.271064, 1.90543, 0.270951, 1.90527, 0, 0
56, 0.00000, 0.27097, 1.90499, 0.271064, 1.90543, 0.270951, 1.90527, 0, 0
57, 0.00000, 0.27097, 1.90499, 0.271064, 1.90543, 0.270951, 1.90527, 0, 0
58, 0.00000, 0.27097, 1.90499, 0.271064, 1.90543, 0.270951, 1.90527, 0, 0
59, 0.00000, 0.27097, 1.90499, 0.271064, 1.90543, 0.270951, 1.90527, 0, 0
60, 0.00000, 0.27097, 1.90499, 0.271064, 1.90543, 0.270951, 1.90527, 0, 0
61, 0.00000, 0.27097, 1.90499, 0.271064, 1.90543, 0.270951, 1.90527, 0, 0
62, 0.00000, 0.270966, 1.90496, 0.27106, 1.90541, 0.270947, 1.90524, 0, 0
63, 0.00000, 0.270958, 1.90491, 0.271053, 1.90535, 0.270939, 1.90519, 0, 0
64, 0.00000, 0.27095, 1.90485, 0.271045, 1.90529, 0.27093, 1.90513, 0, 0
65, 0.00000, 0.27094, 1.90478, 0.271036, 1.90523, 0.270921, 1.90507, 0, 0
66, 0.00000, 0.270928, 1.9047, 0.271024, 1.90514, 0.270909, 1.90498, 0, 0
67, 0.00000, 0.270858, 1.9042, 0.270958, 1.90467, 0.270838, 1.9045, 0, 0
68, 0.00000, 0.270069, 1.89859, 0.270214, 1.8993, 0.270035, 1.89906, 0, 0
69, 0.00000, 0.268903, 1.89029, 0.269114, 1.89136, 0.26885, 1.89102, 0, 0
70, 0.00000, 0.267395, 1.8796, 0.267691, 1.8811, 0.26732, 1.88062, 0, 0
71, 0.00000, 0.267384, 1.87952, 0.267681, 1.88103, 0.267309, 1.88055, 0, 0
72, 0.00000, 0.267384, 1.87952, 0.267681, 1.88103, 0.267309, 1.88055, 0, 0
73, 0.00000, 0.265283, 1.86481, 0.265696, 1.86672, 0.265201, 1.86601, 0, 0
74, 0.00000, 0.265283, 1.86481, 0.265696, 1.86672, 0.265201, 1.86601, 0, 0
75, 0.00000, 0.265283, 1.86481, 0.265696, 1.86672, 0.265201, 1.86601, 0, 0
76, 0.00000, 0.265283, 1.86481, 0.265696, 1.86672, 0.265201, 1.86601, 0, 0
77, 0.00000, 0.265283, 1.86481, 0.265696, 1.86672, 0.265201, 1.86601, 0, 0
78, 0.00000, 0.265283, 1.86481, 0.265696, 1.86672, 0.265201, 1.86601, 0, 0
79, 0.00000, 0.265283, 1.86481, 0.265696, 1.86672, 0.265201, 1.86601, 0, 0
80, 0.00000, 0.265283, 1.86481, 0.265696, 1.86672, 0.265201, 1.86601, 0, 0
81, 0.00000, 0.265283, 1.86481, 0.265696, 1.86672, 0.265201, 1.86601, 0, 0
82, 0.00000, 0.265283, 1.86481, 0.265696, 1.86672, 0.265201, 1.86601, 0, 0
83, 0.00000, 0.265283, 1.86481, 0.265696, 1.86672, 0.265201, 1.86601, 0, 0
84, 0.00000, 0.265283, 1.86481, 0.265696, 1.86672, 0.265201, 1.86601, 0, 0
85, 0.00000, 0.265283, 1.86481, 0.265696, 1.86672, 0.265201, 1.86601, 0, 0
86, 0.00000, 0.265283, 1.86481, 0.265696, 1.86672, 0.265201, 1.86601, 0, 0
87, 0.00000, 0.265283, 1.86481, 0.265696, 1.86672, 0.265201, 1.86601, 0, 0
88, 0.00000, 0.265283, 1.86481, 0.265696, 1.86672, 0.265201, 1.86601, 0, 0
89, 0.00000, 0.265283, 1.86481, 0.265696, 1.86672, 0.265201, 1.86601, 0, 0
90, 0.00000, 0.265283, 1.86481, 0.265696, 1.86672, 0.265201, 1.86601, 0, 0
91, 0.00000, 0.265283, 1.86481, 0.265696, 1.86672, 0.265201, 1.86601, 0, 0
92, 0.00000, 0.265283, 1.86481, 0.265696, 1.86672, 0.265201, 1.86601, 0, 0
93, 0.00000, 0.265283, 1.86481, 0.265696, 1.86672, 0.265201, 1.86601, 0, 0
94, 0.00000, 0.265283, 1.86481, 0.265696, 1.86672, 0.265201, 1.86601, 0, 0
95, 0.00000, 0.265283, 1.86481, 0.265696, 1.86672, 0.265201, 1.86601, 0, 0
96, 0.00000, 0.265283, 1.86481, 0.265696, 1.86672, 0.265201, 1.86601, 0, 0
