hour, t(sec), P1 (kW), Q1 (kvar), P2 (kW), Q2 (kvar), P3 (kW), Q3 (kvar), P4 (kW), Q4 (kvar)
1, 0.00000, 2.90812, 1.15196, 2.909, 1.15206, 2.90876, 1.15179, 0, 0
2, 0.00000, 2.90812, 1.15196, 2.909, 1.15206, 2.90876, 1.15179, 0, 0
3, 0.00000, 2.90812, 1.15196, 2.909, 1.15206, 2.90876, 1.15179, 0, 0
4, 0.00000, 2.90812, 1.15196, 2.909, 1.15206, 2.90876, 1.15179, 0, 0
5, 0.00000, 2.90812, 1.15196, 2.909, 1.15206, 2.90876, 1.15179, 0, 0
6, 0.00000, 2.90812, 1.15196, 2.909, 1.15206, 2.90876, 1.15179, 0, 0
7, 0.00000, 2.90812, 1.15196, 2.909, 1.15206, 2.90876, 1.15179, 0, 0
8, 0.00000, 2.90812, 1.15196, 2.909, 1.15206, 2.90876, 1.15179, 0, 0
9, 0.00000, 2.90812, 1.15196, 2.909, 1.15206, 2.90876, 1.15179, 0, 0
10, 0.00000, 2.90812, 1.15196, 2.909, 1.15206, 2.90876, 1.15179, 0, 0
11, 0.00000, 2.90812, 1.15196, 2.909, 1.15206, 2.90876, 1.15179, 0, 0
12, 0.00000, 2.90812, 1.15196, 2.909, 1.15206, 2.90876, 1.15179, 0, 0
13, 0.00000, 2.90812, 1.15196, 2.909, 1.15206, 2.90876, 1.15179, 0, 0
14, 0.00000, 2.90812, 1.15196, 2.909, 1.15206, 2.90876, 1.15179, 0, 0
15, 0.00000, 2.90812, 1.15196, 2.909, 1.15206, 2.90876, 1.15179, 0, 0
16, 0.00000, 2.90812, 1.15196, 2.909, 1.15206, 2.90876, 1.15179, 0, 0
17, 0.00000, 2.90812, 1.15196, 2.909, 1.15206, 2.90876, 1.15179, 0, 0
18, 0.00000, 2.90812, 1.15196, 2.909, 1.15206, 2.90876, 1.15179, 0, 0
19, 0.00000, 2.90812, 1.15196, 2.909, 1.15206, 2.90876, 1.15179, 0, 0
20, 0.00000, 2.90812, 1.15196, 2.909, 1.15206, 2.90876, 1.15179, 0, 0
21, 0.00000, 2.90812, 1.15196, 2.909, 1.15206, 2.90876, 1.15179, 0, 0
22, 0.00000, 2.90812, 1.15196, 2.909, 1.15206, 2.90876, 1.15179, 0, 0
23, 0.00000, 1.23614, 0.446751, 1.23652, 0.44664, 1.23653, 0.446623, 0, 0
24, 0.00000, -0.430986, 0.092453, -0.431053, 0.0922975, -0.430847, 0.0924424, 0, 0
25, 0.00000, -1.66518, 0.37454, -1.66546, 0.374521, -1.66519, 0.374665, 0, 0
26, 0.00000, -1.66504, 0.372652, -1.66528, 0.372634, -1.66505, 0.372759, 0, 0
27, 0.00000, -1.66478, 0.369082, -1.66495, 0.36907, -1.66479, 0.369159, 0, 0
28, 0.00000, -1.66465, 0.367234, -1.66478, 0.367226, -1.66465, 0.367296, 0, 0
29, 0.00000, -1.66446, 0.36453, -1.66453, 0.364535, -1.66445, 0.364575, 0, 0
30, 0.00000, -1.66438, 0.363446, -1.66442, 0.363458, -1.66437, 0.363485, 0, 0
31, 0.00000, -1.66437, 0.363262, -1.6644, 0.363273, -1.66436, 0.363298, 0, 0
32, 0.00000, -1.66433, 0.362735, -1.66436, 0.362746, -1.66432, 0.362766, 0, 0
33, 0.00000, -1.66435, 0.363049, -1.66438, 0.363059, -1.66434, 0.363082, 0, 0
34, 0.00000, -1.66427, 0.361898, -1.66428, 0.361908, -1.66426, 0.36192, 0, 0
35, 0.00000, -1.6644, 0.363835, -1.66446, 0.363834, -1.6644, 0.363868, 0, 0
36, 0.00000, -1.66437, 0.363382, -1.66442, 0.363385, -1.66437, 0.363414, 0, 0
37, 0.00000, -1.66423, 0.361389, -1.66423, 0.361399, -1.66422, 0.361406, 0, 0
38, 0.00000, -1.66423, 0.361387, -1.66423, 0.361397, -1.66422, 0.361404, 0, 0
39, 0.00000, -1.66423, 0.361387, -1.66423, 0.361397, -1.66422, 0.361404, 0, 0
40, 0.00000, -1.66423, 0.361387, -1.66423, 0.361397, -1.66422, 0.361404, 0, 0
41, 0.00000, -1.66423, 0.361387, -1.66423, 0.361397, -1.66422, 0.361404, 0, 0
42, 0.00000, -1.66423, 0.361387, -1.66423, 0.361397, -1.66422, 0.361404, 0, 0
43, 0.00000, -1.66423, 0.361387, -1.66423, 0.361397, -1.66422, 0.361404, 0, 0
44, 0.00000, -1.66423, 0.361387, -1.66423, 0.361397, -1.66422, 0.361404, 0, 0
45, 0.00000, -1.66423, 0.361387, -1.66423, 0.361397, -1.66422, 0.361404, 0, 0
46, 0.00000, -1.66423, 0.361387, -1.66423, 0.361397, -1.66422, 0.361404, 0, 0
47, 0.00000, -1.66423, 0.361387, -1.66423, 0.361397, -1.66422, 0.361404, 0, 0
48, 0.00000, -1.66423, 0.361387, -1.66423, 0.361397, -1.66422, 0.361404, 0, 0
49, 0.00000, -1.3534, 0.504304, -1.35341, 0.504315, -1.35338, 0.504329, 0, 0
50, 0.00000, -1.3534, 0.504304, -1.35341, 0.504315, -1.35338, 0.504329, 0, 0
51, 0.00000, -1.3534, 0.504304, -1.35341, 0.504315, -1.35338, 0.504329, 0, 0
52, 0.00000, -1.3534, 0.504304, -1.35341, 0.504315, -1.35338, 0.504329, 0, 0
53, 0.00000, -1.3534, 0.504304, -1.35341, 0.504315, -1.35338, 0.504329, 0, 0
54, 0.00000, -1.3534, 0.504304, -1.35341, 0.504315, -1.35338, 0.504329, 0, 0
55, 0.00000, -1.3534, 0.504304, -1.35341, 0.504315, -1.35338, 0.504329, 0, 0
56, 0.00000, -1.3534, 0.504304, -1.35341, 0.504315, -1.35338, 0.504329, 0, 0
57, 0.00000, -1.3534, 0.504304, -1.35341, 0.504315, -1.35338, 0.504329, 0, 0
58, 0.00000, -1.3534, 0.504304, -1.35341, 0.504315, -1.35338, 0.504329, 0, 0
59, 0.00000, -1.3534, 0.504304, -1.35341, 0.504315, -1.35338, 0.504329, 0, 0
60, 0.00000, -1.3534, 0.504304, -1.35341, 0.504315, -1.35338, 0.504329, 0, 0
61, 0.00000, -1.3534, 0.504304, -1.35341, 0.504315, -1.35338, 0.504329, 0, 0
62, 0.00000, -1.35341, 0.504461, -1.35342, 0.504471, -1.35339, 0.504487, 0, 0
63, 0.00000, -1.35343, 0.504746, -1.35345, 0.504755, -1.35342, 0.504773, 0, 0
64, 0.00000, -1.35345, 0.505045, -1.35348, 0.505053, -1.35344, 0.505074, 0, 0
65, 0.00000, -1.35347, 0.505359, -1.35351, 0.505367, -1.35346, 0.505391, 0, 0
66, 0.00000, -1.35351, 0.505777, -1.35355, 0.505783, -1.3535, 0.505811, 0, 0
67, 0.00000, -1.35354, 0.506262, -1.35359, 0.506267, -1.35353, 0.506299, 0, 0
68, 0.00000, -1.35379, 0.509641, -1.35391, 0.509628, -1.35377, 0.509694, 0, 0
69, 0.00000, -1.35402, 0.512996, -1.35424, 0.512961, -1.35402, 0.513061, 0, 0
70, 0.00000, 2.17335, 0.529411, 2.17392, 0.529316, 2.17395, 0.529203, 0, 0
71, 0.00000, 3.84703, 0.547055, 3.84807, 0.546949, 3.84795, 0.546698, 0, 0
72, 0.00000, 3.84703, 0.547056, 3.84807, 0.54695, 3.84795, 0.546699, 0, 0
73, 0.00000, 5.3108, 1.24166, 5.31269, 1.24159, 5.31237, 1.2411, 0, 0
74, 0.00000, 5.31081, 1.24166, 5.3127, 1.24159, 5.31238, 1.24111, 0, 0
75, 0.00000, 5.31081, 1.24166, 5.3127, 1.24159, 5.31238, 1.24111, 0, 0
76, 0.00000, 5.31081, 1.24166, 5.3127, 1.24159, 5.31238, 1.24111, 0, 0
77, 0.00000, 5.31081, 1.24166, 5.3127, 1.24159, 5.31238, 1.24111, 0, 0
78, 0.00000, 5.31081, 1.24166, 5.3127, 1.24159, 5.31238, 1.24111, 0, 0
79, 0.00000, 5.31081, 1.24166, 5.3127, 1.24159, 5.31238, 1.24111, 0, 0
80, 0.00000, 5.31081, 1.24166, 5.3127, 1.24159, 5.31238, 1.24111, 0, 0
81, 0.00000, 5.31081, 1.24166, 5.3127, 1.24159, 5.31238, 1.24111, 0, 0
82, 0.00000, 5.31081, 1.24166, 5.3127, 1.24159, 5.31238, 1.24111, 0, 0
83, 0.00000, 5.31081, 1.24166, 5.3127, 1.24159, 5.31238, 1.24111, 0, 0
84, 0.00000, 5.31081, 1.24166, 5.3127, 1.24159, 5.31238, 1.24111, 0, 0
85, 0.00000, 5.31081, 1.24166, 5.3127, 1.24159, 5.31238, 1.24111, 0, 0
86, 0.00000, 5.31081, 1.24166, 5.3127, 1.24159, 5.31238, 1.24111, 0, 0
87, 0.00000, 5.31081, 1.24166, 5.3127, 1.24159, 5.31238, 1.24111, 0, 0
88, 0.00000, 5.31081, 1.24166, 5.3127, 1.24159, 5.31238, 1.24111, 0, 0
89, 0.00000, 5.31081, 1.24166, 5.3127, 1.24159, 5.31238, 1.24111, 0, 0
90, 0.00000, 5.31081, 1.24166, 5.3127, 1.24159, 5.31238, 1.24111, 0, 0
91, 0.00000, 5.31081, 1.24166, 5.3127, 1.24159, 5.31238, 1.24111, 0, 0
92, 0.00000, 5.31081, 1.24166, 5.3127, 1.24159, 5.31238, 1.24111, 0, 0
93, 0.00000, 5.31081, 1.24166, 5.3127, 1.24159, 5.31238, 1.24111, 0, 0
94, 0.00000, 5.31081, 1.24166, 5.3127, 1.24159, 5.31238, 1.24111, 0, 0
95, 0.00000, 5.31081, 1.24166, 5.3127, 1.24159, 5.31238, 1.24111, 0, 0
96, 0.00000, 5.31081, 1.24166, 5.3127, 1.24159, 5.31238, 1.24111, 0, 0
