hour, t(sec), P1 (kW), Q1 (kvar), P2 (kW), Q2 (kvar), P3 (kW), Q3 (kvar), P4 (kW), Q4 (kvar)
1, 0.00000, 100.065, 40.5328, 100.128, 40.5521, 100.093, 40.5533, 0, 0
2, 0.00000, 100.065, 40.5328, 100.128, 40.5521, 100.093, 40.5533, 0, 0
3, 0.00000, 100.065, 40.5328, 100.128, 40.5521, 100.093, 40.5533, 0, 0
4, 0.00000, 100.065, 40.5328, 100.128, 40.5521, 100.093, 40.5533, 0, 0
5, 0.00000, 100.065, 40.5328, 100.128, 40.5521, 100.093, 40.5533, 0, 0
6, 0.00000, 100.065, 40.5328, 100.128, 40.5521, 100.093, 40.5533, 0, 0
7, 0.00000, 100.065, 40.5328, 100.128, 40.5521, 100.093, 40.5533, 0, 0
8, 0.00000, 100.065, 40.5328, 100.128, 40.5521, 100.093, 40.5533, 0, 0
9, 0.00000, 100.065, 40.5328, 100.128, 40.5521, 100.093, 40.5533, 0, 0
10, 0.00000, 100.065, 40.5328, 100.128, 40.5521, 100.093, 40.5533, 0, 0
11, 0.00000, 100.065, 40.5328, 100.128, 40.5521, 100.093, 40.5533, 0, 0
12, 0.00000, 100.065, 40.5328, 100.128, 40.5521, 100.093, 40.5533, 0, 0
13, 0.00000, 100.065, 40.5328, 100.128, 40.5521, 100.093, 40.5533, 0, 0
14, 0.00000, 100.065, 40.5328, 100.128, 40.5521, 100.093, 40.5533, 0, 0
15, 0.00000, 100.065, 40.5328, 100.128, 40.5521, 100.093, 40.5533, 0, 0
16, 0.00000, 100.065, 40.5328, 100.128, 40.5521, 100.093, 40.5533, 0, 0
17, 0.00000, 100.065, 40.5328, 100.128, 40.5521, 100.093, 40.5533, 0, 0
18, 0.00000, 100.065, 40.5328, 100.128, 40.5521, 100.093, 40.5533, 0, 0
19, 0.00000, 100.065, 40.5328, 100.128, 40.5521, 100.093, 40.5533, 0, 0
20, 0.00000, 100.065, 40.5328, 100.128, 40.5521, 100.093, 40.5533, 0, 0
21, 0.00000, 100.065, 40.5328, 100.128, 40.5521, 100.093, 40.5533, 0, 0
22, 0.00000, 100.065, 40.5328, 100.128, 40.5521, 100.093, 40.5533, 0, 0
23, 0.00000, 100.107, 40.5508, 100.17, 40.5698, 100.135, 40.571, 0, 0
24, 0.00000, 100.233, 40.6041, 100.293, 40.6221, 100.26, 40.6233, 0, 0
25, 0.00000, 100.688, 40.7965, 100.736, 40.811, 100.71, 40.8121, 0, 0
26, 0.00000, 100.887, 40.8804, 100.929, 40.8933, 100.906, 40.8944, 0, 0
27, 0.00000, 101.261, 41.0386, 101.292, 41.0483, 101.275, 41.049, 0, 0
28, 0.00000, 101.457, 41.1215, 101.482, 41.1294, 101.468, 41.13, 0, 0
29, 0.00000, 76.2457, 31.4153, 76.2596, 31.4195, 76.2513, 31.4208, 0, 0
30, 0.00000, 67.7816, 27.787, 67.7914, 27.79, 67.785, 27.791, 0, 0
31, 0.00000, 63.874, 24.9355, 63.883, 24.9382, 63.8771, 24.9394, 0, 0
32, 0.00000, 45.8049, 18.0374, 45.8112, 18.0393, 45.8069, 18.0407, 0, 0
33, 0.00000, 59.1889, 19.6638, 59.1971, 19.6659, 59.1919, 19.6674, 0, 0
34, 0.00000, 18.7061, 5.16138, 18.707, 5.15999, 18.7078, 5.1607, 0, 0
35, 0.00000, 77.7473, 15.944, 77.7599, 15.9458, 77.7532, 15.9482, 0, 0
36, 0.00000, 73.2369, 15.0435, 73.2476, 15.0451, 73.2417, 15.0473, 0, 0
37, 0.00000, 0.0987414, 0.00177651, 0.0990083, 0.000855378, 0.0996718, 0.00154434, 0, 0
38, 0.00000, 0.0987621, -0.00673237, 0.0990251, -0.00765295, 0.0996899, -0.00696761, 0, 0
39, 0.00000, 0.0987626, -0.00690106, 0.0990254, -0.00782162, 0.0996903, -0.00713639, 0, 0
40, 0.00000, 0.0987626, -0.0069044, 0.0990254, -0.00782496, 0.0996903, -0.00713974, 0, 0
41, 0.00000, 0.0987626, -0.00690447, 0.0990254, -0.00782503, 0.0996903, -0.0071398, 0, 0
42, 0.00000, 0.0987626, -0.00690447, 0.0990254, -0.00782503, 0.0996903, -0.00713981, 0, 0
43, 0.00000, 0.0987626, -0.00690447, 0.0990254, -0.00782503, 0.0996903, -0.00713981, 0, 0
44, 0.00000, 0.0987626, -0.00690447, 0.0990254, -0.00782503, 0.0996903, -0.00713981, 0, 0
45, 0.00000, 0.0987626, -0.00690447, 0.0990254, -0.00782503, 0.0996903, -0.00713981, 0, 0
46, 0.00000, 0.0987626, -0.00690447, 0.0990254, -0.00782503, 0.0996903, -0.00713981, 0, 0
47, 0.00000, 0.0987626, -0.00690447, 0.0990254, -0.00782503, 0.0996903, -0.00713981, 0, 0
48, 0.00000, 0.0987626, -0.00690447, 0.0990254, -0.00782503, 0.0996903, -0.00713981, 0, 0
49, 0.00000, 0.0984004, 0.0523225, 0.0988021, 0.0507877, 0.0999316, 0.0518979, 0, 0
50, 0.00000, 0.0984006, 0.0523027, 0.098802, 0.050768, 0.0999316, 0.0518779, 0, 0
51, 0.00000, 0.0984006, 0.0523023, 0.098802, 0.0507676, 0.0999316, 0.0518775, 0, 0
52, 0.00000, 0.0984006, 0.0523023, 0.098802, 0.0507676, 0.0999316, 0.0518775, 0, 0
53, 0.00000, 0.0984006, 0.0523023, 0.098802, 0.0507676, 0.0999316, 0.0518775, 0, 0
54, 0.00000, 0.0984006, 0.0523023, 0.098802, 0.0507676, 0.0999316, 0.0518775, 0, 0
55, 0.00000, 0.0984006, 0.0523023, 0.098802, 0.0507676, 0.0999316, 0.0518775, 0, 0
56, 0.00000, 0.0984006, 0.0523023, 0.098802, 0.0507676, 0.0999316, 0.0518775, 0, 0
57, 0.00000, 0.0984006, 0.0523023, 0.098802, 0.0507676, 0.0999316, 0.0518775, 0, 0
58, 0.00000, 0.0984006, 0.0523023, 0.098802, 0.0507676, 0.0999316, 0.0518775, 0, 0
59, 0.00000, 0.0984006, 0.0523023, 0.098802, 0.0507676, 0.0999316, 0.0518775, 0, 0
60, 0.00000, 0.0984006, 0.0523023, 0.098802, 0.0507676, 0.0999316, 0.0518775, 0, 0
61, 0.00000, 0.0984006, 0.0523023, 0.098802, 0.0507676, 0.0999316, 0.0518775, 0, 0
62, 0.00000, 6.7981, 0.706078, 6.79877, 0.704302, 6.79993, 0.705418, 0, 0
63, 0.00000, 18.6887, 2.19809, 18.69, 2.19589, 18.6912, 2.19698, 0, 0
64, 0.00000, 30.8042, 4.16007, 30.8064, 4.15743, 30.8076, 4.15844, 0, 0
65, 0.00000, 43.1622, 6.62765, 43.1654, 6.62454, 43.1666, 6.62542, 0, 0
66, 0.00000, 58.8504, 10.2161, 58.8625, 10.2176, 58.8555, 10.222, 0, 0
67, 0.00000, 73.8333, 12.8222, 73.8463, 12.8238, 73.8391, 12.8266, 0, 0
68, 0.00000, 107.409, 21.2249, 107.439, 21.2287, 107.425, 21.2324, 0, 0
69, 0.00000, 107.031, 21.1392, 107.074, 21.1451, 107.055, 21.1506, 0, 0
70, 0.00000, 106.396, 20.9954, 106.46, 21.0046, 106.433, 21.0129, 0, 0
71, 0.00000, 106.363, 20.9878, 106.428, 20.9972, 106.401, 21.0057, 0, 0
72, 0.00000, 106.363, 20.9878, 106.428, 20.9972, 106.401, 21.0057, 0, 0
73, 0.00000, 105.649, 20.8271, 105.731, 20.8377, 105.693, 20.8478, 0, 0
74, 0.00000, 105.649, 20.8271, 105.731, 20.8377, 105.693, 20.8478, 0, 0
75, 0.00000, 105.649, 20.8271, 105.731, 20.8377, 105.693, 20.8478, 0, 0
76, 0.00000, 105.649, 20.8271, 105.731, 20.8377, 105.693, 20.8478, 0, 0
77, 0.00000, 105.649, 20.8271, 105.731, 20.8377, 105.693, 20.8478, 0, 0
78, 0.00000, 105.649, 20.8271, 105.731, 20.8377, 105.693, 20.8478, 0, 0
79, 0.00000, 105.649, 20.8271, 105.731, 20.8377, 105.693, 20.8478, 0, 0
80, 0.00000, 105.649, 20.8271, 105.731, 20.8377, 105.693, 20.8478, 0, 0
81, 0.00000, 105.649, 20.8271, 105.731, 20.8377, 105.693, 20.8478, 0, 0
82, 0.00000, 105.649, 20.8271, 105.731, 20.8377, 105.693, 20.8478, 0, 0
83, 0.00000, 105.649, 20.8271, 105.731, 20.8377, 105.693, 20.8478, 0, 0
84, 0.00000, 105.649, 20.8271, 105.731, 20.8377, 105.693, 20.8478, 0, 0
85, 0.00000, 105.649, 20.8271, 105.731, 20.8377, 105.693, 20.8478, 0, 0
86, 0.00000, 105.649, 20.8271, 105.731, 20.8377, 105.693, 20.8478, 0, 0
87, 0.00000, 105.649, 20.8271, 105.731, 20.8377, 105.693, 20.8478, 0, 0
88, 0.00000, 105.649, 20.8271, 105.731, 20.8377, 105.693, 20.8478, 0, 0
89, 0.00000, 105.649, 20.8271, 105.731, 20.8377, 105.693, 20.8478, 0, 0
90, 0.00000, 105.649, 20.8271, 105.731, 20.8377, 105.693, 20.8478, 0, 0
91, 0.00000, 105.649, 20.8271, 105.731, 20.8377, 105.693, 20.8478, 0, 0
92, 0.00000, 105.649, 20.8271, 105.731, 20.8377, 105.693, 20.8478, 0, 0
93, 0.00000, 105.649, 20.8271, 105.731, 20.8377, 105.693, 20.8478, 0, 0
94, 0.00000, 105.649, 20.8271, 105.731, 20.8377, 105.693, 20.8478, 0, 0
95, 0.00000, 105.649, 20.8271, 105.731, 20.8377, 105.693, 20.8478, 0, 0
96, 0.00000, 105.649, 20.8271, 105.731, 20.8377, 105.693, 20.8478, 0, 0
