hour, t(sec), P1 (kW), Q1 (kvar), P2 (kW), Q2 (kvar), P3 (kW), Q3 (kvar), P4 (kW), Q4 (kvar)
1, 0.00000, 15.2963, 6.42157, 15.3028, 6.42288, 15.3013, 6.42047, 0, 0
2, 0.00000, 15.2963, 6.42157, 15.3028, 6.42288, 15.3013, 6.42047, 0, 0
3, 0.00000, 15.2963, 6.42157, 15.3028, 6.42288, 15.3013, 6.42047, 0, 0
4, 0.00000, 15.2963, 6.42157, 15.3028, 6.42288, 15.3013, 6.42047, 0, 0
5, 0.00000, 15.2963, 6.42157, 15.3028, 6.42288, 15.3013, 6.42047, 0, 0
6, 0.00000, 15.2963, 6.42157, 15.3028, 6.42288, 15.3013, 6.42047, 0, 0
7, 0.00000, 15.2963, 6.42157, 15.3028, 6.42288, 15.3013, 6.42047, 0, 0
8, 0.00000, 15.2963, 6.42157, 15.3028, 6.42288, 15.3013, 6.42047, 0, 0
9, 0.00000, 15.2963, 6.42157, 15.3028, 6.42288, 15.3013, 6.42047, 0, 0
10, 0.00000, 15.2963, 6.42157, 15.3028, 6.42288, 15.3013, 6.42047, 0, 0
11, 0.00000, 15.2963, 6.42157, 15.3028, 6.42288, 15.3013, 6.42047, 0, 0
12, 0.00000, 15.2963, 6.42157, 15.3028, 6.42288, 15.3013, 6.42047, 0, 0
13, 0.00000, 15.2963, 6.42157, 15.3028, 6.42288, 15.3013, 6.42047, 0, 0
14, 0.00000, 15.2963, 6.42157, 15.3028, 6.42288, 15.3013, 6.42047, 0, 0
15, 0.00000, 15.2963, 6.42157, 15.3028, 6.42288, 15.3013, 6.42047, 0, 0
16, 0.00000, 15.2963, 6.42157, 15.3028, 6.42288, 15.3013, 6.42047, 0, 0
17, 0.00000, 15.2963, 6.42157, 15.3028, 6.42288, 15.3013, 6.42047, 0, 0
18, 0.00000, 15.2963, 6.42157, 15.3028, 6.42288, 15.3013, 6.42047, 0, 0
19, 0.00000, 15.2963, 6.42157, 15.3028, 6.42288, 15.3013, 6.42047, 0, 0
20, 0.00000, 15.2963, 6.42157, 15.3028, 6.42288, 15.3013, 6.42047, 0, 0
21, 0.00000, 15.2963, 6.42157, 15.3028, 6.42288, 15.3013, 6.42047, 0, 0
22, 0.00000, 15.2963, 6.42157, 15.3028, 6.42288, 15.3013, 6.42047, 0, 0
23, 0.00000, 15.2963, 6.42151, 15.3028, 6.42282, 15.3012, 6.42042, 0, 0
24, 0.00000, 11.8822, 4.91642, 11.8871, 4.91703, 11.8863, 4.91543, 0, 0
25, 0.00000, 8.48975, 3.41633, 8.4927, 3.41632, 8.49259, 3.41556, 0, 0
26, 0.00000, 6.8014, 2.66789, 6.8035, 2.66764, 6.80367, 2.66721, 0, 0
27, 0.00000, 0.0982002, 0.0580231, 0.0981641, 0.057105, 0.0989936, 0.0575095, 0, 0
28, 0.00000, 0.098465, 0.0449549, 0.0984111, 0.0442279, 0.0990786, 0.0445264, 0, 0
29, 0.00000, 0.0987227, 0.0320227, 0.098675, 0.0315059, 0.0991526, 0.0317099, 0, 0
30, 0.00000, 0.0988237, 0.0268406, 0.0987903, 0.026421, 0.0991747, 0.0265911, 0, 0
31, 0.00000, 0.0988387, 0.0260647, 0.0988071, 0.0256584, 0.0991788, 0.0258237, 0, 0
32, 0.00000, 0.0988499, 0.0254762, 0.0988181, 0.0250769, 0.0991838, 0.0252387, 0, 0
33, 0.00000, 0.098846, 0.0256812, 0.0988141, 0.0252795, 0.099182, 0.0254425, 0, 0
34, 0.00000, 0.0988631, 0.0247803, 0.0988295, 0.0243863, 0.0991914, 0.0245441, 0, 0
35, 0.00000, 0.0987816, 0.0290557, 0.0987338, 0.0285833, 0.0991722, 0.0287661, 0, 0
36, 0.00000, 0.0988282, 0.0266637, 0.0987877, 0.0262376, 0.0991815, 0.0264048, 0, 0
37, 0.00000, 0.0988753, 0.0241963, 0.0988378, 0.0238066, 0.099198, 0.023959, 0, 0
38, 0.00000, 0.0988753, 0.0241941, 0.0988378, 0.0238044, 0.099198, 0.0239568, 0, 0
39, 0.00000, 0.0988753, 0.0241941, 0.0988378, 0.0238044, 0.099198, 0.0239568, 0, 0
40, 0.00000, 0.0988753, 0.0241941, 0.0988378, 0.0238044, 0.099198, 0.0239568, 0, 0
41, 0.00000, 0.0988753, 0.0241941, 0.0988378, 0.0238044, 0.099198, 0.0239568, 0, 0
42, 0.00000, 0.0988753, 0.0241941, 0.0988378, 0.0238044, 0.099198, 0.0239568, 0, 0
43, 0.00000, 0.0988753, 0.0241941, 0.0988378, 0.0238044, 0.099198, 0.0239568, 0, 0
44, 0.00000, 0.0988753, 0.0241941, 0.0988378, 0.0238044, 0.099198, 0.0239568, 0, 0
45, 0.00000, 0.0988753, 0.0241941, 0.0988378, 0.0238044, 0.099198, 0.0239568, 0, 0
46, 0.00000, 0.0988753, 0.0241941, 0.0988378, 0.0238044, 0.099198, 0.0239568, 0, 0
47, 0.00000, 0.0988753, 0.0241941, 0.0988378, 0.0238044, 0.099198, 0.0239568, 0, 0
48, 0.00000, 0.0988753, 0.0241941, 0.0988378, 0.0238044, 0.099198, 0.0239568, 0, 0
49, 0.00000, 0.0987064, 0.0322135, 0.0986983, 0.031719, 0.0991356, 0.0319463, 0, 0
50, 0.00000, 0.0987064, 0.0322134, 0.0986983, 0.0317189, 0.0991356, 0.0319462, 0, 0
51, 0.00000, 0.0987064, 0.0322134, 0.0986983, 0.0317189, 0.0991356, 0.0319462, 0, 0
52, 0.00000, 0.0987064, 0.0322134, 0.0986983, 0.0317189, 0.0991356, 0.0319462, 0, 0
53, 0.00000, 0.0987064, 0.0322134, 0.0986983, 0.0317189, 0.0991356, 0.0319462, 0, 0
54, 0.00000, 0.0987064, 0.0322134, 0.0986983, 0.0317189, 0.0991356, 0.0319462, 0, 0
55, 0.00000, 0.0987064, 0.0322134, 0.0986983, 0.0317189, 0.0991356, 0.0319462, 0, 0
56, 0.00000, 0.0987064, 0.0322134, 0.0986983, 0.0317189, 0.0991356, 0.0319462, 0, 0
57, 0.00000, 0.0987064, 0.0322134, 0.0986983, 0.0317189, 0.0991356, 0.0319462, 0, 0
58, 0.00000, 0.0987064, 0.0322134, 0.0986983, 0.0317189, 0.0991356, 0.0319462, 0, 0
59, 0.00000, 0.0987064, 0.0322134, 0.0986983, 0.0317189, 0.0991356, 0.0319462, 0, 0
60, 0.00000, 0.0987064, 0.0322134, 0.0986983, 0.0317189, 0.0991356, 0.0319462, 0, 0
61, 0.00000, 0.0987064, 0.0322134, 0.0986983, 0.0317189, 0.0991356, 0.0319462, 0, 0
62, 0.00000, 0.0987046, 0.0323119, 0.0986964, 0.0318162, 0.0991348, 0.032044, 0, 0
63, 0.00000, 0.0987011, 0.0324967, 0.0986928, 0.0319987, 0.0991332, 0.0322276, 0, 0
64, 0.00000, 0.0986973, 0.032698, 0.0986891, 0.0321978, 0.0991315, 0.0324278, 0, 0
65, 0.00000, 0.0986931, 0.0329169, 0.0986851, 0.0324144, 0.0991295, 0.0326456, 0, 0
66, 0.00000, 0.0986877, 0.033209, 0.0986798, 0.0327035, 0.0991268, 0.0329363, 0, 0
67, 0.00000, 0.0986632, 0.0345108, 0.0986498, 0.0339804, 0.0991216, 0.0342203, 0, 0
68, 0.00000, 0.0983718, 0.0496753, 0.0983023, 0.048852, 0.0990637, 0.0491828, 0, 0
69, 0.00000, 5.11588, 0.157364, 5.11719, 0.156151, 5.1179, 0.156165, 0, 0
70, 0.00000, 15.2655, 0.578307, 15.2716, 0.576741, 15.2713, 0.575375, 0, 0
71, 0.00000, 15.2661, 0.579207, 15.2722, 0.577633, 15.272, 0.576265, 0, 0
72, 0.00000, 15.2662, 0.57921, 15.2722, 0.577636, 15.272, 0.576267, 0, 0
73, 0.00000, 15.2655, 0.623468, 15.2735, 0.620674, 15.2729, 0.61938, 0, 0
74, 0.00000, 15.2655, 0.623517, 15.2736, 0.620722, 15.2729, 0.619428, 0, 0
75, 0.00000, 15.2655, 0.623517, 15.2736, 0.620723, 15.2729, 0.619429, 0, 0
76, 0.00000, 15.2655, 0.623517, 15.2736, 0.620723, 15.2729, 0.619429, 0, 0
77, 0.00000, 15.2655, 0.623517, 15.2736, 0.620723, 15.2729, 0.619429, 0, 0
78, 0.00000, 15.2655, 0.623517, 15.2736, 0.620723, 15.2729, 0.619429, 0, 0
79, 0.00000, 15.2655, 0.623517, 15.2736, 0.620723, 15.2729, 0.619429, 0, 0
80, 0.00000, 15.2655, 0.623517, 15.2736, 0.620723, 15.2729, 0.619429, 0, 0
81, 0.00000, 15.2655, 0.623517, 15.2736, 0.620723, 15.2729, 0.619429, 0, 0
82, 0.00000, 15.2655, 0.623517, 15.2736, 0.620723, 15.2729, 0.619429, 0, 0
83, 0.00000, 15.2655, 0.623517, 15.2736, 0.620723, 15.2729, 0.619429, 0, 0
84, 0.00000, 15.2655, 0.623517, 15.2736, 0.620723, 15.2729, 0.619429, 0, 0
85, 0.00000, 15.2655, 0.623517, 15.2736, 0.620723, 15.2729, 0.619429, 0, 0
86, 0.00000, 15.2655, 0.623517, 15.2736, 0.620723, 15.2729, 0.619429, 0, 0
87, 0.00000, 15.2655, 0.623517, 15.2736, 0.620723, 15.2729, 0.619429, 0, 0
88, 0.00000, 15.2655, 0.623517, 15.2736, 0.620723, 15.2729, 0.619429, 0, 0
89, 0.00000, 15.2655, 0.623517, 15.2736, 0.620723, 15.2729, 0.619429, 0, 0
90, 0.00000, 15.2655, 0.623517, 15.2736, 0.620723, 15.2729, 0.619429, 0, 0
91, 0.00000, 15.2655, 0.623517, 15.2736, 0.620723, 15.2729, 0.619429, 0, 0
92, 0.00000, 15.2655, 0.623517, 15.2736, 0.620723, 15.2729, 0.619429, 0, 0
93, 0.00000, 15.2655, 0.623517, 15.2736, 0.620723, 15.2729, 0.619429, 0, 0
94, 0.00000, 15.2655, 0.623517, 15.2736, 0.620723, 15.2729, 0.619429, 0, 0
95, 0.00000, 15.2655, 0.623517, 15.2736, 0.620723, 15.2729, 0.619429, 0, 0
96, 0.00000, 15.2655, 0.623517, 15.2736, 0.620723, 15.2729, 0.619429, 0, 0
