hour, t(sec), P1 (kW), Q1 (kvar), P2 (kW), Q2 (kvar), P3 (kW), Q3 (kvar), P4 (kW), Q4 (kvar)
1, 0.00000, 11.5934, 4.8088, 11.5979, 4.80943, 11.5967, 4.80789, 0, 0
2, 0.00000, 11.5934, 4.8088, 11.5979, 4.80943, 11.5967, 4.80789, 0, 0
3, 0.00000, 11.5934, 4.8088, 11.5979, 4.80943, 11.5967, 4.80789, 0, 0
4, 0.00000, 11.5934, 4.8088, 11.5979, 4.80943, 11.5967, 4.80789, 0, 0
5, 0.00000, 11.5934, 4.8088, 11.5979, 4.80943, 11.5967, 4.80789, 0, 0
6, 0.00000, 11.5934, 4.8088, 11.5979, 4.80943, 11.5967, 4.80789, 0, 0
7, 0.00000, 11.5934, 4.8088, 11.5979, 4.80943, 11.5967, 4.80789, 0, 0
8, 0.00000, 11.5934, 4.8088, 11.5979, 4.80943, 11.5967, 4.80789, 0, 0
9, 0.00000, 11.5934, 4.8088, 11.5979, 4.80943, 11.5967, 4.80789, 0, 0
10, 0.00000, 11.5934, 4.8088, 11.5979, 4.80943, 11.5967, 4.80789, 0, 0
11, 0.00000, 11.5934, 4.8088, 11.5979, 4.80943, 11.5967, 4.80789, 0, 0
12, 0.00000, 11.5934, 4.8088, 11.5979, 4.80943, 11.5967, 4.80789, 0, 0
13, 0.00000, 11.5934, 4.8088, 11.5979, 4.80943, 11.5967, 4.80789, 0, 0
14, 0.00000, 11.5934, 4.8088, 11.5979, 4.80943, 11.5967, 4.80789, 0, 0
15, 0.00000, 11.5934, 4.8088, 11.5979, 4.80943, 11.5967, 4.80789, 0, 0
16, 0.00000, 11.5934, 4.8088, 11.5979, 4.80943, 11.5967, 4.80789, 0, 0
17, 0.00000, 11.5934, 4.8088, 11.5979, 4.80943, 11.5967, 4.80789, 0, 0
18, 0.00000, 11.5934, 4.8088, 11.5979, 4.80943, 11.5967, 4.80789, 0, 0
19, 0.00000, 11.5934, 4.8088, 11.5979, 4.80943, 11.5967, 4.80789, 0, 0
20, 0.00000, 11.5934, 4.8088, 11.5979, 4.80943, 11.5967, 4.80789, 0, 0
21, 0.00000, 11.5934, 4.8088, 11.5979, 4.80943, 11.5967, 4.80789, 0, 0
22, 0.00000, 11.5934, 4.8088, 11.5979, 4.80943, 11.5967, 4.80789, 0, 0
23, 0.00000, 11.5934, 4.80859, 11.5979, 4.80922, 11.5967, 4.8077, 0, 0
24, 0.00000, 11.5935, 4.80797, 11.5977, 4.80859, 11.5966, 4.80714, 0, 0
25, 0.00000, 5.57307, 2.14812, 5.57468, 2.1478, 5.57471, 2.14757, 0, 0
26, 0.00000, 3.8935, 1.4777, 3.89451, 1.47726, 3.89474, 1.47725, 0, 0
27, 0.00000, -2.77725, 1.09371, -2.77765, 1.0935, -2.77702, 1.09381, 0, 0
28, 0.00000, -6.11431, 1.10707, -6.11508, 1.10699, -6.11439, 1.10735, 0, 0
29, 0.00000, -6.11426, 1.09538, -6.11471, 1.09536, -6.11428, 1.09559, 0, 0
30, 0.00000, -6.11425, 1.09066, -6.11456, 1.09068, -6.11424, 1.09084, 0, 0
31, 0.00000, -6.11424, 1.08982, -6.11454, 1.08984, -6.11423, 1.08999, 0, 0
32, 0.00000, -6.11423, 1.08728, -6.11447, 1.0873, -6.11422, 1.08743, 0, 0
33, 0.00000, -6.1142, 1.08879, -6.11448, 1.0888, -6.1142, 1.08895, 0, 0
34, 0.00000, -6.11418, 1.08323, -6.11434, 1.08324, -6.11417, 1.08333, 0, 0
35, 0.00000, -6.11421, 1.0923, -6.11464, 1.09226, -6.11426, 1.09246, 0, 0
36, 0.00000, -6.11422, 1.0903, -6.11458, 1.09027, -6.11424, 1.09044, 0, 0
37, 0.00000, -6.11417, 1.08079, -6.11428, 1.0808, -6.11416, 1.08087, 0, 0
38, 0.00000, -6.11416, 1.08078, -6.11427, 1.0808, -6.11415, 1.08086, 0, 0
39, 0.00000, -6.11416, 1.08078, -6.11427, 1.0808, -6.11415, 1.08086, 0, 0
40, 0.00000, -6.11416, 1.08078, -6.11427, 1.0808, -6.11415, 1.08086, 0, 0
41, 0.00000, -6.11416, 1.08078, -6.11427, 1.0808, -6.11415, 1.08086, 0, 0
42, 0.00000, -6.11416, 1.08078, -6.11427, 1.0808, -6.11415, 1.08086, 0, 0
43, 0.00000, -6.11416, 1.08078, -6.11427, 1.0808, -6.11415, 1.08086, 0, 0
44, 0.00000, -6.11416, 1.08078, -6.11427, 1.0808, -6.11415, 1.08086, 0, 0
45, 0.00000, -6.11416, 1.08078, -6.11427, 1.0808, -6.11415, 1.08086, 0, 0
46, 0.00000, -6.11416, 1.08078, -6.11427, 1.0808, -6.11415, 1.08086, 0, 0
47, 0.00000, -6.11416, 1.08078, -6.11427, 1.0808, -6.11415, 1.08086, 0, 0
48, 0.00000, -6.11416, 1.08078, -6.11427, 1.0808, -6.11415, 1.08086, 0, 0
49, 0.00000, -5.021, 1.55126, -5.02114, 1.55128, -5.02096, 1.55137, 0, 0
50, 0.00000, -5.021, 1.55126, -5.02114, 1.55128, -5.02096, 1.55137, 0, 0
51, 0.00000, -5.021, 1.55126, -5.02114, 1.55128, -5.02096, 1.55137, 0, 0
52, 0.00000, -5.021, 1.55126, -5.02114, 1.55128, -5.02096, 1.55137, 0, 0
53, 0.00000, -5.021, 1.55126, -5.02114, 1.55128, -5.02096, 1.55137, 0, 0
54, 0.00000, -5.021, 1.55126, -5.02114, 1.55128, -5.02096, 1.55137, 0, 0
55, 0.00000, -5.021, 1.55126, -5.02114, 1.55128, -5.02096, 1.55137, 0, 0
56, 0.00000, -5.021, 1.55126, -5.02114, 1.55128, -5.02096, 1.55137, 0, 0
57, 0.00000, -5.021, 1.55126, -5.02114, 1.55128, -5.02096, 1.55137, 0, 0
58, 0.00000, -5.021, 1.55126, -5.02114, 1.55128, -5.02096, 1.55137, 0, 0
59, 0.00000, -5.021, 1.55126, -5.02114, 1.55128, -5.02096, 1.55137, 0, 0
60, 0.00000, -5.021, 1.55126, -5.02114, 1.55128, -5.02096, 1.55137, 0, 0
61, 0.00000, -5.021, 1.55126, -5.02114, 1.55128, -5.02096, 1.55137, 0, 0
62, 0.00000, -5.021, 1.55201, -5.02116, 1.55203, -5.02096, 1.55213, 0, 0
63, 0.00000, -5.02101, 1.55338, -5.0212, 1.55339, -5.02097, 1.5535, 0, 0
64, 0.00000, -5.02102, 1.55482, -5.02125, 1.55482, -5.02098, 1.55495, 0, 0
65, 0.00000, -5.02104, 1.55633, -5.02129, 1.55633, -5.021, 1.55647, 0, 0
66, 0.00000, -5.02109, 1.55833, -5.02138, 1.55833, -5.02105, 1.55849, 0, 0
67, 0.00000, -5.02108, 1.56058, -5.02143, 1.56057, -5.02104, 1.56075, 0, 0
68, 0.00000, -5.02118, 1.57529, -5.02192, 1.57518, -5.02118, 1.57552, 0, 0
69, 0.00000, 3.32539, 1.30296, 3.32613, 1.30252, 3.32656, 1.30251, 0, 0
70, 0.00000, 13.4487, 1.63759, 13.4533, 1.63691, 13.4529, 1.63579, 0, 0
71, 0.00000, 13.4491, 1.63941, 13.4538, 1.63872, 13.4533, 1.63758, 0, 0
72, 0.00000, 13.4491, 1.63941, 13.4538, 1.63873, 13.4533, 1.63758, 0, 0
73, 0.00000, 18.7258, 4.18565, 18.7343, 4.18504, 18.7331, 4.18282, 0, 0
74, 0.00000, 18.7259, 4.1857, 18.7344, 4.18509, 18.7331, 4.18287, 0, 0
75, 0.00000, 18.7259, 4.1857, 18.7344, 4.18509, 18.7331, 4.18287, 0, 0
76, 0.00000, 18.7259, 4.1857, 18.7344, 4.18509, 18.7331, 4.18287, 0, 0
77, 0.00000, 18.7259, 4.1857, 18.7344, 4.18509, 18.7331, 4.18287, 0, 0
78, 0.00000, 18.7259, 4.1857, 18.7344, 4.18509, 18.7331, 4.18287, 0, 0
79, 0.00000, 18.7259, 4.1857, 18.7344, 4.18509, 18.7331, 4.18287, 0, 0
80, 0.00000, 18.7259, 4.1857, 18.7344, 4.18509, 18.7331, 4.18287, 0, 0
81, 0.00000, 18.7259, 4.1857, 18.7344, 4.18509, 18.7331, 4.18287, 0, 0
82, 0.00000, 18.7259, 4.1857, 18.7344, 4.18509, 18.7331, 4.18287, 0, 0
83, 0.00000, 18.7259, 4.1857, 18.7344, 4.18509, 18.7331, 4.18287, 0, 0
84, 0.00000, 18.7259, 4.1857, 18.7344, 4.18509, 18.7331, 4.18287, 0, 0
85, 0.00000, 18.7259, 4.1857, 18.7344, 4.18509, 18.7331, 4.18287, 0, 0
86, 0.00000, 18.7259, 4.1857, 18.7344, 4.18509, 18.7331, 4.18287, 0, 0
87, 0.00000, 18.7259, 4.1857, 18.7344, 4.18509, 18.7331, 4.18287, 0, 0
88, 0.00000, 18.7259, 4.1857, 18.7344, 4.18509, 18.7331, 4.18287, 0, 0
89, 0.00000, 18.7259, 4.1857, 18.7344, 4.18509, 18.7331, 4.18287, 0, 0
90, 0.00000, 18.7259, 4.1857, 18.7344, 4.18509, 18.7331, 4.18287, 0, 0
91, 0.00000, 18.7259, 4.1857, 18.7344, 4.18509, 18.7331, 4.18287, 0, 0
92, 0.00000, 18.7259, 4.1857, 18.7344, 4.18509, 18.7331, 4.18287, 0, 0
93, 0.00000, 18.7259, 4.1857, 18.7344, 4.18509, 18.7331, 4.18287, 0, 0
94, 0.00000, 18.7259, 4.1857, 18.7344, 4.18509, 18.7331, 4.18287, 0, 0
95, 0.00000, 18.7259, 4.1857, 18.7344, 4.18509, 18.7331, 4.18287, 0, 0
96, 0.00000, 18.7259, 4.1857, 18.7344, 4.18509, 18.7331, 4.18287, 0, 0
