hour, t(sec), P1 (kW), Q1 (kvar), P2 (kW), Q2 (kvar), P3 (kW), Q3 (kvar), P4 (kW), Q4 (kvar)
1, 0.00000, 29.8816, -2.96834, 29.8958, -2.97752, 29.8948, -2.97771, 0, 0
2, 0.00000, 29.8816, -2.96835, 29.8958, -2.97752, 29.8948, -2.97771, 0, 0
3, 0.00000, 29.8816, -2.96835, 29.8958, -2.97752, 29.8948, -2.97771, 0, 0
4, 0.00000, 29.8816, -2.96835, 29.8958, -2.97752, 29.8948, -2.97771, 0, 0
5, 0.00000, 29.8816, -2.96835, 29.8958, -2.97752, 29.8948, -2.97771, 0, 0
6, 0.00000, 29.8816, -2.96835, 29.8958, -2.97752, 29.8948, -2.97771, 0, 0
7, 0.00000, 29.8816, -2.96835, 29.8958, -2.97752, 29.8948, -2.97771, 0, 0
8, 0.00000, 29.8816, -2.96835, 29.8958, -2.97752, 29.8948, -2.97771, 0, 0
9, 0.00000, 29.8816, -2.96835, 29.8958, -2.97752, 29.8948, -2.97771, 0, 0
10, 0.00000, 29.8816, -2.96835, 29.8958, -2.97752, 29.8948, -2.97771, 0, 0
11, 0.00000, 29.8816, -2.96835, 29.8958, -2.97752, 29.8948, -2.97771, 0, 0
12, 0.00000, 29.8816, -2.96835, 29.8958, -2.97752, 29.8948, -2.97771, 0, 0
13, 0.00000, 29.8816, -2.96835, 29.8958, -2.97752, 29.8948, -2.97771, 0, 0
14, 0.00000, 29.8816, -2.96835, 29.8958, -2.97752, 29.8948, -2.97771, 0, 0
15, 0.00000, 29.8816, -2.96835, 29.8958, -2.97752, 29.8948, -2.97771, 0, 0
16, 0.00000, 29.8816, -2.96835, 29.8958, -2.97752, 29.8948, -2.97771, 0, 0
17, 0.00000, 29.8816, -2.96835, 29.8958, -2.97752, 29.8948, -2.97771, 0, 0
18, 0.00000, 29.8816, -2.96835, 29.8958, -2.97752, 29.8948, -2.97771, 0, 0
19, 0.00000, 29.8816, -2.96835, 29.8958, -2.97752, 29.8948, -2.97771, 0, 0
20, 0.00000, 29.8816, -2.96835, 29.8958, -2.97752, 29.8948, -2.97771, 0, 0
21, 0.00000, 29.8816, -2.96835, 29.8958, -2.97752, 29.8948, -2.97771, 0, 0
22, 0.00000, 29.8816, -2.96835, 29.8958, -2.97752, 29.8948, -2.97771, 0, 0
23, 0.00000, 29.8816, -2.96957, 29.8958, -2.97872, 29.8948, -2.97891, 0, 0
24, 0.00000, 29.882, -2.98275, 29.8957, -2.99159, 29.8948, -2.99182, 0, 0
25, 0.00000, 33.3652, -1.39086, 33.3785, -1.39779, 33.3775, -1.39881, 0, 0
26, 0.00000, 33.366, -1.42448, 33.3781, -1.43055, 33.3773, -1.43164, 0, 0
27, 0.00000, 33.3682, -1.51044, 33.3769, -1.51442, 33.3766, -1.51555, 0, 0
28, 0.00000, 33.3693, -1.5535, 33.3763, -1.55648, 33.3761, -1.55757, 0, 0
29, 0.00000, 33.3704, -1.59643, 33.3756, -1.59853, 33.3756, -1.59943, 0, 0
30, 0.00000, 33.371, -1.6143, 33.3754, -1.6161, 33.3753, -1.61683, 0, 0
31, 0.00000, 33.3711, -1.61726, 33.3753, -1.61901, 33.3753, -1.61971, 0, 0
32, 0.00000, 33.3711, -1.61911, 33.3753, -1.62083, 33.3752, -1.62153, 0, 0
33, 0.00000, 33.3711, -1.61855, 33.3753, -1.62028, 33.3752, -1.62098, 0, 0
34, 0.00000, 33.3712, -1.62101, 33.3753, -1.62269, 33.3752, -1.6234, 0, 0
35, 0.00000, 33.3708, -1.60635, 33.3756, -1.60826, 33.3755, -1.60911, 0, 0
36, 0.00000, 33.371, -1.61462, 33.3754, -1.61639, 33.3754, -1.61716, 0, 0
37, 0.00000, 33.3712, -1.62272, 33.3753, -1.62436, 33.3752, -1.62509, 0, 0
38, 0.00000, 33.3712, -1.62273, 33.3753, -1.62436, 33.3752, -1.62509, 0, 0
39, 0.00000, 33.3712, -1.62273, 33.3753, -1.62436, 33.3752, -1.62509, 0, 0
40, 0.00000, 33.3712, -1.62273, 33.3753, -1.62436, 33.3752, -1.62509, 0, 0
41, 0.00000, 33.3712, -1.62273, 33.3753, -1.62436, 33.3752, -1.62509, 0, 0
42, 0.00000, 33.3712, -1.62273, 33.3753, -1.62436, 33.3752, -1.62509, 0, 0
43, 0.00000, 33.3712, -1.62273, 33.3753, -1.62436, 33.3752, -1.62509, 0, 0
44, 0.00000, 33.3712, -1.62273, 33.3753, -1.62436, 33.3752, -1.62509, 0, 0
45, 0.00000, 33.3712, -1.62273, 33.3753, -1.62436, 33.3752, -1.62509, 0, 0
46, 0.00000, 33.3712, -1.62273, 33.3753, -1.62436, 33.3752, -1.62509, 0, 0
47, 0.00000, 33.3712, -1.62273, 33.3753, -1.62436, 33.3752, -1.62509, 0, 0
48, 0.00000, 33.3712, -1.62273, 33.3753, -1.62436, 33.3752, -1.62509, 0, 0
49, 0.00000, 36.8581, 0.0715786, 36.8638, 0.0693804, 36.8635, 0.0685127, 0, 0
50, 0.00000, 36.8581, 0.0715781, 36.8638, 0.0693799, 36.8635, 0.0685122, 0, 0
51, 0.00000, 36.8581, 0.0715781, 36.8638, 0.0693798, 36.8635, 0.0685122, 0, 0
52, 0.00000, 36.8581, 0.0715781, 36.8638, 0.0693798, 36.8635, 0.0685122, 0, 0
53, 0.00000, 36.8581, 0.0715781, 36.8638, 0.0693798, 36.8635, 0.0685122, 0, 0
54, 0.00000, 36.8581, 0.0715781, 36.8638, 0.0693798, 36.8635, 0.0685122, 0, 0
55, 0.00000, 36.8581, 0.0715781, 36.8638, 0.0693798, 36.8635, 0.0685122, 0, 0
56, 0.00000, 36.8581, 0.0715781, 36.8638, 0.0693798, 36.8635, 0.0685122, 0, 0
57, 0.00000, 36.8581, 0.0715781, 36.8638, 0.0693798, 36.8635, 0.0685122, 0, 0
58, 0.00000, 36.8581, 0.0715781, 36.8638, 0.0693798, 36.8635, 0.0685122, 0, 0
59, 0.00000, 36.8581, 0.0715781, 36.8638, 0.0693798, 36.8635, 0.0685122, 0, 0
60, 0.00000, 36.8581, 0.0715781, 36.8638, 0.0693798, 36.8635, 0.0685122, 0, 0
61, 0.00000, 36.8581, 0.0715781, 36.8638, 0.0693798, 36.8635, 0.0685122, 0, 0
62, 0.00000, 36.8581, 0.0718487, 36.8638, 0.0696465, 36.8635, 0.0687772, 0, 0
63, 0.00000, 36.8581, 0.0723563, 36.8638, 0.0701466, 36.8635, 0.0692749, 0, 0
64, 0.00000, 36.858, 0.0729099, 36.8638, 0.0706919, 36.8635, 0.069818, 0, 0
65, 0.00000, 36.858, 0.0735119, 36.8638, 0.0712845, 36.8635, 0.0704089, 0, 0
66, 0.00000, 36.858, 0.0743116, 36.8638, 0.0720716, 36.8635, 0.071194, 0, 0
67, 0.00000, 36.8579, 0.0791863, 36.864, 0.0768965, 36.8636, 0.0759476, 0, 0
68, 0.00000, 36.8562, 0.131151, 36.865, 0.128197, 36.8647, 0.126545, 0, 0
69, 0.00000, 36.8538, 0.206492, 36.8665, 0.202505, 36.8662, 0.199901, 0, 0
70, 0.00000, 36.8493, 0.302848, 36.867, 0.297426, 36.8664, 0.293769, 0, 0
71, 0.00000, 36.8507, 0.304259, 36.8684, 0.298814, 36.8679, 0.295141, 0, 0
72, 0.00000, 36.8507, 0.304264, 36.8685, 0.298819, 36.8679, 0.295145, 0, 0
73, 0.00000, 49.8548, 6.81514, 49.887, 6.80898, 49.8838, 6.8019, 0, 0
74, 0.00000, 49.8552, 6.81538, 49.8874, 6.80922, 49.8842, 6.80214, 0, 0
75, 0.00000, 49.8552, 6.81538, 49.8874, 6.80922, 49.8842, 6.80214, 0, 0
76, 0.00000, 49.8552, 6.81538, 49.8874, 6.80922, 49.8842, 6.80214, 0, 0
77, 0.00000, 49.8552, 6.81538, 49.8874, 6.80922, 49.8842, 6.80214, 0, 0
78, 0.00000, 49.8552, 6.81538, 49.8874, 6.80922, 49.8842, 6.80214, 0, 0
79, 0.00000, 49.8552, 6.81538, 49.8874, 6.80922, 49.8842, 6.80214, 0, 0
80, 0.00000, 49.8552, 6.81538, 49.8874, 6.80922, 49.8842, 6.80214, 0, 0
81, 0.00000, 49.8552, 6.81538, 49.8874, 6.80922, 49.8842, 6.80214, 0, 0
82, 0.00000, 49.8552, 6.81538, 49.8874, 6.80922, 49.8842, 6.80214, 0, 0
83, 0.00000, 49.8552, 6.81538, 49.8874, 6.80922, 49.8842, 6.80214, 0, 0
84, 0.00000, 49.8552, 6.81538, 49.8874, 6.80922, 49.8842, 6.80214, 0, 0
85, 0.00000, 49.8552, 6.81538, 49.8874, 6.80922, 49.8842, 6.80214, 0, 0
86, 0.00000, 49.8552, 6.81538, 49.8874, 6.80922, 49.8842, 6.80214, 0, 0
87, 0.00000, 49.8552, 6.81538, 49.8874, 6.80922, 49.8842, 6.80214, 0, 0
88, 0.00000, 49.8552, 6.81538, 49.8874, 6.80922, 49.8842, 6.80214, 0, 0
89, 0.00000, 49.8552, 6.81538, 49.8874, 6.80922, 49.8842, 6.80214, 0, 0
90, 0.00000, 49.8552, 6.81538, 49.8874, 6.80922, 49.8842, 6.80214, 0, 0
91, 0.00000, 49.8552, 6.81538, 49.8874, 6.80922, 49.8842, 6.80214, 0, 0
92, 0.00000, 49.8552, 6.81538, 49.8874, 6.80922, 49.8842, 6.80214, 0, 0
93, 0.00000, 49.8552, 6.81538, 49.8874, 6.80922, 49.8842, 6.80214, 0, 0
94, 0.00000, 49.8552, 6.81538, 49.8874, 6.80922, 49.8842, 6.80214, 0, 0
95, 0.00000, 49.8552, 6.81538, 49.8874, 6.80922, 49.8842, 6.80214, 0, 0
96, 0.00000, 49.8552, 6.81538, 49.8874, 6.80922, 49.8842, 6.80214, 0, 0
