hour, t(sec), P1 (kW), Q1 (kvar), P2 (kW), Q2 (kvar), P3 (kW), Q3 (kvar), P4 (kW), Q4 (kvar)
1, 0.00000, 0.0976616, 0.668733, 0.0977676, 0.669177, 0.0976468, 0.668991, 0, 0
2, 0.00000, 0.0976616, 0.668733, 0.0977676, 0.669177, 0.0976468, 0.668991, 0, 0
3, 0.00000, 0.0976616, 0.668733, 0.0977676, 0.669177, 0.0976468, 0.668991, 0, 0
4, 0.00000, 0.0976616, 0.668733, 0.0977676, 0.669177, 0.0976468, 0.668991, 0, 0
5, 0.00000, 0.0976616, 0.668733, 0.0977676, 0.669177, 0.0976468, 0.668991, 0, 0
6, 0.00000, 0.0976616, 0.668733, 0.0977676, 0.669177, 0.0976468, 0.668991, 0, 0
7, 0.00000, 0.0976616, 0.668733, 0.0977676, 0.669177, 0.0976468, 0.668991, 0, 0
8, 0.00000, 0.0976616, 0.668733, 0.0977676, 0.669177, 0.0976468, 0.668991, 0, 0
9, 0.00000, 0.0976616, 0.668733, 0.0977676, 0.669177, 0.0976468, 0.668991, 0, 0
10, 0.00000, 0.0976616, 0.668733, 0.0977676, 0.669177, 0.0976468, 0.668991, 0, 0
11, 0.00000, 0.0976616, 0.668733, 0.0977676, 0.669177, 0.0976468, 0.668991, 0, 0
12, 0.00000, 0.0976616, 0.668733, 0.0977676, 0.669177, 0.0976468, 0.668991, 0, 0
13, 0.00000, 0.0976616, 0.668733, 0.0977676, 0.669177, 0.0976468, 0.668991, 0, 0
14, 0.00000, 0.0976616, 0.668733, 0.0977676, 0.669177, 0.0976468, 0.668991, 0, 0
15, 0.00000, 0.0976616, 0.668733, 0.0977676, 0.669177, 0.0976468, 0.668991, 0, 0
16, 0.00000, 0.0976616, 0.668733, 0.0977676, 0.669177, 0.0976468, 0.668991, 0, 0
17, 0.00000, 0.0976616, 0.668733, 0.0977676, 0.669177, 0.0976468, 0.668991, 0, 0
18, 0.00000, 0.0976616, 0.668733, 0.0977676, 0.669177, 0.0976468, 0.668991, 0, 0
19, 0.00000, 0.0976616, 0.668733, 0.0977676, 0.669177, 0.0976468, 0.668991, 0, 0
20, 0.00000, 0.0976616, 0.668733, 0.0977676, 0.669177, 0.0976468, 0.668991, 0, 0
21, 0.00000, 0.0976616, 0.668733, 0.0977676, 0.669177, 0.0976468, 0.668991, 0, 0
22, 0.00000, 0.0976616, 0.668733, 0.0977676, 0.669177, 0.0976468, 0.668991, 0, 0
23, 0.00000, 0.0976686, 0.66878, 0.0977743, 0.669224, 0.0976538, 0.669038, 0, 0
24, 0.00000, 0.0977392, 0.669263, 0.0978411, 0.669693, 0.0977247, 0.669514, 0, 0
25, 0.00000, 0.0980405, 0.671321, 0.0981254, 0.671689, 0.0980273, 0.671541, 0, 0
26, 0.00000, 0.0982065, 0.672456, 0.0982818, 0.672787, 0.0981941, 0.672658, 0, 0
27, 0.00000, 0.0986119, 0.675232, 0.0986632, 0.675469, 0.0986021, 0.675383, 0, 0
28, 0.00000, 0.098812, 0.676604, 0.0988513, 0.676791, 0.0988038, 0.676727, 0, 0
29, 0.00000, 0.0990112, 0.677976, 0.0990386, 0.678109, 0.0990052, 0.678064, 0, 0
30, 0.00000, 0.0990909, 0.678527, 0.0991133, 0.678635, 0.0990861, 0.678598, 0, 0
31, 0.00000, 0.0991028, 0.67861, 0.0991246, 0.678714, 0.0990982, 0.678678, 0, 0
32, 0.00000, 0.0991119, 0.678672, 0.0991332, 0.678774, 0.0991074, 0.678739, 0, 0
33, 0.00000, 0.0991087, 0.67865, 0.0991302, 0.678753, 0.0991042, 0.678718, 0, 0
34, 0.00000, 0.0991226, 0.678745, 0.0991436, 0.678846, 0.0991181, 0.678812, 0, 0
35, 0.00000, 0.0990571, 0.678291, 0.099082, 0.678413, 0.0990516, 0.678373, 0, 0
36, 0.00000, 0.0990938, 0.678545, 0.0991163, 0.678655, 0.0990888, 0.678618, 0, 0
37, 0.00000, 0.0991317, 0.678807, 0.0991522, 0.678907, 0.0991272, 0.678874, 0, 0
38, 0.00000, 0.0991317, 0.678807, 0.0991522, 0.678907, 0.0991272, 0.678874, 0, 0
39, 0.00000, 0.0991317, 0.678807, 0.0991522, 0.678907, 0.0991272, 0.678874, 0, 0
40, 0.00000, 0.0991317, 0.678807, 0.0991522, 0.678907, 0.0991272, 0.678874, 0, 0
41, 0.00000, 0.0991317, 0.678807, 0.0991522, 0.678907, 0.0991272, 0.678874, 0, 0
42, 0.00000, 0.0991317, 0.678807, 0.0991522, 0.678907, 0.0991272, 0.678874, 0, 0
43, 0.00000, 0.0991317, 0.678807, 0.0991522, 0.678907, 0.0991272, 0.678874, 0, 0
44, 0.00000, 0.0991317, 0.678807, 0.0991522, 0.678907, 0.0991272, 0.678874, 0, 0
45, 0.00000, 0.0991317, 0.678807, 0.0991522, 0.678907, 0.0991272, 0.678874, 0, 0
46, 0.00000, 0.0991317, 0.678807, 0.0991522, 0.678907, 0.0991272, 0.678874, 0, 0
47, 0.00000, 0.0991317, 0.678807, 0.0991522, 0.678907, 0.0991272, 0.678874, 0, 0
48, 0.00000, 0.0991317, 0.678807, 0.0991522, 0.678907, 0.0991272, 0.678874, 0, 0
49, 0.00000, 0.0990076, 0.67796, 0.0990355, 0.678086, 0.0990026, 0.678039, 0, 0
50, 0.00000, 0.0990076, 0.67796, 0.0990355, 0.678086, 0.0990026, 0.678039, 0, 0
51, 0.00000, 0.0990076, 0.67796, 0.0990355, 0.678086, 0.0990026, 0.678039, 0, 0
52, 0.00000, 0.0990076, 0.67796, 0.0990355, 0.678086, 0.0990026, 0.678039, 0, 0
53, 0.00000, 0.0990076, 0.67796, 0.0990355, 0.678086, 0.0990026, 0.678039, 0, 0
54, 0.00000, 0.0990076, 0.67796, 0.0990355, 0.678086, 0.0990026, 0.678039, 0, 0
55, 0.00000, 0.0990076, 0.67796, 0.0990355, 0.678086, 0.0990026, 0.678039, 0, 0
56, 0.00000, 0.0990076, 0.67796, 0.0990355, 0.678086, 0.0990026, 0.678039, 0, 0
57, 0.00000, 0.0990076, 0.67796, 0.0990355, 0.678086, 0.0990026, 0.678039, 0, 0
58, 0.00000, 0.0990076, 0.67796, 0.0990355, 0.678086, 0.0990026, 0.678039, 0, 0
59, 0.00000, 0.0990076, 0.67796, 0.0990355, 0.678086, 0.0990026, 0.678039, 0, 0
60, 0.00000, 0.0990076, 0.67796, 0.0990355, 0.678086, 0.0990026, 0.678039, 0, 0
61, 0.00000, 0.0990076, 0.67796, 0.0990355, 0.678086, 0.0990026, 0.678039, 0, 0
62, 0.00000, 0.0990061, 0.677949, 0.099034, 0.678076, 0.0990011, 0.678029, 0, 0
63, 0.00000, 0.0990032, 0.67793, 0.0990313, 0.678057, 0.0989982, 0.678009, 0, 0
64, 0.00000, 0.0990001, 0.677909, 0.0990283, 0.678036, 0.0989951, 0.677988, 0, 0
65, 0.00000, 0.0989968, 0.677885, 0.0990251, 0.678013, 0.0989917, 0.677965, 0, 0
66, 0.00000, 0.0989923, 0.677855, 0.0990208, 0.677983, 0.0989872, 0.677935, 0, 0
67, 0.00000, 0.0989724, 0.677717, 0.0990021, 0.677852, 0.098967, 0.677802, 0, 0
68, 0.00000, 0.0987395, 0.676101, 0.0987837, 0.676314, 0.09873, 0.676242, 0, 0
69, 0.00000, 0.0983957, 0.673719, 0.0984614, 0.674044, 0.0983805, 0.67394, 0, 0
70, 0.00000, 0.0979381, 0.670556, 0.0980317, 0.67102, 0.0979162, 0.670872, 0, 0
71, 0.00000, 0.0979343, 0.67053, 0.0980281, 0.670995, 0.0979123, 0.670846, 0, 0
72, 0.00000, 0.0979343, 0.670529, 0.0980281, 0.670995, 0.0979123, 0.670846, 0, 0
73, 0.00000, 0.097293, 0.666157, 0.0974239, 0.666751, 0.0972692, 0.66653, 0, 0
74, 0.00000, 0.0972929, 0.666157, 0.0974239, 0.666751, 0.0972692, 0.66653, 0, 0
75, 0.00000, 0.0972929, 0.666157, 0.0974239, 0.666751, 0.0972692, 0.66653, 0, 0
76, 0.00000, 0.0972929, 0.666157, 0.0974239, 0.666751, 0.0972692, 0.66653, 0, 0
77, 0.00000, 0.0972929, 0.666157, 0.0974239, 0.666751, 0.0972692, 0.66653, 0, 0
78, 0.00000, 0.0972929, 0.666157, 0.0974239, 0.666751, 0.0972692, 0.66653, 0, 0
79, 0.00000, 0.0972929, 0.666157, 0.0974239, 0.666751, 0.0972692, 0.66653, 0, 0
80, 0.00000, 0.0972929, 0.666157, 0.0974239, 0.666751, 0.0972692, 0.66653, 0, 0
81, 0.00000, 0.0972929, 0.666157, 0.0974239, 0.666751, 0.0972692, 0.66653, 0, 0
82, 0.00000, 0.0972929, 0.666157, 0.0974239, 0.666751, 0.0972692, 0.66653, 0, 0
83, 0.00000, 0.0972929, 0.666157, 0.0974239, 0.666751, 0.0972692, 0.66653, 0, 0
84, 0.00000, 0.0972929, 0.666157, 0.0974239, 0.666751, 0.0972692, 0.66653, 0, 0
85, 0.00000, 0.0972929, 0.666157, 0.0974239, 0.666751, 0.0972692, 0.66653, 0, 0
86, 0.00000, 0.0972929, 0.666157, 0.0974239, 0.666751, 0.0972692, 0.66653, 0, 0
87, 0.00000, 0.0972929, 0.666157, 0.0974239, 0.666751, 0.0972692, 0.66653, 0, 0
88, 0.00000, 0.0972929, 0.666157, 0.0974239, 0.666751, 0.0972692, 0.66653, 0, 0
89, 0.00000, 0.0972929, 0.666157, 0.0974239, 0.666751, 0.0972692, 0.66653, 0, 0
90, 0.00000, 0.0972929, 0.666157, 0.0974239, 0.666751, 0.0972692, 0.66653, 0, 0
91, 0.00000, 0.0972929, 0.666157, 0.0974239, 0.666751, 0.0972692, 0.66653, 0, 0
92, 0.00000, 0.0972929, 0.666157, 0.0974239, 0.666751, 0.0972692, 0.66653, 0, 0
93, 0.00000, 0.0972929, 0.666157, 0.0974239, 0.666751, 0.0972692, 0.66653, 0, 0
94, 0.00000, 0.0972929, 0.666157, 0.0974239, 0.666751, 0.0972692, 0.66653, 0, 0
95, 0.00000, 0.0972929, 0.666157, 0.0974239, 0.666751, 0.0972692, 0.66653, 0, 0
96, 0.00000, 0.0972929, 0.666157, 0.0974239, 0.666751, 0.0972692, 0.66653, 0, 0
