hour, t(sec), P1 (kW), Q1 (kvar), P2 (kW), Q2 (kvar), P3 (kW), Q3 (kvar), P4 (kW), Q4 (kvar)
1, 0.00000, 2.62581, 1.06183, 2.62673, 1.06197, 2.62647, 1.06167, 0, 0
2, 0.00000, 2.62581, 1.06183, 2.62673, 1.06197, 2.62647, 1.06167, 0, 0
3, 0.00000, 2.62581, 1.06183, 2.62673, 1.06197, 2.62647, 1.06167, 0, 0
4, 0.00000, 2.62581, 1.06183, 2.62673, 1.06197, 2.62647, 1.06167, 0, 0
5, 0.00000, 2.62581, 1.06183, 2.62673, 1.06197, 2.62647, 1.06167, 0, 0
6, 0.00000, 2.62581, 1.06183, 2.62673, 1.06197, 2.62647, 1.06167, 0, 0
7, 0.00000, 2.62581, 1.06183, 2.62673, 1.06197, 2.62647, 1.06167, 0, 0
8, 0.00000, 2.62581, 1.06183, 2.62673, 1.06197, 2.62647, 1.06167, 0, 0
9, 0.00000, 2.62581, 1.06183, 2.62673, 1.06197, 2.62647, 1.06167, 0, 0
10, 0.00000, 2.62581, 1.06183, 2.62673, 1.06197, 2.62647, 1.06167, 0, 0
11, 0.00000, 2.62581, 1.06183, 2.62673, 1.06197, 2.62647, 1.06167, 0, 0
12, 0.00000, 2.62581, 1.06183, 2.62673, 1.06197, 2.62647, 1.06167, 0, 0
13, 0.00000, 2.62581, 1.06183, 2.62673, 1.06197, 2.62647, 1.06167, 0, 0
14, 0.00000, 2.62581, 1.06183, 2.62673, 1.06197, 2.62647, 1.06167, 0, 0
15, 0.00000, 2.62581, 1.06183, 2.62673, 1.06197, 2.62647, 1.06167, 0, 0
16, 0.00000, 2.62581, 1.06183, 2.62673, 1.06197, 2.62647, 1.06167, 0, 0
17, 0.00000, 2.62581, 1.06183, 2.62673, 1.06197, 2.62647, 1.06167, 0, 0
18, 0.00000, 2.62581, 1.06183, 2.62673, 1.06197, 2.62647, 1.06167, 0, 0
19, 0.00000, 2.62581, 1.06183, 2.62673, 1.06197, 2.62647, 1.06167, 0, 0
20, 0.00000, 2.62581, 1.06183, 2.62673, 1.06197, 2.62647, 1.06167, 0, 0
21, 0.00000, 2.62581, 1.06183, 2.62673, 1.06197, 2.62647, 1.06167, 0, 0
22, 0.00000, 2.62581, 1.06183, 2.62673, 1.06197, 2.62647, 1.06167, 0, 0
23, 0.00000, 0.954658, 0.360023, 0.955011, 0.359914, 0.955032, 0.359909, 0, 0
24, 0.00000, -0.711706, 0.240609, -0.711863, 0.240558, -0.711636, 0.240688, 0, 0
25, 0.00000, -1.34909, 0.537838, -1.34934, 0.537892, -1.34909, 0.538001, 0, 0
26, 0.00000, -1.34893, 0.536346, -1.34915, 0.536391, -1.34893, 0.536487, 0, 0
27, 0.00000, -1.34863, 0.533526, -1.34879, 0.533558, -1.34863, 0.533628, 0, 0
28, 0.00000, -1.34847, 0.532048, -1.3486, 0.532074, -1.34847, 0.532131, 0, 0
29, 0.00000, -1.34824, 0.529842, -1.34831, 0.529865, -1.34824, 0.529898, 0, 0
30, 0.00000, -1.34815, 0.528953, -1.3482, 0.528977, -1.34814, 0.529, 0, 0
31, 0.00000, -1.34813, 0.528799, -1.34818, 0.528821, -1.34812, 0.528843, 0, 0
32, 0.00000, -1.34808, 0.52834, -1.34812, 0.528359, -1.34808, 0.528377, 0, 0
33, 0.00000, -1.34811, 0.528614, -1.34815, 0.528633, -1.3481, 0.528654, 0, 0
34, 0.00000, -1.348, 0.527611, -1.34802, 0.527624, -1.348, 0.527636, 0, 0
35, 0.00000, -1.34817, 0.529275, -1.34824, 0.52929, -1.34817, 0.52932, 0, 0
36, 0.00000, -1.34814, 0.5289, -1.34819, 0.528915, -1.34814, 0.528941, 0, 0
37, 0.00000, -1.34796, 0.527167, -1.34797, 0.527178, -1.34795, 0.527186, 0, 0
38, 0.00000, -1.34795, 0.527165, -1.34797, 0.527177, -1.34795, 0.527184, 0, 0
39, 0.00000, -1.34795, 0.527165, -1.34797, 0.527176, -1.34795, 0.527184, 0, 0
40, 0.00000, -1.34795, 0.527165, -1.34797, 0.527176, -1.34795, 0.527184, 0, 0
41, 0.00000, -1.34795, 0.527165, -1.34797, 0.527176, -1.34795, 0.527184, 0, 0
42, 0.00000, -1.34795, 0.527165, -1.34797, 0.527176, -1.34795, 0.527184, 0, 0
43, 0.00000, -1.34795, 0.527165, -1.34797, 0.527176, -1.34795, 0.527184, 0, 0
44, 0.00000, -1.34795, 0.527165, -1.34797, 0.527176, -1.34795, 0.527184, 0, 0
45, 0.00000, -1.34795, 0.527165, -1.34797, 0.527176, -1.34795, 0.527184, 0, 0
46, 0.00000, -1.34795, 0.527165, -1.34797, 0.527176, -1.34795, 0.527184, 0, 0
47, 0.00000, -1.34795, 0.527165, -1.34797, 0.527176, -1.34795, 0.527184, 0, 0
48, 0.00000, -1.34795, 0.527165, -1.34797, 0.527176, -1.34795, 0.527184, 0, 0
49, 0.00000, -0.928286, 0.352908, -0.9283, 0.352906, -0.928267, 0.352927, 0, 0
50, 0.00000, -0.928285, 0.352907, -0.928299, 0.352904, -0.928266, 0.352925, 0, 0
51, 0.00000, -0.928285, 0.352907, -0.928299, 0.352904, -0.928266, 0.352925, 0, 0
52, 0.00000, -0.928285, 0.352907, -0.928299, 0.352904, -0.928266, 0.352925, 0, 0
53, 0.00000, -0.928285, 0.352907, -0.928299, 0.352904, -0.928266, 0.352925, 0, 0
54, 0.00000, -0.928285, 0.352907, -0.928299, 0.352904, -0.928266, 0.352925, 0, 0
55, 0.00000, -0.928285, 0.352907, -0.928299, 0.352904, -0.928266, 0.352925, 0, 0
56, 0.00000, -0.928285, 0.352907, -0.928299, 0.352904, -0.928266, 0.352925, 0, 0
57, 0.00000, -0.928285, 0.352907, -0.928299, 0.352904, -0.928266, 0.352925, 0, 0
58, 0.00000, -0.928285, 0.352907, -0.928299, 0.352904, -0.928266, 0.352925, 0, 0
59, 0.00000, -0.928285, 0.352907, -0.928299, 0.352904, -0.928266, 0.352925, 0, 0
60, 0.00000, -0.928285, 0.352907, -0.928299, 0.352904, -0.928266, 0.352925, 0, 0
61, 0.00000, -0.928285, 0.352907, -0.928299, 0.352904, -0.928266, 0.352925, 0, 0
62, 0.00000, -0.9283, 0.353102, -0.928316, 0.353099, -0.92828, 0.353121, 0, 0
63, 0.00000, -0.928327, 0.353457, -0.928349, 0.353452, -0.928306, 0.353477, 0, 0
64, 0.00000, -0.928356, 0.35383, -0.928382, 0.353822, -0.928333, 0.353851, 0, 0
65, 0.00000, -0.928386, 0.354221, -0.928417, 0.354211, -0.928362, 0.354243, 0, 0
66, 0.00000, -0.928433, 0.354739, -0.928469, 0.354727, -0.928406, 0.354763, 0, 0
67, 0.00000, -0.928474, 0.355329, -0.928519, 0.355313, -0.928445, 0.355354, 0, 0
68, 0.00000, -0.928775, 0.359275, -0.928885, 0.35923, -0.928736, 0.359304, 0, 0
69, 0.00000, -0.929064, 0.363104, -0.929243, 0.363025, -0.929017, 0.363133, 0, 0
70, 0.00000, 2.07874, 0.379918, 2.07938, 0.379765, 2.07941, 0.379657, 0, 0
71, 0.00000, 3.75216, 0.397123, 3.75334, 0.396955, 3.75319, 0.39669, 0, 0
72, 0.00000, 3.75216, 0.397124, 3.75334, 0.396956, 3.75319, 0.396691, 0, 0
73, 0.00000, 4.78613, 0.859122, 4.78809, 0.858916, 4.78775, 0.858469, 0, 0
74, 0.00000, 4.78614, 0.859126, 4.78809, 0.85892, 4.78775, 0.858473, 0, 0
75, 0.00000, 4.78614, 0.859126, 4.78809, 0.85892, 4.78775, 0.858473, 0, 0
76, 0.00000, 4.78614, 0.859126, 4.78809, 0.85892, 4.78775, 0.858473, 0, 0
77, 0.00000, 4.78614, 0.859126, 4.78809, 0.85892, 4.78775, 0.858473, 0, 0
78, 0.00000, 4.78614, 0.859126, 4.78809, 0.85892, 4.78775, 0.858473, 0, 0
79, 0.00000, 4.78614, 0.859126, 4.78809, 0.85892, 4.78775, 0.858473, 0, 0
80, 0.00000, 4.78614, 0.859126, 4.78809, 0.85892, 4.78775, 0.858473, 0, 0
81, 0.00000, 4.78614, 0.859126, 4.78809, 0.85892, 4.78775, 0.858473, 0, 0
82, 0.00000, 4.78614, 0.859126, 4.78809, 0.85892, 4.78775, 0.858473, 0, 0
83, 0.00000, 4.78614, 0.859126, 4.78809, 0.85892, 4.78775, 0.858473, 0, 0
84, 0.00000, 4.78614, 0.859126, 4.78809, 0.85892, 4.78775, 0.858473, 0, 0
85, 0.00000, 4.78614, 0.859126, 4.78809, 0.85892, 4.78775, 0.858473, 0, 0
86, 0.00000, 4.78614, 0.859126, 4.78809, 0.85892, 4.78775, 0.858473, 0, 0
87, 0.00000, 4.78614, 0.859126, 4.78809, 0.85892, 4.78775, 0.858473, 0, 0
88, 0.00000, 4.78614, 0.859126, 4.78809, 0.85892, 4.78775, 0.858473, 0, 0
89, 0.00000, 4.78614, 0.859126, 4.78809, 0.85892, 4.78775, 0.858473, 0, 0
90, 0.00000, 4.78614, 0.859126, 4.78809, 0.85892, 4.78775, 0.858473, 0, 0
91, 0.00000, 4.78614, 0.859126, 4.78809, 0.85892, 4.78775, 0.858473, 0, 0
92, 0.00000, 4.78614, 0.859126, 4.78809, 0.85892, 4.78775, 0.858473, 0, 0
93, 0.00000, 4.78614, 0.859126, 4.78809, 0.85892, 4.78775, 0.858473, 0, 0
94, 0.00000, 4.78614, 0.859126, 4.78809, 0.85892, 4.78775, 0.858473, 0, 0
95, 0.00000, 4.78614, 0.859126, 4.78809, 0.85892, 4.78775, 0.858473, 0, 0
96, 0.00000, 4.78614, 0.859126, 4.78809, 0.85892, 4.78775, 0.858473, 0, 0
