hour, t(sec), P1 (kW), Q1 (kvar), P2 (kW), Q2 (kvar), P3 (kW), Q3 (kvar), P4 (kW), Q4 (kvar)
1, 0.00000, 30.612, 12.6369, 30.6128, 12.637, 30.6126, 12.6367, 0, 0
2, 0.00000, 30.612, 12.6369, 30.6128, 12.637, 30.6126, 12.6367, 0, 0
3, 0.00000, 30.612, 12.6369, 30.6128, 12.637, 30.6126, 12.6367, 0, 0
4, 0.00000, 30.612, 12.6369, 30.6128, 12.637, 30.6126, 12.6367, 0, 0
5, 0.00000, 30.612, 12.6369, 30.6128, 12.637, 30.6126, 12.6367, 0, 0
6, 0.00000, 30.612, 12.6369, 30.6128, 12.637, 30.6126, 12.6367, 0, 0
7, 0.00000, 30.612, 12.6369, 30.6128, 12.637, 30.6126, 12.6367, 0, 0
8, 0.00000, 30.612, 12.6369, 30.6128, 12.637, 30.6126, 12.6367, 0, 0
9, 0.00000, 30.612, 12.6369, 30.6128, 12.637, 30.6126, 12.6367, 0, 0
10, 0.00000, 30.612, 12.6369, 30.6128, 12.637, 30.6126, 12.6367, 0, 0
11, 0.00000, 30.612, 12.6369, 30.6128, 12.637, 30.6126, 12.6367, 0, 0
12, 0.00000, 30.612, 12.6369, 30.6128, 12.637, 30.6126, 12.6367, 0, 0
13, 0.00000, 30.612, 12.6369, 30.6128, 12.637, 30.6126, 12.6367, 0, 0
14, 0.00000, 30.612, 12.6369, 30.6128, 12.637, 30.6126, 12.6367, 0, 0
15, 0.00000, 30.612, 12.6369, 30.6128, 12.637, 30.6126, 12.6367, 0, 0
16, 0.00000, 30.612, 12.6369, 30.6128, 12.637, 30.6126, 12.6367, 0, 0
17, 0.00000, 30.612, 12.6369, 30.6128, 12.637, 30.6126, 12.6367, 0, 0
18, 0.00000, 30.612, 12.6369, 30.6128, 12.637, 30.6126, 12.6367, 0, 0
19, 0.00000, 30.612, 12.6369, 30.6128, 12.637, 30.6126, 12.6367, 0, 0
20, 0.00000, 30.612, 12.6369, 30.6128, 12.637, 30.6126, 12.6367, 0, 0
21, 0.00000, 30.612, 12.6369, 30.6128, 12.637, 30.6126, 12.6367, 0, 0
22, 0.00000, 30.612, 12.6369, 30.6128, 12.637, 30.6126, 12.6367, 0, 0
23, 0.00000, 30.612, 12.6368, 30.6128, 12.6369, 30.6126, 12.6366, 0, 0
24, 0.00000, 30.6119, 12.6363, 30.6127, 12.6364, 30.6125, 12.6361, 0, 0
25, 0.00000, 23.7494, 9.43058, 23.7499, 9.4306, 23.7498, 9.43046, 0, 0
26, 0.00000, 22.0476, 9.34889, 22.048, 9.34892, 22.0479, 9.3488, 0, 0
27, 0.00000, 15.2481, 6.19794, 15.2483, 6.19792, 15.2483, 6.19789, 0, 0
28, 0.00000, 10.1816, 3.85909, 10.1817, 3.85906, 10.1817, 3.85905, 0, 0
29, 0.00000, 1.79914, 0.744039, 1.79915, 0.744004, 1.79918, 0.744022, 0, 0
30, 0.00000, 0.131206, -0.0194395, 0.131212, -0.019464, 0.13123, -0.0194476, 0, 0
31, 0.00000, 0.13121, -0.0197904, 0.131216, -0.0198129, 0.131232, -0.0197974, 0, 0
32, 0.00000, 0.131218, -0.0204038, 0.131223, -0.0204234, 0.131237, -0.0204097, 0, 0
33, 0.00000, 0.131214, -0.0201294, 0.131219, -0.0201508, 0.131235, -0.0201364, 0, 0
34, 0.00000, 0.13123, -0.0214101, 0.131233, -0.0214255, 0.131245, -0.0214148, 0, 0
35, 0.00000, 0.131204, -0.0192341, 0.131206, -0.0192658, 0.131232, -0.0192487, 0, 0
36, 0.00000, 0.131212, -0.0199255, 0.131215, -0.0199513, 0.131236, -0.0199362, 0, 0
37, 0.00000, 0.131237, -0.0220033, 0.13124, -0.0220159, 0.131249, -0.022007, 0, 0
38, 0.00000, 0.131237, -0.0220067, 0.13124, -0.0220193, 0.131249, -0.0220104, 0, 0
39, 0.00000, 0.131237, -0.0220068, 0.13124, -0.0220194, 0.131249, -0.0220105, 0, 0
40, 0.00000, 0.131237, -0.0220068, 0.13124, -0.0220194, 0.131249, -0.0220105, 0, 0
41, 0.00000, 0.131237, -0.0220068, 0.13124, -0.0220194, 0.131249, -0.0220105, 0, 0
42, 0.00000, 0.131237, -0.0220068, 0.13124, -0.0220194, 0.131249, -0.0220105, 0, 0
43, 0.00000, 0.131237, -0.0220068, 0.13124, -0.0220194, 0.131249, -0.0220105, 0, 0
44, 0.00000, 0.131237, -0.0220068, 0.13124, -0.0220194, 0.131249, -0.0220105, 0, 0
45, 0.00000, 0.131237, -0.0220068, 0.13124, -0.0220194, 0.131249, -0.0220105, 0, 0
46, 0.00000, 0.131237, -0.0220068, 0.13124, -0.0220194, 0.131249, -0.0220105, 0, 0
47, 0.00000, 0.131237, -0.0220068, 0.13124, -0.0220194, 0.131249, -0.0220105, 0, 0
48, 0.00000, 0.131237, -0.0220068, 0.13124, -0.0220194, 0.131249, -0.0220105, 0, 0
49, 0.00000, 0.131203, -0.0191837, 0.131209, -0.0192081, 0.131227, -0.0191911, 0, 0
50, 0.00000, 0.131203, -0.0191839, 0.131209, -0.0192083, 0.131227, -0.0191913, 0, 0
51, 0.00000, 0.131203, -0.0191839, 0.131209, -0.0192083, 0.131227, -0.0191913, 0, 0
52, 0.00000, 0.131203, -0.0191839, 0.131209, -0.0192083, 0.131227, -0.0191913, 0, 0
53, 0.00000, 0.131203, -0.0191839, 0.131209, -0.0192083, 0.131227, -0.0191913, 0, 0
54, 0.00000, 0.131203, -0.0191839, 0.131209, -0.0192083, 0.131227, -0.0191913, 0, 0
55, 0.00000, 0.131203, -0.0191839, 0.131209, -0.0192083, 0.131227, -0.0191913, 0, 0
56, 0.00000, 0.131203, -0.0191839, 0.131209, -0.0192083, 0.131227, -0.0191913, 0, 0
57, 0.00000, 0.131203, -0.0191839, 0.131209, -0.0192083, 0.131227, -0.0191913, 0, 0
58, 0.00000, 0.131203, -0.0191839, 0.131209, -0.0192083, 0.131227, -0.0191913, 0, 0
59, 0.00000, 0.131203, -0.0191839, 0.131209, -0.0192083, 0.131227, -0.0191913, 0, 0
60, 0.00000, 0.131203, -0.0191839, 0.131209, -0.0192083, 0.131227, -0.0191913, 0, 0
61, 0.00000, 0.131203, -0.0191839, 0.131209, -0.0192083, 0.131227, -0.0191913, 0, 0
62, 0.00000, 0.131202, -0.0190536, 0.131207, -0.0190789, 0.131226, -0.0190616, 0, 0
63, 0.00000, 0.131199, -0.0188064, 0.131204, -0.0188335, 0.131225, -0.0188154, 0, 0
64, 0.00000, 0.131195, -0.0185334, 0.131201, -0.0185623, 0.131223, -0.0185434, 0, 0
65, 0.00000, 0.131192, -0.0182333, 0.131197, -0.0182639, 0.131221, -0.0182441, 0, 0
66, 0.00000, 0.131187, -0.0178301, 0.131193, -0.0178631, 0.131218, -0.0178421, 0, 0
67, 0.00000, 0.13118, -0.0172316, 0.131185, -0.0172692, 0.131215, -0.0172464, 0, 0
68, 0.00000, 10.1758, 0.201521, 10.1759, 0.201431, 10.176, 0.201442, 0, 0
69, 0.00000, 20.3119, 0.614793, 20.3122, 0.614653, 20.3122, 0.61461, 0, 0
70, 0.00000, 30.5411, 1.23084, 30.5419, 1.23064, 30.5418, 1.23048, 0, 0
71, 0.00000, 30.5422, 1.23189, 30.5429, 1.23168, 30.5429, 1.23152, 0, 0
72, 0.00000, 30.5422, 1.23189, 30.5429, 1.23168, 30.5429, 1.23152, 0, 0
73, 0.00000, 30.5424, 1.24925, 30.5433, 1.2489, 30.5433, 1.24875, 0, 0
74, 0.00000, 30.5424, 1.24927, 30.5434, 1.24892, 30.5433, 1.24877, 0, 0
75, 0.00000, 30.5424, 1.24927, 30.5434, 1.24892, 30.5433, 1.24877, 0, 0
76, 0.00000, 30.5424, 1.24927, 30.5434, 1.24892, 30.5433, 1.24877, 0, 0
77, 0.00000, 30.5424, 1.24927, 30.5434, 1.24892, 30.5433, 1.24877, 0, 0
78, 0.00000, 30.5424, 1.24927, 30.5434, 1.24892, 30.5433, 1.24877, 0, 0
79, 0.00000, 30.5424, 1.24927, 30.5434, 1.24892, 30.5433, 1.24877, 0, 0
80, 0.00000, 30.5424, 1.24927, 30.5434, 1.24892, 30.5433, 1.24877, 0, 0
81, 0.00000, 30.5424, 1.24927, 30.5434, 1.24892, 30.5433, 1.24877, 0, 0
82, 0.00000, 30.5424, 1.24927, 30.5434, 1.24892, 30.5433, 1.24877, 0, 0
83, 0.00000, 30.5424, 1.24927, 30.5434, 1.24892, 30.5433, 1.24877, 0, 0
84, 0.00000, 30.5424, 1.24927, 30.5434, 1.24892, 30.5433, 1.24877, 0, 0
85, 0.00000, 30.5424, 1.24927, 30.5434, 1.24892, 30.5433, 1.24877, 0, 0
86, 0.00000, 30.5424, 1.24927, 30.5434, 1.24892, 30.5433, 1.24877, 0, 0
87, 0.00000, 30.5424, 1.24927, 30.5434, 1.24892, 30.5433, 1.24877, 0, 0
88, 0.00000, 30.5424, 1.24927, 30.5434, 1.24892, 30.5433, 1.24877, 0, 0
89, 0.00000, 30.5424, 1.24927, 30.5434, 1.24892, 30.5433, 1.24877, 0, 0
90, 0.00000, 30.5424, 1.24927, 30.5434, 1.24892, 30.5433, 1.24877, 0, 0
91, 0.00000, 30.5424, 1.24927, 30.5434, 1.24892, 30.5433, 1.24877, 0, 0
92, 0.00000, 30.5424, 1.24927, 30.5434, 1.24892, 30.5433, 1.24877, 0, 0
93, 0.00000, 30.5424, 1.24927, 30.5434, 1.24892, 30.5433, 1.24877, 0, 0
94, 0.00000, 30.5424, 1.24927, 30.5434, 1.24892, 30.5433, 1.24877, 0, 0
95, 0.00000, 30.5424, 1.24927, 30.5434, 1.24892, 30.5433, 1.24877, 0, 0
96, 0.00000, 30.5424, 1.24927, 30.5434, 1.24892, 30.5433, 1.24877, 0, 0
