hour, t(sec), P1 (kW), Q1 (kvar), P2 (kW), Q2 (kvar), P3 (kW), Q3 (kvar), P4 (kW), Q4 (kvar)
1, 0.00000, 0.0987948, 0.676516, 0.0988225, 0.676628, 0.0987914, 0.676579, 0, 0
2, 0.00000, 0.0987948, 0.676516, 0.0988225, 0.676628, 0.0987914, 0.676579, 0, 0
3, 0.00000, 0.0987948, 0.676516, 0.0988225, 0.676628, 0.0987914, 0.676579, 0, 0
4, 0.00000, 0.0987948, 0.676516, 0.0988225, 0.676628, 0.0987914, 0.676579, 0, 0
5, 0.00000, 0.0987948, 0.676516, 0.0988225, 0.676628, 0.0987914, 0.676579, 0, 0
6, 0.00000, 0.0987948, 0.676516, 0.0988225, 0.676628, 0.0987914, 0.676579, 0, 0
7, 0.00000, 0.0987948, 0.676516, 0.0988225, 0.676628, 0.0987914, 0.676579, 0, 0
8, 0.00000, 0.0987948, 0.676516, 0.0988225, 0.676628, 0.0987914, 0.676579, 0, 0
9, 0.00000, 0.0987948, 0.676516, 0.0988225, 0.676628, 0.0987914, 0.676579, 0, 0
10, 0.00000, 0.0987948, 0.676516, 0.0988225, 0.676628, 0.0987914, 0.676579, 0, 0
11, 0.00000, 0.0987948, 0.676516, 0.0988225, 0.676628, 0.0987914, 0.676579, 0, 0
12, 0.00000, 0.0987948, 0.676516, 0.0988225, 0.676628, 0.0987914, 0.676579, 0, 0
13, 0.00000, 0.0987948, 0.676516, 0.0988225, 0.676628, 0.0987914, 0.676579, 0, 0
14, 0.00000, 0.0987948, 0.676516, 0.0988225, 0.676628, 0.0987914, 0.676579, 0, 0
15, 0.00000, 0.0987948, 0.676516, 0.0988225, 0.676628, 0.0987914, 0.676579, 0, 0
16, 0.00000, 0.0987948, 0.676516, 0.0988225, 0.676628, 0.0987914, 0.676579, 0, 0
17, 0.00000, 0.0987948, 0.676516, 0.0988225, 0.676628, 0.0987914, 0.676579, 0, 0
18, 0.00000, 0.0987948, 0.676516, 0.0988225, 0.676628, 0.0987914, 0.676579, 0, 0
19, 0.00000, 0.0987948, 0.676516, 0.0988225, 0.676628, 0.0987914, 0.676579, 0, 0
20, 0.00000, 0.0987948, 0.676516, 0.0988225, 0.676628, 0.0987914, 0.676579, 0, 0
21, 0.00000, 0.0987948, 0.676516, 0.0988225, 0.676628, 0.0987914, 0.676579, 0, 0
22, 0.00000, 0.0987948, 0.676516, 0.0988225, 0.676628, 0.0987914, 0.676579, 0, 0
23, 0.00000, 0.0988016, 0.676562, 0.098829, 0.676674, 0.0987982, 0.676624, 0, 0
24, 0.00000, 0.0988349, 0.67679, 0.098861, 0.676897, 0.0988316, 0.67685, 0, 0
25, 0.00000, 0.098961, 0.677652, 0.0989821, 0.67774, 0.0989581, 0.677703, 0, 0
26, 0.00000, 0.0990251, 0.678091, 0.0990436, 0.678169, 0.0990224, 0.678136, 0, 0
27, 0.00000, 0.0991713, 0.679092, 0.0991837, 0.679146, 0.0991693, 0.679125, 0, 0
28, 0.00000, 0.0992441, 0.679591, 0.0992534, 0.679632, 0.0992425, 0.679616, 0, 0
29, 0.00000, 0.0993232, 0.680134, 0.0993291, 0.68016, 0.0993222, 0.68015, 0, 0
30, 0.00000, 0.0993532, 0.680341, 0.0993576, 0.68036, 0.0993525, 0.680352, 0, 0
31, 0.00000, 0.099358, 0.680375, 0.0993623, 0.680392, 0.0993574, 0.680385, 0, 0
32, 0.00000, 0.099365, 0.680422, 0.099369, 0.680439, 0.0993644, 0.680432, 0, 0
33, 0.00000, 0.0993618, 0.6804, 0.099366, 0.680418, 0.0993612, 0.680411, 0, 0
34, 0.00000, 0.0993757, 0.680495, 0.0993793, 0.680511, 0.0993751, 0.680504, 0, 0
35, 0.00000, 0.0993442, 0.680278, 0.0993493, 0.680301, 0.0993433, 0.680292, 0, 0
36, 0.00000, 0.0993569, 0.680366, 0.0993614, 0.680386, 0.0993562, 0.680378, 0, 0
37, 0.00000, 0.0993824, 0.680541, 0.0993858, 0.680556, 0.0993819, 0.68055, 0, 0
38, 0.00000, 0.0993824, 0.680541, 0.0993858, 0.680556, 0.0993819, 0.68055, 0, 0
39, 0.00000, 0.0993825, 0.680541, 0.0993858, 0.680556, 0.0993819, 0.68055, 0, 0
40, 0.00000, 0.0993825, 0.680541, 0.0993858, 0.680556, 0.0993819, 0.68055, 0, 0
41, 0.00000, 0.0993825, 0.680541, 0.0993858, 0.680556, 0.0993819, 0.68055, 0, 0
42, 0.00000, 0.0993825, 0.680541, 0.0993858, 0.680556, 0.0993819, 0.68055, 0, 0
43, 0.00000, 0.0993825, 0.680541, 0.0993858, 0.680556, 0.0993819, 0.68055, 0, 0
44, 0.00000, 0.0993825, 0.680541, 0.0993858, 0.680556, 0.0993819, 0.68055, 0, 0
45, 0.00000, 0.0993825, 0.680541, 0.0993858, 0.680556, 0.0993819, 0.68055, 0, 0
46, 0.00000, 0.0993825, 0.680541, 0.0993858, 0.680556, 0.0993819, 0.68055, 0, 0
47, 0.00000, 0.0993825, 0.680541, 0.0993858, 0.680556, 0.0993819, 0.68055, 0, 0
48, 0.00000, 0.0993825, 0.680541, 0.0993858, 0.680556, 0.0993819, 0.68055, 0, 0
49, 0.00000, 0.0993401, 0.680252, 0.0993452, 0.680273, 0.0993394, 0.680264, 0, 0
50, 0.00000, 0.0993401, 0.680252, 0.0993452, 0.680273, 0.0993394, 0.680264, 0, 0
51, 0.00000, 0.0993401, 0.680252, 0.0993452, 0.680273, 0.0993394, 0.680264, 0, 0
52, 0.00000, 0.0993401, 0.680252, 0.0993452, 0.680273, 0.0993394, 0.680264, 0, 0
53, 0.00000, 0.0993401, 0.680252, 0.0993452, 0.680273, 0.0993394, 0.680264, 0, 0
54, 0.00000, 0.0993401, 0.680252, 0.0993452, 0.680273, 0.0993394, 0.680264, 0, 0
55, 0.00000, 0.0993401, 0.680252, 0.0993452, 0.680273, 0.0993394, 0.680264, 0, 0
56, 0.00000, 0.0993401, 0.680252, 0.0993452, 0.680273, 0.0993394, 0.680264, 0, 0
57, 0.00000, 0.0993401, 0.680252, 0.0993452, 0.680273, 0.0993394, 0.680264, 0, 0
58, 0.00000, 0.0993401, 0.680252, 0.0993452, 0.680273, 0.0993394, 0.680264, 0, 0
59, 0.00000, 0.0993401, 0.680252, 0.0993452, 0.680273, 0.0993394, 0.680264, 0, 0
60, 0.00000, 0.0993401, 0.680252, 0.0993452, 0.680273, 0.0993394, 0.680264, 0, 0
61, 0.00000, 0.0993401, 0.680252, 0.0993452, 0.680273, 0.0993394, 0.680264, 0, 0
62, 0.00000, 0.0993386, 0.680242, 0.0993437, 0.680263, 0.0993379, 0.680254, 0, 0
63, 0.00000, 0.0993358, 0.680222, 0.099341, 0.680244, 0.0993351, 0.680234, 0, 0
64, 0.00000, 0.0993327, 0.680201, 0.099338, 0.680223, 0.0993319, 0.680214, 0, 0
65, 0.00000, 0.0993293, 0.680178, 0.0993348, 0.680201, 0.0993286, 0.680191, 0, 0
66, 0.00000, 0.0993248, 0.680147, 0.0993305, 0.680171, 0.0993241, 0.680161, 0, 0
67, 0.00000, 0.0993159, 0.680086, 0.0993221, 0.680112, 0.0993151, 0.680101, 0, 0
68, 0.00000, 0.0992283, 0.679481, 0.0992387, 0.679528, 0.0992264, 0.679511, 0, 0
69, 0.00000, 0.0991126, 0.678681, 0.0991285, 0.678757, 0.0991091, 0.678731, 0, 0
70, 0.00000, 0.0989458, 0.677531, 0.0989696, 0.677646, 0.0989406, 0.677608, 0, 0
71, 0.00000, 0.0989423, 0.677506, 0.0989662, 0.677623, 0.0989369, 0.677584, 0, 0
72, 0.00000, 0.0989423, 0.677506, 0.0989662, 0.677623, 0.0989369, 0.677584, 0, 0
73, 0.00000, 0.0987079, 0.675906, 0.098741, 0.676054, 0.0987021, 0.675997, 0, 0
74, 0.00000, 0.0987078, 0.675906, 0.098741, 0.676054, 0.0987021, 0.675997, 0, 0
75, 0.00000, 0.0987078, 0.675906, 0.098741, 0.676054, 0.0987021, 0.675997, 0, 0
76, 0.00000, 0.0987078, 0.675906, 0.098741, 0.676054, 0.0987021, 0.675997, 0, 0
77, 0.00000, 0.0987078, 0.675906, 0.098741, 0.676054, 0.0987021, 0.675997, 0, 0
78, 0.00000, 0.0987078, 0.675906, 0.098741, 0.676054, 0.0987021, 0.675997, 0, 0
79, 0.00000, 0.0987078, 0.675906, 0.098741, 0.676054, 0.0987021, 0.675997, 0, 0
80, 0.00000, 0.0987078, 0.675906, 0.098741, 0.676054, 0.0987021, 0.675997, 0, 0
81, 0.00000, 0.0987078, 0.675906, 0.098741, 0.676054, 0.0987021, 0.675997, 0, 0
82, 0.00000, 0.0987078, 0.675906, 0.098741, 0.676054, 0.0987021, 0.675997, 0, 0
83, 0.00000, 0.0987078, 0.675906, 0.098741, 0.676054, 0.0987021, 0.675997, 0, 0
84, 0.00000, 0.0987078, 0.675906, 0.098741, 0.676054, 0.0987021, 0.675997, 0, 0
85, 0.00000, 0.0987078, 0.675906, 0.098741, 0.676054, 0.0987021, 0.675997, 0, 0
86, 0.00000, 0.0987078, 0.675906, 0.098741, 0.676054, 0.0987021, 0.675997, 0, 0
87, 0.00000, 0.0987078, 0.675906, 0.098741, 0.676054, 0.0987021, 0.675997, 0, 0
88, 0.00000, 0.0987078, 0.675906, 0.098741, 0.676054, 0.0987021, 0.675997, 0, 0
89, 0.00000, 0.0987078, 0.675906, 0.098741, 0.676054, 0.0987021, 0.675997, 0, 0
90, 0.00000, 0.0987078, 0.675906, 0.098741, 0.676054, 0.0987021, 0.675997, 0, 0
91, 0.00000, 0.0987078, 0.675906, 0.098741, 0.676054, 0.0987021, 0.675997, 0, 0
92, 0.00000, 0.0987078, 0.675906, 0.098741, 0.676054, 0.0987021, 0.675997, 0, 0
93, 0.00000, 0.0987078, 0.675906, 0.098741, 0.676054, 0.0987021, 0.675997, 0, 0
94, 0.00000, 0.0987078, 0.675906, 0.098741, 0.676054, 0.0987021, 0.675997, 0, 0
95, 0.00000, 0.0987078, 0.675906, 0.098741, 0.676054, 0.0987021, 0.675997, 0, 0
96, 0.00000, 0.0987078, 0.675906, 0.098741, 0.676054, 0.0987021, 0.675997, 0, 0
