hour, t(sec), P1 (kW), Q1 (kvar), P2 (kW), Q2 (kvar), P3 (kW), Q3 (kvar), P4 (kW), Q4 (kvar)
1, 0.00000, 5.58473, 3.43667, 5.58655, 3.43707, 5.58586, 3.43633, 0, 0
2, 0.00000, 5.58474, 3.43667, 5.58657, 3.43708, 5.58588, 3.43634, 0, 0
3, 0.00000, 5.58475, 3.43667, 5.58657, 3.43708, 5.58588, 3.43634, 0, 0
4, 0.00000, 5.58475, 3.43667, 5.58657, 3.43708, 5.58588, 3.43634, 0, 0
5, 0.00000, 5.58475, 3.43667, 5.58657, 3.43708, 5.58588, 3.43634, 0, 0
6, 0.00000, 5.58475, 3.43667, 5.58657, 3.43708, 5.58588, 3.43634, 0, 0
7, 0.00000, 5.58475, 3.43667, 5.58657, 3.43708, 5.58588, 3.43634, 0, 0
8, 0.00000, 5.58475, 3.43667, 5.58657, 3.43708, 5.58588, 3.43634, 0, 0
9, 0.00000, 5.58475, 3.43667, 5.58657, 3.43708, 5.58588, 3.43634, 0, 0
10, 0.00000, 5.58475, 3.43667, 5.58657, 3.43708, 5.58588, 3.43634, 0, 0
11, 0.00000, 5.58475, 3.43667, 5.58657, 3.43708, 5.58588, 3.43634, 0, 0
12, 0.00000, 5.58475, 3.43667, 5.58657, 3.43708, 5.58588, 3.43634, 0, 0
13, 0.00000, 5.58475, 3.43667, 5.58657, 3.43708, 5.58588, 3.43634, 0, 0
14, 0.00000, 5.58475, 3.43667, 5.58657, 3.43708, 5.58588, 3.43634, 0, 0
15, 0.00000, 5.58475, 3.43667, 5.58657, 3.43708, 5.58588, 3.43634, 0, 0
16, 0.00000, 5.58475, 3.43667, 5.58657, 3.43708, 5.58588, 3.43634, 0, 0
17, 0.00000, 5.58475, 3.43667, 5.58657, 3.43708, 5.58588, 3.43634, 0, 0
18, 0.00000, 5.58475, 3.43667, 5.58657, 3.43708, 5.58588, 3.43634, 0, 0
19, 0.00000, 5.58475, 3.43667, 5.58657, 3.43708, 5.58588, 3.43634, 0, 0
20, 0.00000, 5.58475, 3.43667, 5.58657, 3.43708, 5.58588, 3.43634, 0, 0
21, 0.00000, 5.58475, 3.43667, 5.58657, 3.43708, 5.58588, 3.43634, 0, 0
22, 0.00000, 5.58475, 3.43667, 5.58657, 3.43708, 5.58588, 3.43634, 0, 0
23, 0.00000, 3.91138, 3.42316, 3.91274, 3.42373, 3.91226, 3.42307, 0, 0
24, 0.00000, 2.2405, 3.4154, 2.24141, 3.41611, 2.24113, 3.41553, 0, 0
25, 0.00000, -1.03256, 2.93433, -1.03245, 2.93513, -1.0324, 2.93476, 0, 0
26, 0.00000, -1.03244, 2.93541, -1.03231, 2.93613, -1.03227, 2.93578, 0, 0
27, 0.00000, -1.03218, 2.93753, -1.03201, 2.9381, -1.032, 2.93778, 0, 0
28, 0.00000, -1.03205, 2.93865, -1.03185, 2.93913, -1.03186, 2.93883, 0, 0
29, 0.00000, -1.03183, 2.94047, -1.03159, 2.94081, -1.03162, 2.94054, 0, 0
30, 0.00000, -1.03173, 2.94126, -1.03148, 2.94155, -1.03152, 2.94129, 0, 0
31, 0.00000, -1.03172, 2.94139, -1.03146, 2.94167, -1.0315, 2.94141, 0, 0
32, 0.00000, -1.03166, 2.94175, -1.0314, 2.942, -1.03145, 2.94175, 0, 0
33, 0.00000, -1.0317, 2.94151, -1.03144, 2.94178, -1.03148, 2.94153, 0, 0
34, 0.00000, -1.03162, 2.94215, -1.03135, 2.94237, -1.0314, 2.94212, 0, 0
35, 0.00000, -1.03178, 2.94085, -1.03153, 2.94117, -1.03157, 2.9409, 0, 0
36, 0.00000, -1.03174, 2.94118, -1.03149, 2.94148, -1.03153, 2.94122, 0, 0
37, 0.00000, -1.03159, 2.94239, -1.03131, 2.9426, -1.03137, 2.94235, 0, 0
38, 0.00000, -1.03159, 2.94239, -1.03132, 2.9426, -1.03137, 2.94235, 0, 0
39, 0.00000, -1.03159, 2.94239, -1.03132, 2.9426, -1.03137, 2.94235, 0, 0
40, 0.00000, -1.03159, 2.94239, -1.03132, 2.9426, -1.03137, 2.94235, 0, 0
41, 0.00000, -1.03159, 2.94239, -1.03132, 2.9426, -1.03137, 2.94235, 0, 0
42, 0.00000, -1.03159, 2.94239, -1.03132, 2.9426, -1.03137, 2.94235, 0, 0
43, 0.00000, -1.03159, 2.94239, -1.03132, 2.9426, -1.03137, 2.94235, 0, 0
44, 0.00000, -1.03159, 2.94239, -1.03132, 2.9426, -1.03137, 2.94235, 0, 0
45, 0.00000, -1.03159, 2.94239, -1.03132, 2.9426, -1.03137, 2.94235, 0, 0
46, 0.00000, -1.03159, 2.94239, -1.03132, 2.9426, -1.03137, 2.94235, 0, 0
47, 0.00000, -1.03159, 2.94239, -1.03132, 2.9426, -1.03137, 2.94235, 0, 0
48, 0.00000, -1.03159, 2.94239, -1.03132, 2.9426, -1.03137, 2.94235, 0, 0
49, 0.00000, -0.865189, 3.0173, -0.864897, 3.01753, -0.864959, 3.01727, 0, 0
50, 0.00000, -0.865187, 3.0173, -0.864895, 3.01753, -0.864956, 3.01727, 0, 0
51, 0.00000, -0.865187, 3.0173, -0.864895, 3.01753, -0.864956, 3.01727, 0, 0
52, 0.00000, -0.865187, 3.0173, -0.864895, 3.01753, -0.864956, 3.01727, 0, 0
53, 0.00000, -0.865187, 3.0173, -0.864895, 3.01753, -0.864956, 3.01727, 0, 0
54, 0.00000, -0.865187, 3.0173, -0.864895, 3.01753, -0.864956, 3.01727, 0, 0
55, 0.00000, -0.865187, 3.0173, -0.864895, 3.01753, -0.864956, 3.01727, 0, 0
56, 0.00000, -0.865187, 3.0173, -0.864895, 3.01753, -0.864956, 3.01727, 0, 0
57, 0.00000, -0.865187, 3.0173, -0.864895, 3.01753, -0.864956, 3.01727, 0, 0
58, 0.00000, -0.865187, 3.0173, -0.864895, 3.01753, -0.864956, 3.01727, 0, 0
59, 0.00000, -0.865187, 3.0173, -0.864895, 3.01753, -0.864956, 3.01727, 0, 0
60, 0.00000, -0.865187, 3.0173, -0.864895, 3.01753, -0.864956, 3.01727, 0, 0
61, 0.00000, -0.865187, 3.0173, -0.864895, 3.01753, -0.864956, 3.01727, 0, 0
62, 0.00000, -0.865195, 3.01721, -0.864906, 3.01746, -0.864965, 3.01719, 0, 0
63, 0.00000, -0.865213, 3.01706, -0.864927, 3.01731, -0.864985, 3.01705, 0, 0
64, 0.00000, -0.865234, 3.01689, -0.864951, 3.01716, -0.865007, 3.01689, 0, 0
65, 0.00000, -0.865256, 3.01672, -0.864976, 3.017, -0.865029, 3.01673, 0, 0
66, 0.00000, -0.865284, 3.01648, -0.865008, 3.01677, -0.865058, 3.0165, 0, 0
67, 0.00000, -0.865333, 3.0161, -0.865063, 3.01642, -0.865109, 3.01614, 0, 0
68, 0.00000, -0.865652, 3.01356, -0.865422, 3.01407, -0.865437, 3.01375, 0, 0
69, 0.00000, -0.865982, 3.01093, -0.865799, 3.01165, -0.865779, 3.01128, 0, 0
70, 0.00000, 3.01958, 3.01139, 3.02069, 3.01198, 3.02029, 3.01139, 0, 0
71, 0.00000, 4.6916, 3.02207, 4.69316, 3.02248, 4.69256, 3.02181, 0, 0
72, 0.00000, 4.6917, 3.0221, 4.69326, 3.02251, 4.69266, 3.02185, 0, 0
73, 0.00000, 5.6955, 3.48385, 5.69786, 3.48438, 5.69698, 3.48342, 0, 0
74, 0.00000, 5.69557, 3.48389, 5.69793, 3.48441, 5.69705, 3.48346, 0, 0
75, 0.00000, 5.69557, 3.48389, 5.69793, 3.48441, 5.69705, 3.48346, 0, 0
76, 0.00000, 5.69557, 3.48389, 5.69793, 3.48441, 5.69705, 3.48346, 0, 0
77, 0.00000, 5.69557, 3.48389, 5.69793, 3.48441, 5.69705, 3.48346, 0, 0
78, 0.00000, 5.69557, 3.48389, 5.69793, 3.48441, 5.69705, 3.48346, 0, 0
79, 0.00000, 5.69557, 3.48389, 5.69793, 3.48441, 5.69705, 3.48346, 0, 0
80, 0.00000, 5.69557, 3.48389, 5.69793, 3.48441, 5.69705, 3.48346, 0, 0
81, 0.00000, 5.69557, 3.48389, 5.69793, 3.48441, 5.69705, 3.48346, 0, 0
82, 0.00000, 5.69557, 3.48389, 5.69793, 3.48441, 5.69705, 3.48346, 0, 0
83, 0.00000, 5.69557, 3.48389, 5.69793, 3.48441, 5.69705, 3.48346, 0, 0
84, 0.00000, 5.69557, 3.48389, 5.69793, 3.48441, 5.69705, 3.48346, 0, 0
85, 0.00000, 5.69557, 3.48389, 5.69793, 3.48441, 5.69705, 3.48346, 0, 0
86, 0.00000, 5.69557, 3.48389, 5.69793, 3.48441, 5.69705, 3.48346, 0, 0
87, 0.00000, 5.69557, 3.48389, 5.69793, 3.48441, 5.69705, 3.48346, 0, 0
88, 0.00000, 5.69557, 3.48389, 5.69793, 3.48441, 5.69705, 3.48346, 0, 0
89, 0.00000, 5.69557, 3.48389, 5.69793, 3.48441, 5.69705, 3.48346, 0, 0
90, 0.00000, 5.69557, 3.48389, 5.69793, 3.48441, 5.69705, 3.48346, 0, 0
91, 0.00000, 5.69557, 3.48389, 5.69793, 3.48441, 5.69705, 3.48346, 0, 0
92, 0.00000, 5.69557, 3.48389, 5.69793, 3.48441, 5.69705, 3.48346, 0, 0
93, 0.00000, 5.69557, 3.48389, 5.69793, 3.48441, 5.69705, 3.48346, 0, 0
94, 0.00000, 5.69557, 3.48389, 5.69793, 3.48441, 5.69705, 3.48346, 0, 0
95, 0.00000, 5.69557, 3.48389, 5.69793, 3.48441, 5.69705, 3.48346, 0, 0
96, 0.00000, 5.69557, 3.48389, 5.69793, 3.48441, 5.69705, 3.48346, 0, 0
