hour, t(sec), P1 (kW), Q1 (kvar), P2 (kW), Q2 (kvar), P3 (kW), Q3 (kvar), P4 (kW), Q4 (kvar)
1, 0.00000, 15.899, 7.86631, 15.9002, 7.86636, 15.8998, 7.86599, 0, 0
2, 0.00000, 15.8991, 7.86633, 15.9002, 7.86638, 15.8998, 7.866, 0, 0
3, 0.00000, 15.8991, 7.86633, 15.9002, 7.86638, 15.8998, 7.866, 0, 0
4, 0.00000, 15.8991, 7.86633, 15.9002, 7.86638, 15.8998, 7.866, 0, 0
5, 0.00000, 15.8991, 7.86633, 15.9002, 7.86638, 15.8998, 7.866, 0, 0
6, 0.00000, 15.8991, 7.86633, 15.9002, 7.86638, 15.8998, 7.866, 0, 0
7, 0.00000, 15.8991, 7.86633, 15.9002, 7.86638, 15.8998, 7.866, 0, 0
8, 0.00000, 15.8991, 7.86633, 15.9002, 7.86638, 15.8998, 7.866, 0, 0
9, 0.00000, 15.8991, 7.86633, 15.9002, 7.86638, 15.8998, 7.866, 0, 0
10, 0.00000, 15.8991, 7.86633, 15.9002, 7.86638, 15.8998, 7.866, 0, 0
11, 0.00000, 15.8991, 7.86633, 15.9002, 7.86638, 15.8998, 7.866, 0, 0
12, 0.00000, 15.8991, 7.86633, 15.9002, 7.86638, 15.8998, 7.866, 0, 0
13, 0.00000, 15.8991, 7.86633, 15.9002, 7.86638, 15.8998, 7.866, 0, 0
14, 0.00000, 15.8991, 7.86633, 15.9002, 7.86638, 15.8998, 7.866, 0, 0
15, 0.00000, 15.8991, 7.86633, 15.9002, 7.86638, 15.8998, 7.866, 0, 0
16, 0.00000, 15.8991, 7.86633, 15.9002, 7.86638, 15.8998, 7.866, 0, 0
17, 0.00000, 15.8991, 7.86633, 15.9002, 7.86638, 15.8998, 7.866, 0, 0
18, 0.00000, 15.8991, 7.86633, 15.9002, 7.86638, 15.8998, 7.866, 0, 0
19, 0.00000, 15.8991, 7.86633, 15.9002, 7.86638, 15.8998, 7.866, 0, 0
20, 0.00000, 15.8991, 7.86633, 15.9002, 7.86638, 15.8998, 7.866, 0, 0
21, 0.00000, 15.8991, 7.86633, 15.9002, 7.86638, 15.8998, 7.866, 0, 0
22, 0.00000, 15.8991, 7.86633, 15.9002, 7.86638, 15.8998, 7.866, 0, 0
23, 0.00000, 15.8991, 7.86637, 15.9002, 7.86641, 15.8998, 7.86604, 0, 0
24, 0.00000, 15.8991, 7.86647, 15.9002, 7.86648, 15.8998, 7.86614, 0, 0
25, 0.00000, 10.3737, 8.25376, 10.3744, 8.25386, 10.3742, 8.2536, 0, 0
26, 0.00000, 8.69283, 8.22516, 8.69339, 8.22527, 8.6932, 8.22505, 0, 0
27, 0.00000, 1.99476, 8.16385, 1.99503, 8.16402, 1.99497, 8.16386, 0, 0
28, 0.00000, -3.00227, 8.17306, -3.00211, 8.17332, -3.0021, 8.17317, 0, 0
29, 0.00000, -7.03344, 8.21493, -7.03329, 8.21523, -7.03326, 8.21506, 0, 0
30, 0.00000, -7.03342, 8.21515, -7.03324, 8.21542, -7.03323, 8.21525, 0, 0
31, 0.00000, -7.03341, 8.21519, -7.03323, 8.21545, -7.03322, 8.21529, 0, 0
32, 0.00000, -7.03341, 8.21522, -7.03323, 8.21548, -7.03322, 8.21531, 0, 0
33, 0.00000, -7.03341, 8.21521, -7.03323, 8.21547, -7.03322, 8.21531, 0, 0
34, 0.00000, -7.03341, 8.21528, -7.03322, 8.21552, -7.03321, 8.21536, 0, 0
35, 0.00000, -7.03341, 8.21507, -7.03325, 8.21536, -7.03323, 8.21519, 0, 0
36, 0.00000, -7.03341, 8.21514, -7.03324, 8.21541, -7.03323, 8.21525, 0, 0
37, 0.00000, -7.03341, 8.2153, -7.03321, 8.21554, -7.03321, 8.21538, 0, 0
38, 0.00000, -7.03341, 8.2153, -7.03321, 8.21554, -7.03321, 8.21538, 0, 0
39, 0.00000, -7.03341, 8.2153, -7.03321, 8.21554, -7.03321, 8.21538, 0, 0
40, 0.00000, -7.03341, 8.2153, -7.03321, 8.21554, -7.03321, 8.21538, 0, 0
41, 0.00000, -7.03341, 8.2153, -7.03321, 8.21554, -7.03321, 8.21538, 0, 0
42, 0.00000, -7.03341, 8.2153, -7.03321, 8.21554, -7.03321, 8.21538, 0, 0
43, 0.00000, -7.03341, 8.2153, -7.03321, 8.21554, -7.03321, 8.21538, 0, 0
44, 0.00000, -7.03341, 8.2153, -7.03321, 8.21554, -7.03321, 8.21538, 0, 0
45, 0.00000, -7.03341, 8.2153, -7.03321, 8.21554, -7.03321, 8.21538, 0, 0
46, 0.00000, -7.03341, 8.2153, -7.03321, 8.21554, -7.03321, 8.21538, 0, 0
47, 0.00000, -7.03341, 8.2153, -7.03321, 8.21554, -7.03321, 8.21538, 0, 0
48, 0.00000, -7.03341, 8.2153, -7.03321, 8.21554, -7.03321, 8.21538, 0, 0
49, 0.00000, -5.83427, 8.71903, -5.83406, 8.71927, -5.83407, 8.7191, 0, 0
50, 0.00000, -5.83427, 8.71902, -5.83407, 8.71926, -5.83407, 8.7191, 0, 0
51, 0.00000, -5.83427, 8.71902, -5.83407, 8.71926, -5.83407, 8.7191, 0, 0
52, 0.00000, -5.83427, 8.71902, -5.83407, 8.71926, -5.83407, 8.7191, 0, 0
53, 0.00000, -5.83427, 8.71902, -5.83407, 8.71926, -5.83407, 8.7191, 0, 0
54, 0.00000, -5.83427, 8.71902, -5.83407, 8.71926, -5.83407, 8.7191, 0, 0
55, 0.00000, -5.83427, 8.71902, -5.83407, 8.71926, -5.83407, 8.7191, 0, 0
56, 0.00000, -5.83427, 8.71902, -5.83407, 8.71926, -5.83407, 8.7191, 0, 0
57, 0.00000, -5.83427, 8.71902, -5.83407, 8.71926, -5.83407, 8.7191, 0, 0
58, 0.00000, -5.83427, 8.71902, -5.83407, 8.71926, -5.83407, 8.7191, 0, 0
59, 0.00000, -5.83427, 8.71902, -5.83407, 8.71926, -5.83407, 8.7191, 0, 0
60, 0.00000, -5.83427, 8.71902, -5.83407, 8.71926, -5.83407, 8.7191, 0, 0
61, 0.00000, -5.83427, 8.71902, -5.83407, 8.71926, -5.83407, 8.7191, 0, 0
62, 0.00000, -5.83427, 8.71901, -5.83407, 8.71926, -5.83407, 8.71909, 0, 0
63, 0.00000, -5.83427, 8.71899, -5.83407, 8.71924, -5.83407, 8.71908, 0, 0
64, 0.00000, -5.83427, 8.71898, -5.83407, 8.71923, -5.83407, 8.71906, 0, 0
65, 0.00000, -5.83428, 8.71896, -5.83408, 8.71921, -5.83407, 8.71904, 0, 0
66, 0.00000, -5.83427, 8.71893, -5.83408, 8.71919, -5.83408, 8.71902, 0, 0
67, 0.00000, -5.83428, 8.71886, -5.83409, 8.71914, -5.83408, 8.71896, 0, 0
68, 0.00000, -1.79876, 8.68588, -1.79856, 8.68615, -1.79856, 8.68598, 0, 0
69, 0.00000, 8.22893, 8.73761, 8.22949, 8.73772, 8.22931, 8.7375, 0, 0
70, 0.00000, 18.349, 8.98223, 18.3504, 8.98227, 18.3499, 8.98183, 0, 0
71, 0.00000, 18.3492, 8.98233, 18.3506, 8.98237, 18.3501, 8.98193, 0, 0
72, 0.00000, 18.3493, 8.98235, 18.3506, 8.98239, 18.3502, 8.98195, 0, 0
73, 0.00000, 24.504, 11.8338, 24.5063, 11.8338, 24.5055, 11.8331, 0, 0
74, 0.00000, 24.5045, 11.8341, 24.5068, 11.8341, 24.506, 11.8334, 0, 0
75, 0.00000, 24.5045, 11.8341, 24.5068, 11.8341, 24.506, 11.8334, 0, 0
76, 0.00000, 24.5045, 11.8341, 24.5068, 11.8341, 24.506, 11.8334, 0, 0
77, 0.00000, 24.5045, 11.8341, 24.5068, 11.8341, 24.506, 11.8334, 0, 0
78, 0.00000, 24.5045, 11.8341, 24.5068, 11.8341, 24.506, 11.8334, 0, 0
79, 0.00000, 24.5045, 11.8341, 24.5068, 11.8341, 24.506, 11.8334, 0, 0
80, 0.00000, 24.5045, 11.8341, 24.5068, 11.8341, 24.506, 11.8334, 0, 0
81, 0.00000, 24.5045, 11.8341, 24.5068, 11.8341, 24.506, 11.8334, 0, 0
82, 0.00000, 24.5045, 11.8341, 24.5068, 11.8341, 24.506, 11.8334, 0, 0
83, 0.00000, 24.5045, 11.8341, 24.5068, 11.8341, 24.506, 11.8334, 0, 0
84, 0.00000, 24.5045, 11.8341, 24.5068, 11.8341, 24.506, 11.8334, 0, 0
85, 0.00000, 24.5045, 11.8341, 24.5068, 11.8341, 24.506, 11.8334, 0, 0
86, 0.00000, 24.5045, 11.8341, 24.5068, 11.8341, 24.506, 11.8334, 0, 0
87, 0.00000, 24.5045, 11.8341, 24.5068, 11.8341, 24.506, 11.8334, 0, 0
88, 0.00000, 24.5045, 11.8341, 24.5068, 11.8341, 24.506, 11.8334, 0, 0
89, 0.00000, 24.5045, 11.8341, 24.5068, 11.8341, 24.506, 11.8334, 0, 0
90, 0.00000, 24.5045, 11.8341, 24.5068, 11.8341, 24.506, 11.8334, 0, 0
91, 0.00000, 24.5045, 11.8341, 24.5068, 11.8341, 24.506, 11.8334, 0, 0
92, 0.00000, 24.5045, 11.8341, 24.5068, 11.8341, 24.506, 11.8334, 0, 0
93, 0.00000, 24.5045, 11.8341, 24.5068, 11.8341, 24.506, 11.8334, 0, 0
94, 0.00000, 24.5045, 11.8341, 24.5068, 11.8341, 24.506, 11.8334, 0, 0
95, 0.00000, 24.5045, 11.8341, 24.5068, 11.8341, 24.506, 11.8334, 0, 0
96, 0.00000, 24.5045, 11.8341, 24.5068, 11.8341, 24.506, 11.8334, 0, 0
