hour, t(sec), P1 (kW), Q1 (kvar), P2 (kW), Q2 (kvar), P3 (kW), Q3 (kvar), P4 (kW), Q4 (kvar)
1, 0.00000, 1529.19, 815.449, 1529.16, 815.525, 1529.11, 815.459, 0, 0
2, 0.00000, 1529.2, 815.458, 1529.17, 815.534, 1529.12, 815.469, 0, 0
3, 0.00000, 1529.2, 815.458, 1529.17, 815.534, 1529.12, 815.469, 0, 0
4, 0.00000, 1529.2, 815.458, 1529.17, 815.534, 1529.12, 815.469, 0, 0
5, 0.00000, 1529.2, 815.458, 1529.17, 815.534, 1529.12, 815.469, 0, 0
6, 0.00000, 1529.2, 815.458, 1529.17, 815.534, 1529.12, 815.469, 0, 0
7, 0.00000, 1529.2, 815.458, 1529.17, 815.534, 1529.12, 815.469, 0, 0
8, 0.00000, 1529.2, 815.458, 1529.17, 815.534, 1529.12, 815.469, 0, 0
9, 0.00000, 1529.2, 815.458, 1529.17, 815.534, 1529.12, 815.469, 0, 0
10, 0.00000, 1529.2, 815.458, 1529.17, 815.534, 1529.12, 815.469, 0, 0
11, 0.00000, 1529.2, 815.458, 1529.17, 815.534, 1529.12, 815.469, 0, 0
12, 0.00000, 1529.2, 815.458, 1529.17, 815.534, 1529.12, 815.469, 0, 0
13, 0.00000, 1529.2, 815.458, 1529.17, 815.534, 1529.12, 815.469, 0, 0
14, 0.00000, 1529.2, 815.458, 1529.17, 815.534, 1529.12, 815.469, 0, 0
15, 0.00000, 1529.2, 815.458, 1529.17, 815.534, 1529.12, 815.469, 0, 0
16, 0.00000, 1529.2, 815.458, 1529.17, 815.534, 1529.12, 815.469, 0, 0
17, 0.00000, 1529.2, 815.458, 1529.17, 815.534, 1529.12, 815.469, 0, 0
18, 0.00000, 1529.2, 815.458, 1529.17, 815.534, 1529.12, 815.469, 0, 0
19, 0.00000, 1529.2, 815.458, 1529.17, 815.534, 1529.12, 815.469, 0, 0
20, 0.00000, 1529.2, 815.458, 1529.17, 815.534, 1529.12, 815.469, 0, 0
21, 0.00000, 1529.2, 815.458, 1529.17, 815.534, 1529.12, 815.469, 0, 0
22, 0.00000, 1529.2, 815.458, 1529.17, 815.534, 1529.12, 815.469, 0, 0
23, 0.00000, 1510.89, 815.235, 1510.85, 815.307, 1510.81, 815.242, 0, 0
24, 0.00000, 1432.97, 813.377, 1432.94, 813.434, 1432.91, 813.381, 0, 0
25, 0.00000, 1156.37, 797.344, 1156.34, 797.384, 1156.32, 797.34, 0, 0
26, 0.00000, 1020.28, 792.783, 1020.25, 792.818, 1020.24, 792.776, 0, 0
27, 0.00000, 689.984, 786.459, 689.955, 786.486, 689.946, 786.448, 0, 0
28, 0.00000, 517.413, 785.018, 517.385, 785.04, 517.38, 785.005, 0, 0
29, 0.00000, 285.973, 781.106, 285.946, 781.117, 285.95, 781.089, 0, 0
30, 0.00000, 184.409, 781.165, 184.383, 781.172, 184.391, 781.146, 0, 0
31, 0.00000, 169.551, 780.873, 169.526, 780.878, 169.534, 780.854, 0, 0
32, 0.00000, 147.21, 779.702, 147.183, 779.71, 147.19, 779.682, 0, 0
33, 0.00000, 161.684, 780.394, 161.659, 780.398, 161.668, 780.375, 0, 0
34, 0.00000, 123.788, 780.023, 123.761, 780.029, 123.77, 780.003, 0, 0
35, 0.00000, 237.283, 781.189, 237.257, 781.198, 237.263, 781.171, 0, 0
36, 0.00000, 193.431, 781.196, 193.406, 781.203, 193.413, 781.178, 0, 0
37, 0.00000, 108.065, 781.18, 108.038, 781.185, 108.048, 781.159, 0, 0
38, 0.00000, 108.073, 781.191, 108.046, 781.195, 108.055, 781.17, 0, 0
39, 0.00000, 108.073, 781.191, 108.046, 781.196, 108.056, 781.17, 0, 0
40, 0.00000, 108.073, 781.191, 108.046, 781.196, 108.056, 781.17, 0, 0
41, 0.00000, 108.073, 781.191, 108.046, 781.196, 108.056, 781.17, 0, 0
42, 0.00000, 108.073, 781.191, 108.046, 781.196, 108.056, 781.17, 0, 0
43, 0.00000, 108.073, 781.191, 108.046, 781.196, 108.056, 781.17, 0, 0
44, 0.00000, 108.073, 781.191, 108.046, 781.196, 108.056, 781.17, 0, 0
45, 0.00000, 108.073, 781.191, 108.046, 781.196, 108.056, 781.17, 0, 0
46, 0.00000, 108.073, 781.191, 108.046, 781.196, 108.056, 781.17, 0, 0
47, 0.00000, 108.073, 781.191, 108.046, 781.196, 108.056, 781.17, 0, 0
48, 0.00000, 108.073, 781.191, 108.046, 781.196, 108.056, 781.17, 0, 0
49, 0.00000, 187.994, 817.178, 187.967, 817.186, 187.974, 817.158, 0, 0
50, 0.00000, 187.997, 817.18, 187.97, 817.187, 187.978, 817.159, 0, 0
51, 0.00000, 187.997, 817.18, 187.97, 817.187, 187.977, 817.159, 0, 0
52, 0.00000, 187.997, 817.18, 187.97, 817.187, 187.977, 817.159, 0, 0
53, 0.00000, 187.997, 817.18, 187.97, 817.187, 187.977, 817.159, 0, 0
54, 0.00000, 187.997, 817.18, 187.97, 817.187, 187.977, 817.159, 0, 0
55, 0.00000, 187.997, 817.18, 187.97, 817.187, 187.977, 817.159, 0, 0
56, 0.00000, 187.997, 817.18, 187.97, 817.187, 187.977, 817.159, 0, 0
57, 0.00000, 187.997, 817.18, 187.97, 817.187, 187.977, 817.159, 0, 0
58, 0.00000, 187.997, 817.18, 187.97, 817.187, 187.977, 817.159, 0, 0
59, 0.00000, 187.997, 817.18, 187.97, 817.187, 187.977, 817.159, 0, 0
60, 0.00000, 187.997, 817.18, 187.97, 817.187, 187.977, 817.159, 0, 0
61, 0.00000, 187.997, 817.18, 187.97, 817.187, 187.977, 817.159, 0, 0
62, 0.00000, 193.674, 816.669, 193.647, 816.676, 193.654, 816.648, 0, 0
63, 0.00000, 203.715, 816.016, 203.687, 816.025, 203.694, 815.997, 0, 0
64, 0.00000, 213.885, 815.679, 213.857, 815.688, 213.863, 815.659, 0, 0
65, 0.00000, 224.184, 815.666, 224.156, 815.675, 224.162, 815.646, 0, 0
66, 0.00000, 238.454, 816.194, 238.429, 816.2, 238.437, 816.175, 0, 0
67, 0.00000, 273.47, 817.306, 273.444, 817.315, 273.449, 817.287, 0, 0
68, 0.00000, 597.966, 822.126, 597.936, 822.151, 597.93, 822.113, 0, 0
69, 0.00000, 997.304, 828.383, 997.275, 828.418, 997.258, 828.376, 0, 0
70, 0.00000, 1578.15, 847.468, 1578.13, 847.519, 1578.1, 847.471, 0, 0
71, 0.00000, 1596.57, 847.759, 1596.54, 847.815, 1596.51, 847.763, 0, 0
72, 0.00000, 1596.58, 847.765, 1596.55, 847.821, 1596.52, 847.769, 0, 0
73, 0.00000, 2011.87, 1055.7, 2011.82, 1055.89, 2011.69, 1055.75, 0, 0
74, 0.00000, 2011.96, 1055.76, 2011.91, 1055.94, 2011.78, 1055.81, 0, 0
75, 0.00000, 2011.96, 1055.76, 2011.91, 1055.95, 2011.78, 1055.81, 0, 0
76, 0.00000, 2011.96, 1055.76, 2011.91, 1055.95, 2011.78, 1055.81, 0, 0
77, 0.00000, 2011.96, 1055.76, 2011.91, 1055.95, 2011.78, 1055.81, 0, 0
78, 0.00000, 2011.96, 1055.76, 2011.91, 1055.95, 2011.78, 1055.81, 0, 0
79, 0.00000, 2011.96, 1055.76, 2011.91, 1055.95, 2011.78, 1055.81, 0, 0
80, 0.00000, 2011.96, 1055.76, 2011.91, 1055.95, 2011.78, 1055.81, 0, 0
81, 0.00000, 2011.96, 1055.76, 2011.91, 1055.95, 2011.78, 1055.81, 0, 0
82, 0.00000, 2011.96, 1055.76, 2011.91, 1055.95, 2011.78, 1055.81, 0, 0
83, 0.00000, 2011.96, 1055.76, 2011.91, 1055.95, 2011.78, 1055.81, 0, 0
84, 0.00000, 2011.96, 1055.76, 2011.91, 1055.95, 2011.78, 1055.81, 0, 0
85, 0.00000, 2011.96, 1055.76, 2011.91, 1055.95, 2011.78, 1055.81, 0, 0
86, 0.00000, 2011.96, 1055.76, 2011.91, 1055.95, 2011.78, 1055.81, 0, 0
87, 0.00000, 2011.96, 1055.76, 2011.91, 1055.95, 2011.78, 1055.81, 0, 0
88, 0.00000, 2011.96, 1055.76, 2011.91, 1055.95, 2011.78, 1055.81, 0, 0
89, 0.00000, 2011.96, 1055.76, 2011.91, 1055.95, 2011.78, 1055.81, 0, 0
90, 0.00000, 2011.96, 1055.76, 2011.91, 1055.95, 2011.78, 1055.81, 0, 0
91, 0.00000, 2011.96, 1055.76, 2011.91, 1055.95, 2011.78, 1055.81, 0, 0
92, 0.00000, 2011.96, 1055.76, 2011.91, 1055.95, 2011.78, 1055.81, 0, 0
93, 0.00000, 2011.96, 1055.76, 2011.91, 1055.95, 2011.78, 1055.81, 0, 0
94, 0.00000, 2011.96, 1055.76, 2011.91, 1055.95, 2011.78, 1055.81, 0, 0
95, 0.00000, 2011.96, 1055.76, 2011.91, 1055.95, 2011.78, 1055.81, 0, 0
96, 0.00000, 2011.96, 1055.76, 2011.91, 1055.95, 2011.78, 1055.81, 0, 0
