hour, t(sec), P1 (kW), Q1 (kvar), P2 (kW), Q2 (kvar), P3 (kW), Q3 (kvar), P4 (kW), Q4 (kvar)
1, 0.00000, 39.0745, 19.0501, 39.0977, 19.0513, 39.0902, 19.0438, 0, 0
2, 0.00000, 39.0751, 19.0503, 39.0983, 19.0516, 39.0907, 19.044, 0, 0
3, 0.00000, 39.0751, 19.0504, 39.0983, 19.0516, 39.0907, 19.044, 0, 0
4, 0.00000, 39.0751, 19.0504, 39.0983, 19.0516, 39.0907, 19.044, 0, 0
5, 0.00000, 39.0751, 19.0504, 39.0983, 19.0516, 39.0907, 19.044, 0, 0
6, 0.00000, 39.0751, 19.0504, 39.0983, 19.0516, 39.0907, 19.044, 0, 0
7, 0.00000, 39.0751, 19.0504, 39.0983, 19.0516, 39.0907, 19.044, 0, 0
8, 0.00000, 39.0751, 19.0504, 39.0983, 19.0516, 39.0907, 19.044, 0, 0
9, 0.00000, 39.0751, 19.0504, 39.0983, 19.0516, 39.0907, 19.044, 0, 0
10, 0.00000, 39.0751, 19.0504, 39.0983, 19.0516, 39.0907, 19.044, 0, 0
11, 0.00000, 39.0751, 19.0504, 39.0983, 19.0516, 39.0907, 19.044, 0, 0
12, 0.00000, 39.0751, 19.0504, 39.0983, 19.0516, 39.0907, 19.044, 0, 0
13, 0.00000, 39.0751, 19.0504, 39.0983, 19.0516, 39.0907, 19.044, 0, 0
14, 0.00000, 39.0751, 19.0504, 39.0983, 19.0516, 39.0907, 19.044, 0, 0
15, 0.00000, 39.0751, 19.0504, 39.0983, 19.0516, 39.0907, 19.044, 0, 0
16, 0.00000, 39.0751, 19.0504, 39.0983, 19.0516, 39.0907, 19.044, 0, 0
17, 0.00000, 39.0751, 19.0504, 39.0983, 19.0516, 39.0907, 19.044, 0, 0
18, 0.00000, 39.0751, 19.0504, 39.0983, 19.0516, 39.0907, 19.044, 0, 0
19, 0.00000, 39.0751, 19.0504, 39.0983, 19.0516, 39.0907, 19.044, 0, 0
20, 0.00000, 39.0751, 19.0504, 39.0983, 19.0516, 39.0907, 19.044, 0, 0
21, 0.00000, 39.0751, 19.0504, 39.0983, 19.0516, 39.0907, 19.044, 0, 0
22, 0.00000, 39.0751, 19.0504, 39.0983, 19.0516, 39.0907, 19.044, 0, 0
23, 0.00000, 39.0752, 19.0504, 39.0984, 19.0516, 39.0908, 19.0441, 0, 0
24, 0.00000, 39.0754, 19.0507, 39.0981, 19.0516, 39.0906, 19.0444, 0, 0
25, 0.00000, 44.4033, 21.6039, 44.4266, 21.6033, 44.4187, 21.5964, 0, 0
26, 0.00000, 44.4041, 21.6044, 44.4259, 21.603, 44.4183, 21.5968, 0, 0
27, 0.00000, 44.4059, 21.6056, 44.4235, 21.6019, 44.4166, 21.5977, 0, 0
28, 0.00000, 44.4064, 21.606, 44.4219, 21.6011, 44.4153, 21.598, 0, 0
29, 0.00000, 44.4072, 21.6066, 44.4204, 21.6003, 44.4141, 21.5984, 0, 0
30, 0.00000, 44.4076, 21.6069, 44.4196, 21.6, 44.4136, 21.5986, 0, 0
31, 0.00000, 44.4077, 21.6069, 44.4195, 21.5999, 44.4135, 21.5986, 0, 0
32, 0.00000, 44.4077, 21.6069, 44.4194, 21.5999, 44.4134, 21.5987, 0, 0
33, 0.00000, 44.4077, 21.6069, 44.4195, 21.5999, 44.4135, 21.5987, 0, 0
34, 0.00000, 44.4077, 21.6069, 44.4194, 21.5999, 44.4134, 21.5987, 0, 0
35, 0.00000, 44.4073, 21.6067, 44.42, 21.6001, 44.4138, 21.5985, 0, 0
36, 0.00000, 44.4076, 21.6068, 44.4197, 21.6, 44.4136, 21.5986, 0, 0
37, 0.00000, 44.4077, 21.6069, 44.4194, 21.5999, 44.4134, 21.5987, 0, 0
38, 0.00000, 44.4077, 21.6069, 44.4194, 21.5999, 44.4134, 21.5987, 0, 0
39, 0.00000, 44.4077, 21.6069, 44.4194, 21.5999, 44.4134, 21.5987, 0, 0
40, 0.00000, 44.4077, 21.6069, 44.4194, 21.5999, 44.4134, 21.5987, 0, 0
41, 0.00000, 44.4077, 21.6069, 44.4194, 21.5999, 44.4134, 21.5987, 0, 0
42, 0.00000, 44.4077, 21.6069, 44.4194, 21.5999, 44.4134, 21.5987, 0, 0
43, 0.00000, 44.4077, 21.6069, 44.4194, 21.5999, 44.4134, 21.5987, 0, 0
44, 0.00000, 44.4077, 21.6069, 44.4194, 21.5999, 44.4134, 21.5987, 0, 0
45, 0.00000, 44.4077, 21.6069, 44.4194, 21.5999, 44.4134, 21.5987, 0, 0
46, 0.00000, 44.4077, 21.6069, 44.4194, 21.5999, 44.4134, 21.5987, 0, 0
47, 0.00000, 44.4077, 21.6069, 44.4194, 21.5999, 44.4134, 21.5987, 0, 0
48, 0.00000, 44.4077, 21.6069, 44.4194, 21.5999, 44.4134, 21.5987, 0, 0
49, 0.00000, 49.0792, 23.8734, 49.0939, 23.8656, 49.0868, 23.8638, 0, 0
50, 0.00000, 49.0799, 23.8739, 49.0946, 23.8661, 49.0875, 23.8643, 0, 0
51, 0.00000, 49.0799, 23.8739, 49.0946, 23.8661, 49.0875, 23.8643, 0, 0
52, 0.00000, 49.0799, 23.8739, 49.0946, 23.8661, 49.0875, 23.8643, 0, 0
53, 0.00000, 49.0799, 23.8739, 49.0946, 23.8661, 49.0875, 23.8643, 0, 0
54, 0.00000, 49.0799, 23.8739, 49.0946, 23.8661, 49.0875, 23.8643, 0, 0
55, 0.00000, 49.0799, 23.8739, 49.0946, 23.8661, 49.0875, 23.8643, 0, 0
56, 0.00000, 49.0799, 23.8739, 49.0946, 23.8661, 49.0875, 23.8643, 0, 0
57, 0.00000, 49.0799, 23.8739, 49.0946, 23.8661, 49.0875, 23.8643, 0, 0
58, 0.00000, 49.0799, 23.8739, 49.0946, 23.8661, 49.0875, 23.8643, 0, 0
59, 0.00000, 49.0799, 23.8739, 49.0946, 23.8661, 49.0875, 23.8643, 0, 0
60, 0.00000, 49.0799, 23.8739, 49.0946, 23.8661, 49.0875, 23.8643, 0, 0
61, 0.00000, 49.0799, 23.8739, 49.0946, 23.8661, 49.0875, 23.8643, 0, 0
62, 0.00000, 49.0799, 23.8739, 49.0946, 23.8661, 49.0875, 23.8643, 0, 0
63, 0.00000, 49.0799, 23.8739, 49.0946, 23.8661, 49.0875, 23.8643, 0, 0
64, 0.00000, 49.0799, 23.8739, 49.0947, 23.8661, 49.0875, 23.8643, 0, 0
65, 0.00000, 49.0799, 23.8739, 49.0947, 23.8662, 49.0875, 23.8643, 0, 0
66, 0.00000, 49.0799, 23.8739, 49.0947, 23.8662, 49.0876, 23.8643, 0, 0
67, 0.00000, 49.0798, 23.8739, 49.0949, 23.8664, 49.0877, 23.8643, 0, 0
68, 0.00000, 49.0782, 23.8736, 49.0971, 23.8683, 49.0893, 23.8643, 0, 0
69, 0.00000, 49.0759, 23.8734, 49.1004, 23.8711, 49.0917, 23.8645, 0, 0
70, 0.00000, 49.0729, 23.8732, 49.1042, 23.8746, 49.0943, 23.8646, 0, 0
71, 0.00000, 49.0746, 23.8743, 49.106, 23.8756, 49.0961, 23.8657, 0, 0
72, 0.00000, 49.0747, 23.8744, 49.1061, 23.8757, 49.0962, 23.8658, 0, 0
73, 0.00000, 66.5252, 32.6322, 66.5795, 32.6341, 66.5631, 32.6172, 0, 0
74, 0.00000, 66.5331, 32.6383, 66.5873, 32.6402, 66.5711, 32.6232, 0, 0
75, 0.00000, 66.5331, 32.6384, 66.5874, 32.6402, 66.5711, 32.6233, 0, 0
76, 0.00000, 66.5331, 32.6384, 66.5874, 32.6402, 66.5711, 32.6233, 0, 0
77, 0.00000, 66.5331, 32.6384, 66.5874, 32.6402, 66.5711, 32.6233, 0, 0
78, 0.00000, 66.5331, 32.6384, 66.5874, 32.6402, 66.5711, 32.6233, 0, 0
79, 0.00000, 66.5331, 32.6384, 66.5874, 32.6402, 66.5711, 32.6233, 0, 0
80, 0.00000, 66.5331, 32.6384, 66.5874, 32.6402, 66.5711, 32.6233, 0, 0
81, 0.00000, 66.5331, 32.6384, 66.5874, 32.6402, 66.5711, 32.6233, 0, 0
82, 0.00000, 66.5331, 32.6384, 66.5874, 32.6402, 66.5711, 32.6233, 0, 0
83, 0.00000, 66.5331, 32.6384, 66.5874, 32.6402, 66.5711, 32.6233, 0, 0
84, 0.00000, 66.5331, 32.6384, 66.5874, 32.6402, 66.5711, 32.6233, 0, 0
85, 0.00000, 66.5331, 32.6384, 66.5874, 32.6402, 66.5711, 32.6233, 0, 0
86, 0.00000, 66.5331, 32.6384, 66.5874, 32.6402, 66.5711, 32.6233, 0, 0
87, 0.00000, 66.5331, 32.6384, 66.5874, 32.6402, 66.5711, 32.6233, 0, 0
88, 0.00000, 66.5331, 32.6384, 66.5874, 32.6402, 66.5711, 32.6233, 0, 0
89, 0.00000, 66.5331, 32.6384, 66.5874, 32.6402, 66.5711, 32.6233, 0, 0
90, 0.00000, 66.5331, 32.6384, 66.5874, 32.6402, 66.5711, 32.6233, 0, 0
91, 0.00000, 66.5331, 32.6384, 66.5874, 32.6402, 66.5711, 32.6233, 0, 0
92, 0.00000, 66.5331, 32.6384, 66.5874, 32.6402, 66.5711, 32.6233, 0, 0
93, 0.00000, 66.5331, 32.6384, 66.5874, 32.6402, 66.5711, 32.6233, 0, 0
94, 0.00000, 66.5331, 32.6384, 66.5874, 32.6402, 66.5711, 32.6233, 0, 0
95, 0.00000, 66.5331, 32.6384, 66.5874, 32.6402, 66.5711, 32.6233, 0, 0
96, 0.00000, 66.5331, 32.6384, 66.5874, 32.6402, 66.5711, 32.6233, 0, 0
