hour, t(sec), P1 (kW), Q1 (kvar), P2 (kW), Q2 (kvar), P3 (kW), Q3 (kvar), P4 (kW), Q4 (kvar)
1, 0.00000, 10.1937, 5.39857, 10.1949, 5.39867, 10.1945, 5.39827, 0, 0
2, 0.00000, 10.1937, 5.39858, 10.1949, 5.39868, 10.1945, 5.39828, 0, 0
3, 0.00000, 10.1937, 5.39858, 10.1949, 5.39868, 10.1945, 5.39828, 0, 0
4, 0.00000, 10.1937, 5.39858, 10.1949, 5.39868, 10.1945, 5.39828, 0, 0
5, 0.00000, 10.1937, 5.39858, 10.1949, 5.39868, 10.1945, 5.39828, 0, 0
6, 0.00000, 10.1937, 5.39858, 10.1949, 5.39868, 10.1945, 5.39828, 0, 0
7, 0.00000, 10.1937, 5.39858, 10.1949, 5.39868, 10.1945, 5.39828, 0, 0
8, 0.00000, 10.1937, 5.39858, 10.1949, 5.39868, 10.1945, 5.39828, 0, 0
9, 0.00000, 10.1937, 5.39858, 10.1949, 5.39868, 10.1945, 5.39828, 0, 0
10, 0.00000, 10.1937, 5.39858, 10.1949, 5.39868, 10.1945, 5.39828, 0, 0
11, 0.00000, 10.1937, 5.39858, 10.1949, 5.39868, 10.1945, 5.39828, 0, 0
12, 0.00000, 10.1937, 5.39858, 10.1949, 5.39868, 10.1945, 5.39828, 0, 0
13, 0.00000, 10.1937, 5.39858, 10.1949, 5.39868, 10.1945, 5.39828, 0, 0
14, 0.00000, 10.1937, 5.39858, 10.1949, 5.39868, 10.1945, 5.39828, 0, 0
15, 0.00000, 10.1937, 5.39858, 10.1949, 5.39868, 10.1945, 5.39828, 0, 0
16, 0.00000, 10.1937, 5.39858, 10.1949, 5.39868, 10.1945, 5.39828, 0, 0
17, 0.00000, 10.1937, 5.39858, 10.1949, 5.39868, 10.1945, 5.39828, 0, 0
18, 0.00000, 10.1937, 5.39858, 10.1949, 5.39868, 10.1945, 5.39828, 0, 0
19, 0.00000, 10.1937, 5.39858, 10.1949, 5.39868, 10.1945, 5.39828, 0, 0
20, 0.00000, 10.1937, 5.39858, 10.1949, 5.39868, 10.1945, 5.39828, 0, 0
21, 0.00000, 10.1937, 5.39858, 10.1949, 5.39868, 10.1945, 5.39828, 0, 0
22, 0.00000, 10.1937, 5.39858, 10.1949, 5.39868, 10.1945, 5.39828, 0, 0
23, 0.00000, 10.1938, 5.39862, 10.1949, 5.39871, 10.1945, 5.39832, 0, 0
24, 0.00000, 10.1938, 5.39872, 10.1949, 5.39878, 10.1945, 5.39841, 0, 0
25, 0.00000, 10.1939, 5.39912, 10.1948, 5.39908, 10.1945, 5.3988, 0, 0
26, 0.00000, 10.194, 5.39929, 10.1948, 5.3992, 10.1945, 5.39896, 0, 0
27, 0.00000, 10.1941, 5.39969, 10.1947, 5.39949, 10.1944, 5.39935, 0, 0
28, 0.00000, 10.1941, 5.3999, 10.1947, 5.39964, 10.1944, 5.39954, 0, 0
29, 0.00000, 10.1942, 5.40018, 10.1946, 5.39984, 10.1944, 5.39981, 0, 0
30, 0.00000, 10.1942, 5.40031, 10.1946, 5.39993, 10.1943, 5.39993, 0, 0
31, 0.00000, 10.1942, 5.40033, 10.1946, 5.39995, 10.1944, 5.39995, 0, 0
32, 0.00000, 10.1943, 5.40037, 10.1946, 5.39997, 10.1943, 5.39999, 0, 0
33, 0.00000, 10.1943, 5.40035, 10.1946, 5.39996, 10.1944, 5.39997, 0, 0
34, 0.00000, 10.1943, 5.4004, 10.1946, 5.4, 10.1943, 5.40002, 0, 0
35, 0.00000, 10.1942, 5.40025, 10.1946, 5.39989, 10.1944, 5.39988, 0, 0
36, 0.00000, 10.1942, 5.4003, 10.1946, 5.39992, 10.1944, 5.39992, 0, 0
37, 0.00000, 10.1943, 5.40042, 10.1946, 5.40001, 10.1943, 5.40004, 0, 0
38, 0.00000, 10.1943, 5.40042, 10.1946, 5.40001, 10.1943, 5.40004, 0, 0
39, 0.00000, 10.1943, 5.40042, 10.1946, 5.40001, 10.1943, 5.40004, 0, 0
40, 0.00000, 10.1943, 5.40042, 10.1946, 5.40001, 10.1943, 5.40004, 0, 0
41, 0.00000, 10.1943, 5.40042, 10.1946, 5.40001, 10.1943, 5.40004, 0, 0
42, 0.00000, 10.1943, 5.40042, 10.1946, 5.40001, 10.1943, 5.40004, 0, 0
43, 0.00000, 10.1943, 5.40042, 10.1946, 5.40001, 10.1943, 5.40004, 0, 0
44, 0.00000, 10.1943, 5.40042, 10.1946, 5.40001, 10.1943, 5.40004, 0, 0
45, 0.00000, 10.1943, 5.40042, 10.1946, 5.40001, 10.1943, 5.40004, 0, 0
46, 0.00000, 10.1943, 5.40042, 10.1946, 5.40001, 10.1943, 5.40004, 0, 0
47, 0.00000, 10.1943, 5.40042, 10.1946, 5.40001, 10.1943, 5.40004, 0, 0
48, 0.00000, 10.1943, 5.40042, 10.1946, 5.40001, 10.1943, 5.40004, 0, 0
49, 0.00000, 10.1942, 5.40025, 10.1946, 5.39984, 10.1943, 5.39985, 0, 0
50, 0.00000, 10.1942, 5.40025, 10.1946, 5.39984, 10.1943, 5.39985, 0, 0
51, 0.00000, 10.1942, 5.40025, 10.1946, 5.39984, 10.1943, 5.39985, 0, 0
52, 0.00000, 10.1942, 5.40025, 10.1946, 5.39984, 10.1943, 5.39985, 0, 0
53, 0.00000, 10.1942, 5.40025, 10.1946, 5.39984, 10.1943, 5.39985, 0, 0
54, 0.00000, 10.1942, 5.40025, 10.1946, 5.39984, 10.1943, 5.39985, 0, 0
55, 0.00000, 10.1942, 5.40025, 10.1946, 5.39984, 10.1943, 5.39985, 0, 0
56, 0.00000, 10.1942, 5.40025, 10.1946, 5.39984, 10.1943, 5.39985, 0, 0
57, 0.00000, 10.1942, 5.40025, 10.1946, 5.39984, 10.1943, 5.39985, 0, 0
58, 0.00000, 10.1942, 5.40025, 10.1946, 5.39984, 10.1943, 5.39985, 0, 0
59, 0.00000, 10.1942, 5.40025, 10.1946, 5.39984, 10.1943, 5.39985, 0, 0
60, 0.00000, 10.1942, 5.40025, 10.1946, 5.39984, 10.1943, 5.39985, 0, 0
61, 0.00000, 10.1942, 5.40025, 10.1946, 5.39984, 10.1943, 5.39985, 0, 0
62, 0.00000, 10.1942, 5.40025, 10.1946, 5.39984, 10.1944, 5.39985, 0, 0
63, 0.00000, 10.1942, 5.40023, 10.1946, 5.39983, 10.1944, 5.39984, 0, 0
64, 0.00000, 10.1942, 5.40022, 10.1946, 5.39982, 10.1944, 5.39982, 0, 0
65, 0.00000, 10.1942, 5.4002, 10.1946, 5.39981, 10.1944, 5.39981, 0, 0
66, 0.00000, 10.1942, 5.40018, 10.1946, 5.3998, 10.1944, 5.39979, 0, 0
67, 0.00000, 10.1942, 5.40013, 10.1946, 5.39976, 10.1944, 5.39974, 0, 0
68, 0.00000, 10.1941, 5.39972, 10.1947, 5.39947, 10.1944, 5.39935, 0, 0
69, 0.00000, 10.1939, 5.39922, 10.1948, 5.39911, 10.1944, 5.39888, 0, 0
70, 0.00000, 10.1937, 5.39844, 10.1948, 5.39853, 10.1944, 5.39813, 0, 0
71, 0.00000, 10.1937, 5.39844, 10.1949, 5.39854, 10.1945, 5.39813, 0, 0
72, 0.00000, 10.1937, 5.39845, 10.1949, 5.39855, 10.1945, 5.39814, 0, 0
73, 0.00000, 10.1934, 5.39745, 10.1949, 5.39759, 10.1944, 5.39707, 0, 0
74, 0.00000, 10.1935, 5.3975, 10.195, 5.39764, 10.1945, 5.39712, 0, 0
75, 0.00000, 10.1935, 5.3975, 10.195, 5.39764, 10.1945, 5.39712, 0, 0
76, 0.00000, 10.1935, 5.3975, 10.195, 5.39764, 10.1945, 5.39712, 0, 0
77, 0.00000, 10.1935, 5.3975, 10.195, 5.39764, 10.1945, 5.39712, 0, 0
78, 0.00000, 10.1935, 5.3975, 10.195, 5.39764, 10.1945, 5.39712, 0, 0
79, 0.00000, 10.1935, 5.3975, 10.195, 5.39764, 10.1945, 5.39712, 0, 0
80, 0.00000, 10.1935, 5.3975, 10.195, 5.39764, 10.1945, 5.39712, 0, 0
81, 0.00000, 10.1935, 5.3975, 10.195, 5.39764, 10.1945, 5.39712, 0, 0
82, 0.00000, 10.1935, 5.3975, 10.195, 5.39764, 10.1945, 5.39712, 0, 0
83, 0.00000, 10.1935, 5.3975, 10.195, 5.39764, 10.1945, 5.39712, 0, 0
84, 0.00000, 10.1935, 5.3975, 10.195, 5.39764, 10.1945, 5.39712, 0, 0
85, 0.00000, 10.1935, 5.3975, 10.195, 5.39764, 10.1945, 5.39712, 0, 0
86, 0.00000, 10.1935, 5.3975, 10.195, 5.39764, 10.1945, 5.39712, 0, 0
87, 0.00000, 10.1935, 5.3975, 10.195, 5.39764, 10.1945, 5.39712, 0, 0
88, 0.00000, 10.1935, 5.3975, 10.195, 5.39764, 10.1945, 5.39712, 0, 0
89, 0.00000, 10.1935, 5.3975, 10.195, 5.39764, 10.1945, 5.39712, 0, 0
90, 0.00000, 10.1935, 5.3975, 10.195, 5.39764, 10.1945, 5.39712, 0, 0
91, 0.00000, 10.1935, 5.3975, 10.195, 5.39764, 10.1945, 5.39712, 0, 0
92, 0.00000, 10.1935, 5.3975, 10.195, 5.39764, 10.1945, 5.39712, 0, 0
93, 0.00000, 10.1935, 5.3975, 10.195, 5.39764, 10.1945, 5.39712, 0, 0
94, 0.00000, 10.1935, 5.3975, 10.195, 5.39764, 10.1945, 5.39712, 0, 0
95, 0.00000, 10.1935, 5.3975, 10.195, 5.39764, 10.1945, 5.39712, 0, 0
96, 0.00000, 10.1935, 5.3975, 10.195, 5.39764, 10.1945, 5.39712, 0, 0
