hour, t(sec), P1 (kW), Q1 (kvar), P2 (kW), Q2 (kvar), P3 (kW), Q3 (kvar), P4 (kW), Q4 (kvar)
1, 0.00000, 52.0185, 26.3676, 52.0506, 26.3684, 52.0414, 26.3589, 0, 0
2, 0.00000, 52.0206, 26.3689, 52.0527, 26.3697, 52.0435, 26.3603, 0, 0
3, 0.00000, 52.0206, 26.369, 52.0527, 26.3697, 52.0436, 26.3603, 0, 0
4, 0.00000, 52.0206, 26.369, 52.0527, 26.3697, 52.0436, 26.3603, 0, 0
5, 0.00000, 52.0206, 26.369, 52.0527, 26.3697, 52.0436, 26.3603, 0, 0
6, 0.00000, 52.0206, 26.369, 52.0527, 26.3697, 52.0436, 26.3603, 0, 0
7, 0.00000, 52.0206, 26.369, 52.0527, 26.3697, 52.0436, 26.3603, 0, 0
8, 0.00000, 52.0206, 26.369, 52.0527, 26.3697, 52.0436, 26.3603, 0, 0
9, 0.00000, 52.0206, 26.369, 52.0527, 26.3697, 52.0436, 26.3603, 0, 0
10, 0.00000, 52.0206, 26.369, 52.0527, 26.3697, 52.0436, 26.3603, 0, 0
11, 0.00000, 52.0206, 26.369, 52.0527, 26.3697, 52.0436, 26.3603, 0, 0
12, 0.00000, 52.0206, 26.369, 52.0527, 26.3697, 52.0436, 26.3603, 0, 0
13, 0.00000, 52.0206, 26.369, 52.0527, 26.3697, 52.0436, 26.3603, 0, 0
14, 0.00000, 52.0206, 26.369, 52.0527, 26.3697, 52.0436, 26.3603, 0, 0
15, 0.00000, 52.0206, 26.369, 52.0527, 26.3697, 52.0436, 26.3603, 0, 0
16, 0.00000, 52.0206, 26.369, 52.0527, 26.3697, 52.0436, 26.3603, 0, 0
17, 0.00000, 52.0206, 26.369, 52.0527, 26.3697, 52.0436, 26.3603, 0, 0
18, 0.00000, 52.0206, 26.369, 52.0527, 26.3697, 52.0436, 26.3603, 0, 0
19, 0.00000, 52.0206, 26.369, 52.0527, 26.3697, 52.0436, 26.3603, 0, 0
20, 0.00000, 52.0206, 26.369, 52.0527, 26.3697, 52.0436, 26.3603, 0, 0
21, 0.00000, 52.0206, 26.369, 52.0527, 26.3697, 52.0436, 26.3603, 0, 0
22, 0.00000, 52.0206, 26.369, 52.0527, 26.3697, 52.0436, 26.3603, 0, 0
23, 0.00000, 52.0209, 26.369, 52.0529, 26.3697, 52.0437, 26.3603, 0, 0
24, 0.00000, 52.0212, 26.3676, 52.0526, 26.368, 52.0435, 26.3589, 0, 0
25, 0.00000, 52.0232, 26.361, 52.0515, 26.3597, 52.0428, 26.3521, 0, 0
26, 0.00000, 52.0236, 26.3569, 52.0501, 26.3546, 52.0416, 26.3479, 0, 0
27, 0.00000, 52.0263, 26.3464, 52.0479, 26.3415, 52.04, 26.3371, 0, 0
28, 0.00000, 52.0268, 26.3403, 52.0458, 26.3341, 52.0382, 26.331, 0, 0
29, 0.00000, 52.0279, 26.334, 52.0441, 26.3263, 52.0368, 26.3245, 0, 0
30, 0.00000, 52.0282, 26.3309, 52.043, 26.3223, 52.0359, 26.3213, 0, 0
31, 0.00000, 52.0282, 26.3303, 52.0428, 26.3216, 52.0357, 26.3207, 0, 0
32, 0.00000, 52.0282, 26.33, 52.0427, 26.3213, 52.0357, 26.3204, 0, 0
33, 0.00000, 52.0282, 26.3301, 52.0428, 26.3214, 52.0357, 26.3205, 0, 0
34, 0.00000, 52.0282, 26.3299, 52.0427, 26.3212, 52.0357, 26.3203, 0, 0
35, 0.00000, 52.0276, 26.3323, 52.0432, 26.3242, 52.036, 26.3228, 0, 0
36, 0.00000, 52.0281, 26.3311, 52.043, 26.3226, 52.0359, 26.3215, 0, 0
37, 0.00000, 52.0283, 26.3299, 52.0427, 26.3211, 52.0356, 26.3202, 0, 0
38, 0.00000, 52.0283, 26.3299, 52.0427, 26.3211, 52.0356, 26.3202, 0, 0
39, 0.00000, 52.0283, 26.3299, 52.0427, 26.3211, 52.0356, 26.3202, 0, 0
40, 0.00000, 52.0283, 26.3299, 52.0427, 26.3211, 52.0356, 26.3202, 0, 0
41, 0.00000, 52.0283, 26.3299, 52.0427, 26.3211, 52.0356, 26.3202, 0, 0
42, 0.00000, 52.0283, 26.3299, 52.0427, 26.3211, 52.0356, 26.3202, 0, 0
43, 0.00000, 52.0283, 26.3299, 52.0427, 26.3211, 52.0356, 26.3202, 0, 0
44, 0.00000, 52.0283, 26.3299, 52.0427, 26.3211, 52.0356, 26.3202, 0, 0
45, 0.00000, 52.0283, 26.3299, 52.0427, 26.3211, 52.0356, 26.3202, 0, 0
46, 0.00000, 52.0283, 26.3299, 52.0427, 26.3211, 52.0356, 26.3202, 0, 0
47, 0.00000, 52.0283, 26.3299, 52.0427, 26.3211, 52.0356, 26.3202, 0, 0
48, 0.00000, 52.0283, 26.3299, 52.0427, 26.3211, 52.0356, 26.3202, 0, 0
49, 0.00000, 52.027, 26.3346, 52.0432, 26.326, 52.0357, 26.3246, 0, 0
50, 0.00000, 52.0276, 26.335, 52.0439, 26.3263, 52.0363, 26.3249, 0, 0
51, 0.00000, 52.0276, 26.335, 52.0439, 26.3263, 52.0363, 26.3249, 0, 0
52, 0.00000, 52.0276, 26.335, 52.0439, 26.3263, 52.0363, 26.3249, 0, 0
53, 0.00000, 52.0276, 26.335, 52.0439, 26.3263, 52.0363, 26.3249, 0, 0
54, 0.00000, 52.0276, 26.335, 52.0439, 26.3263, 52.0363, 26.3249, 0, 0
55, 0.00000, 52.0276, 26.335, 52.0439, 26.3263, 52.0363, 26.3249, 0, 0
56, 0.00000, 52.0276, 26.335, 52.0439, 26.3263, 52.0363, 26.3249, 0, 0
57, 0.00000, 52.0276, 26.335, 52.0439, 26.3263, 52.0363, 26.3249, 0, 0
58, 0.00000, 52.0276, 26.335, 52.0439, 26.3263, 52.0363, 26.3249, 0, 0
59, 0.00000, 52.0276, 26.335, 52.0439, 26.3263, 52.0363, 26.3249, 0, 0
60, 0.00000, 52.0276, 26.335, 52.0439, 26.3263, 52.0363, 26.3249, 0, 0
61, 0.00000, 52.0276, 26.335, 52.0439, 26.3263, 52.0363, 26.3249, 0, 0
62, 0.00000, 52.0276, 26.335, 52.0439, 26.3264, 52.0363, 26.325, 0, 0
63, 0.00000, 52.0276, 26.3351, 52.0439, 26.3264, 52.0363, 26.325, 0, 0
64, 0.00000, 52.0276, 26.3351, 52.0439, 26.3265, 52.0364, 26.3251, 0, 0
65, 0.00000, 52.0276, 26.3352, 52.0439, 26.3266, 52.0364, 26.3251, 0, 0
66, 0.00000, 52.0276, 26.3353, 52.0439, 26.3267, 52.0364, 26.3252, 0, 0
67, 0.00000, 52.0274, 26.3362, 52.0441, 26.3278, 52.0365, 26.3261, 0, 0
68, 0.00000, 52.0247, 26.3447, 52.0456, 26.3386, 52.0375, 26.3349, 0, 0
69, 0.00000, 52.0212, 26.3572, 52.0481, 26.3543, 52.0392, 26.3477, 0, 0
70, 0.00000, 52.0166, 26.373, 52.0509, 26.3739, 52.0411, 26.3638, 0, 0
71, 0.00000, 52.0196, 26.375, 52.0539, 26.3759, 52.0441, 26.3658, 0, 0
72, 0.00000, 52.0199, 26.3752, 52.0542, 26.3761, 52.0444, 26.3659, 0, 0
73, 0.00000, 52.0114, 26.3987, 52.0547, 26.4001, 52.0423, 26.3872, 0, 0
74, 0.00000, 52.0168, 26.4022, 52.0601, 26.4035, 52.0478, 26.3906, 0, 0
75, 0.00000, 52.0168, 26.4022, 52.0602, 26.4035, 52.0479, 26.3907, 0, 0
76, 0.00000, 52.0168, 26.4022, 52.0602, 26.4035, 52.0479, 26.3907, 0, 0
77, 0.00000, 52.0168, 26.4022, 52.0602, 26.4035, 52.0479, 26.3907, 0, 0
78, 0.00000, 52.0168, 26.4022, 52.0602, 26.4035, 52.0479, 26.3907, 0, 0
79, 0.00000, 52.0168, 26.4022, 52.0602, 26.4035, 52.0479, 26.3907, 0, 0
80, 0.00000, 52.0168, 26.4022, 52.0602, 26.4035, 52.0479, 26.3907, 0, 0
81, 0.00000, 52.0168, 26.4022, 52.0602, 26.4035, 52.0479, 26.3907, 0, 0
82, 0.00000, 52.0168, 26.4022, 52.0602, 26.4035, 52.0479, 26.3907, 0, 0
83, 0.00000, 52.0168, 26.4022, 52.0602, 26.4035, 52.0479, 26.3907, 0, 0
84, 0.00000, 52.0168, 26.4022, 52.0602, 26.4035, 52.0479, 26.3907, 0, 0
85, 0.00000, 52.0168, 26.4022, 52.0602, 26.4035, 52.0479, 26.3907, 0, 0
86, 0.00000, 52.0168, 26.4022, 52.0602, 26.4035, 52.0479, 26.3907, 0, 0
87, 0.00000, 52.0168, 26.4022, 52.0602, 26.4035, 52.0479, 26.3907, 0, 0
88, 0.00000, 52.0168, 26.4022, 52.0602, 26.4035, 52.0479, 26.3907, 0, 0
89, 0.00000, 52.0168, 26.4022, 52.0602, 26.4035, 52.0479, 26.3907, 0, 0
90, 0.00000, 52.0168, 26.4022, 52.0602, 26.4035, 52.0479, 26.3907, 0, 0
91, 0.00000, 52.0168, 26.4022, 52.0602, 26.4035, 52.0479, 26.3907, 0, 0
92, 0.00000, 52.0168, 26.4022, 52.0602, 26.4035, 52.0479, 26.3907, 0, 0
93, 0.00000, 52.0168, 26.4022, 52.0602, 26.4035, 52.0479, 26.3907, 0, 0
94, 0.00000, 52.0168, 26.4022, 52.0602, 26.4035, 52.0479, 26.3907, 0, 0
95, 0.00000, 52.0168, 26.4022, 52.0602, 26.4035, 52.0479, 26.3907, 0, 0
96, 0.00000, 52.0168, 26.4022, 52.0602, 26.4035, 52.0479, 26.3907, 0, 0
