hour, t(sec), P1 (kW), Q1 (kvar), P2 (kW), Q2 (kvar), P3 (kW), Q3 (kvar), P4 (kW), Q4 (kvar)
1, 0.00000, 17.08, 8.77147, 17.0875, 8.77186, 17.0851, 8.76942, 0, 0
2, 0.00000, 17.0803, 8.77162, 17.0878, 8.77201, 17.0854, 8.76956, 0, 0
3, 0.00000, 17.0803, 8.77162, 17.0878, 8.77201, 17.0854, 8.76956, 0, 0
4, 0.00000, 17.0803, 8.77162, 17.0878, 8.77201, 17.0854, 8.76956, 0, 0
5, 0.00000, 17.0803, 8.77162, 17.0878, 8.77201, 17.0854, 8.76956, 0, 0
6, 0.00000, 17.0803, 8.77162, 17.0878, 8.77201, 17.0854, 8.76956, 0, 0
7, 0.00000, 17.0803, 8.77162, 17.0878, 8.77201, 17.0854, 8.76956, 0, 0
8, 0.00000, 17.0803, 8.77162, 17.0878, 8.77201, 17.0854, 8.76956, 0, 0
9, 0.00000, 17.0803, 8.77162, 17.0878, 8.77201, 17.0854, 8.76956, 0, 0
10, 0.00000, 17.0803, 8.77162, 17.0878, 8.77201, 17.0854, 8.76956, 0, 0
11, 0.00000, 17.0803, 8.77162, 17.0878, 8.77201, 17.0854, 8.76956, 0, 0
12, 0.00000, 17.0803, 8.77162, 17.0878, 8.77201, 17.0854, 8.76956, 0, 0
13, 0.00000, 17.0803, 8.77162, 17.0878, 8.77201, 17.0854, 8.76956, 0, 0
14, 0.00000, 17.0803, 8.77162, 17.0878, 8.77201, 17.0854, 8.76956, 0, 0
15, 0.00000, 17.0803, 8.77162, 17.0878, 8.77201, 17.0854, 8.76956, 0, 0
16, 0.00000, 17.0803, 8.77162, 17.0878, 8.77201, 17.0854, 8.76956, 0, 0
17, 0.00000, 17.0803, 8.77162, 17.0878, 8.77201, 17.0854, 8.76956, 0, 0
18, 0.00000, 17.0803, 8.77162, 17.0878, 8.77201, 17.0854, 8.76956, 0, 0
19, 0.00000, 17.0803, 8.77162, 17.0878, 8.77201, 17.0854, 8.76956, 0, 0
20, 0.00000, 17.0803, 8.77162, 17.0878, 8.77201, 17.0854, 8.76956, 0, 0
21, 0.00000, 17.0803, 8.77162, 17.0878, 8.77201, 17.0854, 8.76956, 0, 0
22, 0.00000, 17.0803, 8.77162, 17.0878, 8.77201, 17.0854, 8.76956, 0, 0
23, 0.00000, 17.0806, 8.77184, 17.088, 8.77217, 17.0856, 8.76977, 0, 0
24, 0.00000, 17.0804, 8.77189, 17.0875, 8.77205, 17.0852, 8.7698, 0, 0
25, 0.00000, 9.46006, 8.1158, 9.46383, 8.11654, 9.46269, 8.11509, 0, 0
26, 0.00000, 7.7714, 8.07596, 7.77449, 8.0767, 7.77358, 8.07547, 0, 0
27, 0.00000, 1.06113, 7.99822, 1.06258, 7.99954, 1.06239, 7.99859, 0, 0
28, 0.00000, -3.92674, 8.02435, -3.92602, 8.02622, -3.92577, 8.02531, 0, 0
29, 0.00000, -10.385, 8.16437, -10.3846, 8.16688, -10.384, 8.16586, 0, 0
30, 0.00000, -10.3851, 8.16532, -10.3844, 8.16764, -10.384, 8.16661, 0, 0
31, 0.00000, -10.3851, 8.16549, -10.3844, 8.16778, -10.384, 8.16675, 0, 0
32, 0.00000, -10.3851, 8.1657, -10.3844, 8.1679, -10.384, 8.16686, 0, 0
33, 0.00000, -10.3851, 8.16564, -10.3844, 8.1679, -10.384, 8.16687, 0, 0
34, 0.00000, -10.3852, 8.16612, -10.3843, 8.16822, -10.384, 8.16718, 0, 0
35, 0.00000, -10.3849, 8.16516, -10.3844, 8.16758, -10.3839, 8.16656, 0, 0
36, 0.00000, -10.385, 8.1653, -10.3844, 8.16765, -10.384, 8.16662, 0, 0
37, 0.00000, -10.3853, 8.16632, -10.3843, 8.16836, -10.384, 8.1673, 0, 0
38, 0.00000, -10.3853, 8.16633, -10.3843, 8.16836, -10.384, 8.16731, 0, 0
39, 0.00000, -10.3853, 8.16633, -10.3843, 8.16836, -10.384, 8.16731, 0, 0
40, 0.00000, -10.3853, 8.16633, -10.3843, 8.16836, -10.384, 8.16731, 0, 0
41, 0.00000, -10.3853, 8.16633, -10.3843, 8.16836, -10.384, 8.16731, 0, 0
42, 0.00000, -10.3853, 8.16633, -10.3843, 8.16836, -10.384, 8.16731, 0, 0
43, 0.00000, -10.3853, 8.16633, -10.3843, 8.16836, -10.384, 8.16731, 0, 0
44, 0.00000, -10.3853, 8.16633, -10.3843, 8.16836, -10.384, 8.16731, 0, 0
45, 0.00000, -10.3853, 8.16633, -10.3843, 8.16836, -10.384, 8.16731, 0, 0
46, 0.00000, -10.3853, 8.16633, -10.3843, 8.16836, -10.384, 8.16731, 0, 0
47, 0.00000, -10.3853, 8.16633, -10.3843, 8.16836, -10.384, 8.16731, 0, 0
48, 0.00000, -10.3853, 8.16633, -10.3843, 8.16836, -10.384, 8.16731, 0, 0
49, 0.00000, -8.80763, 8.86245, -8.80652, 8.86443, -8.80631, 8.86337, 0, 0
50, 0.00000, -8.80763, 8.86242, -8.80652, 8.8644, -8.80632, 8.86334, 0, 0
51, 0.00000, -8.80763, 8.86242, -8.80652, 8.8644, -8.80632, 8.86334, 0, 0
52, 0.00000, -8.80763, 8.86242, -8.80652, 8.8644, -8.80632, 8.86334, 0, 0
53, 0.00000, -8.80763, 8.86242, -8.80652, 8.8644, -8.80632, 8.86334, 0, 0
54, 0.00000, -8.80763, 8.86242, -8.80652, 8.8644, -8.80632, 8.86334, 0, 0
55, 0.00000, -8.80763, 8.86242, -8.80652, 8.8644, -8.80632, 8.86334, 0, 0
56, 0.00000, -8.80763, 8.86242, -8.80652, 8.8644, -8.80632, 8.86334, 0, 0
57, 0.00000, -8.80763, 8.86242, -8.80652, 8.8644, -8.80632, 8.86334, 0, 0
58, 0.00000, -8.80763, 8.86242, -8.80652, 8.8644, -8.80632, 8.86334, 0, 0
59, 0.00000, -8.80763, 8.86242, -8.80652, 8.8644, -8.80632, 8.86334, 0, 0
60, 0.00000, -8.80763, 8.86242, -8.80652, 8.8644, -8.80632, 8.86334, 0, 0
61, 0.00000, -8.80763, 8.86242, -8.80652, 8.8644, -8.80632, 8.86334, 0, 0
62, 0.00000, -8.80761, 8.86235, -8.80653, 8.86436, -8.80631, 8.8633, 0, 0
63, 0.00000, -8.80758, 8.86222, -8.80656, 8.86427, -8.8063, 8.86321, 0, 0
64, 0.00000, -8.80755, 8.86207, -8.80658, 8.86417, -8.8063, 8.86311, 0, 0
65, 0.00000, -8.80753, 8.86192, -8.80661, 8.86407, -8.8063, 8.863, 0, 0
66, 0.00000, -8.80748, 8.86173, -8.80663, 8.86395, -8.80628, 8.86289, 0, 0
67, 0.00000, -8.80743, 8.86141, -8.80668, 8.86373, -8.80627, 8.86266, 0, 0
68, 0.00000, -2.33377, 8.74953, -2.33268, 8.75139, -2.33256, 8.75037, 0, 0
69, 0.00000, 7.70466, 8.81588, 7.70791, 8.81673, 7.70699, 8.81541, 0, 0
70, 0.00000, 17.9018, 9.1835, 17.9096, 9.18384, 17.9071, 9.18132, 0, 0
71, 0.00000, 17.9028, 9.18399, 17.9107, 9.18439, 17.9082, 9.18182, 0, 0
72, 0.00000, 17.9032, 9.18418, 17.9111, 9.18458, 17.9085, 9.18201, 0, 0
73, 0.00000, 27.2784, 14.0166, 27.3018, 14.0249, 27.2863, 14.0235, 0, 0
74, 0.00000, 27.278, 14.0165, 27.3012, 14.0248, 27.2859, 14.0231, 0, 0
75, 0.00000, 27.278, 14.0165, 27.3012, 14.0248, 27.2859, 14.0231, 0, 0
76, 0.00000, 27.278, 14.0165, 27.3012, 14.0248, 27.2859, 14.0231, 0, 0
77, 0.00000, 27.278, 14.0165, 27.3012, 14.0248, 27.2859, 14.0231, 0, 0
78, 0.00000, 27.278, 14.0165, 27.3012, 14.0248, 27.2859, 14.0231, 0, 0
79, 0.00000, 27.278, 14.0165, 27.3012, 14.0248, 27.2859, 14.0231, 0, 0
80, 0.00000, 27.278, 14.0165, 27.3012, 14.0248, 27.2859, 14.0231, 0, 0
81, 0.00000, 27.278, 14.0165, 27.3012, 14.0248, 27.2859, 14.0231, 0, 0
82, 0.00000, 27.278, 14.0165, 27.3012, 14.0248, 27.2859, 14.0231, 0, 0
83, 0.00000, 27.278, 14.0165, 27.3012, 14.0248, 27.2859, 14.0231, 0, 0
84, 0.00000, 27.278, 14.0165, 27.3012, 14.0248, 27.2859, 14.0231, 0, 0
85, 0.00000, 27.278, 14.0165, 27.3012, 14.0248, 27.2859, 14.0231, 0, 0
86, 0.00000, 27.278, 14.0165, 27.3012, 14.0248, 27.2859, 14.0231, 0, 0
87, 0.00000, 27.278, 14.0165, 27.3012, 14.0248, 27.2859, 14.0231, 0, 0
88, 0.00000, 27.278, 14.0165, 27.3012, 14.0248, 27.2859, 14.0231, 0, 0
89, 0.00000, 27.278, 14.0165, 27.3012, 14.0248, 27.2859, 14.0231, 0, 0
90, 0.00000, 27.278, 14.0165, 27.3012, 14.0248, 27.2859, 14.0231, 0, 0
91, 0.00000, 27.278, 14.0165, 27.3012, 14.0248, 27.2859, 14.0231, 0, 0
92, 0.00000, 27.278, 14.0165, 27.3012, 14.0248, 27.2859, 14.0231, 0, 0
93, 0.00000, 27.278, 14.0165, 27.3012, 14.0248, 27.2859, 14.0231, 0, 0
94, 0.00000, 27.278, 14.0165, 27.3012, 14.0248, 27.2859, 14.0231, 0, 0
95, 0.00000, 27.278, 14.0165, 27.3012, 14.0248, 27.2859, 14.0231, 0, 0
96, 0.00000, 27.278, 14.0165, 27.3012, 14.0248, 27.2859, 14.0231, 0, 0
