hour, t(sec), P1 (kW), Q1 (kvar), P2 (kW), Q2 (kvar), P3 (kW), Q3 (kvar), P4 (kW), Q4 (kvar)
1, 0.00000, 2.90946, 1.95666, 2.91047, 1.95697, 2.91007, 1.95652, 0, 0
2, 0.00000, 2.90947, 1.95667, 2.91048, 1.95697, 2.91008, 1.95652, 0, 0
3, 0.00000, 2.90947, 1.95667, 2.91048, 1.95697, 2.91008, 1.95652, 0, 0
4, 0.00000, 2.90947, 1.95667, 2.91048, 1.95697, 2.91008, 1.95652, 0, 0
5, 0.00000, 2.90947, 1.95667, 2.91048, 1.95697, 2.91008, 1.95652, 0, 0
6, 0.00000, 2.90947, 1.95667, 2.91048, 1.95697, 2.91008, 1.95652, 0, 0
7, 0.00000, 2.90947, 1.95667, 2.91048, 1.95697, 2.91008, 1.95652, 0, 0
8, 0.00000, 2.90947, 1.95667, 2.91048, 1.95697, 2.91008, 1.95652, 0, 0
9, 0.00000, 2.90947, 1.95667, 2.91048, 1.95697, 2.91008, 1.95652, 0, 0
10, 0.00000, 2.90947, 1.95667, 2.91048, 1.95697, 2.91008, 1.95652, 0, 0
11, 0.00000, 2.90947, 1.95667, 2.91048, 1.95697, 2.91008, 1.95652, 0, 0
12, 0.00000, 2.90947, 1.95667, 2.91048, 1.95697, 2.91008, 1.95652, 0, 0
13, 0.00000, 2.90947, 1.95667, 2.91048, 1.95697, 2.91008, 1.95652, 0, 0
14, 0.00000, 2.90947, 1.95667, 2.91048, 1.95697, 2.91008, 1.95652, 0, 0
15, 0.00000, 2.90947, 1.95667, 2.91048, 1.95697, 2.91008, 1.95652, 0, 0
16, 0.00000, 2.90947, 1.95667, 2.91048, 1.95697, 2.91008, 1.95652, 0, 0
17, 0.00000, 2.90947, 1.95667, 2.91048, 1.95697, 2.91008, 1.95652, 0, 0
18, 0.00000, 2.90947, 1.95667, 2.91048, 1.95697, 2.91008, 1.95652, 0, 0
19, 0.00000, 2.90947, 1.95667, 2.91048, 1.95697, 2.91008, 1.95652, 0, 0
20, 0.00000, 2.90947, 1.95667, 2.91048, 1.95697, 2.91008, 1.95652, 0, 0
21, 0.00000, 2.90947, 1.95667, 2.91048, 1.95697, 2.91008, 1.95652, 0, 0
22, 0.00000, 2.90947, 1.95667, 2.91048, 1.95697, 2.91008, 1.95652, 0, 0
23, 0.00000, 1.2381, 1.94855, 1.23865, 1.94904, 1.23846, 1.94867, 0, 0
24, 0.00000, -0.429054, 1.94873, -0.428941, 1.94939, -0.428922, 1.94909, 0, 0
25, 0.00000, -1.66254, 2.24058, -1.66262, 2.24131, -1.66249, 2.24104, 0, 0
26, 0.00000, -1.66246, 2.24139, -1.66249, 2.24207, -1.66238, 2.2418, 0, 0
27, 0.00000, -1.66228, 2.24298, -1.66224, 2.24353, -1.66216, 2.24328, 0, 0
28, 0.00000, -1.66219, 2.24382, -1.66211, 2.24431, -1.66205, 2.24406, 0, 0
29, 0.00000, -1.66204, 2.2452, -1.66189, 2.24558, -1.66186, 2.24534, 0, 0
30, 0.00000, -1.66197, 2.2458, -1.6618, 2.24613, -1.66178, 2.2459, 0, 0
31, 0.00000, -1.66196, 2.24589, -1.66178, 2.24622, -1.66177, 2.24599, 0, 0
32, 0.00000, -1.66193, 2.24616, -1.66174, 2.24647, -1.66173, 2.24624, 0, 0
33, 0.00000, -1.66195, 2.24598, -1.66177, 2.2463, -1.66176, 2.24607, 0, 0
34, 0.00000, -1.6619, 2.24646, -1.66169, 2.24674, -1.66169, 2.24652, 0, 0
35, 0.00000, -1.662, 2.24548, -1.66184, 2.24584, -1.66182, 2.24561, 0, 0
36, 0.00000, -1.66198, 2.24574, -1.6618, 2.24607, -1.66179, 2.24584, 0, 0
37, 0.00000, -1.66188, 2.24664, -1.66166, 2.24691, -1.66167, 2.24669, 0, 0
38, 0.00000, -1.66188, 2.24664, -1.66166, 2.24691, -1.66167, 2.24669, 0, 0
39, 0.00000, -1.66188, 2.24664, -1.66166, 2.24691, -1.66167, 2.24669, 0, 0
40, 0.00000, -1.66188, 2.24664, -1.66166, 2.24691, -1.66167, 2.24669, 0, 0
41, 0.00000, -1.66188, 2.24664, -1.66166, 2.24691, -1.66167, 2.24669, 0, 0
42, 0.00000, -1.66188, 2.24664, -1.66166, 2.24691, -1.66167, 2.24669, 0, 0
43, 0.00000, -1.66188, 2.24664, -1.66166, 2.24691, -1.66167, 2.24669, 0, 0
44, 0.00000, -1.66188, 2.24664, -1.66166, 2.24691, -1.66167, 2.24669, 0, 0
45, 0.00000, -1.66188, 2.24664, -1.66166, 2.24691, -1.66167, 2.24669, 0, 0
46, 0.00000, -1.66188, 2.24664, -1.66166, 2.24691, -1.66167, 2.24669, 0, 0
47, 0.00000, -1.66188, 2.24664, -1.66166, 2.24691, -1.66167, 2.24669, 0, 0
48, 0.00000, -1.66188, 2.24664, -1.66166, 2.24691, -1.66167, 2.24669, 0, 0
49, 0.00000, -1.35066, 2.38704, -1.35043, 2.38732, -1.35045, 2.38709, 0, 0
50, 0.00000, -1.35066, 2.38704, -1.35043, 2.38732, -1.35045, 2.38709, 0, 0
51, 0.00000, -1.35066, 2.38704, -1.35043, 2.38732, -1.35045, 2.38709, 0, 0
52, 0.00000, -1.35066, 2.38704, -1.35043, 2.38732, -1.35045, 2.38709, 0, 0
53, 0.00000, -1.35066, 2.38704, -1.35043, 2.38732, -1.35045, 2.38709, 0, 0
54, 0.00000, -1.35066, 2.38704, -1.35043, 2.38732, -1.35045, 2.38709, 0, 0
55, 0.00000, -1.35066, 2.38704, -1.35043, 2.38732, -1.35045, 2.38709, 0, 0
56, 0.00000, -1.35066, 2.38704, -1.35043, 2.38732, -1.35045, 2.38709, 0, 0
57, 0.00000, -1.35066, 2.38704, -1.35043, 2.38732, -1.35045, 2.38709, 0, 0
58, 0.00000, -1.35066, 2.38704, -1.35043, 2.38732, -1.35045, 2.38709, 0, 0
59, 0.00000, -1.35066, 2.38704, -1.35043, 2.38732, -1.35045, 2.38709, 0, 0
60, 0.00000, -1.35066, 2.38704, -1.35043, 2.38732, -1.35045, 2.38709, 0, 0
61, 0.00000, -1.35066, 2.38704, -1.35043, 2.38732, -1.35045, 2.38709, 0, 0
62, 0.00000, -1.35067, 2.38698, -1.35044, 2.38726, -1.35046, 2.38703, 0, 0
63, 0.00000, -1.35068, 2.38686, -1.35046, 2.38715, -1.35047, 2.38692, 0, 0
64, 0.00000, -1.3507, 2.38674, -1.35048, 2.38704, -1.35049, 2.3868, 0, 0
65, 0.00000, -1.35071, 2.38661, -1.3505, 2.38692, -1.35051, 2.38668, 0, 0
66, 0.00000, -1.35073, 2.38642, -1.35053, 2.38675, -1.35053, 2.38651, 0, 0
67, 0.00000, -1.35077, 2.38614, -1.35057, 2.38649, -1.35057, 2.38624, 0, 0
68, 0.00000, -1.35099, 2.38422, -1.35087, 2.38472, -1.35083, 2.38445, 0, 0
69, 0.00000, -1.35122, 2.38224, -1.35118, 2.3829, -1.35109, 2.38261, 0, 0
70, 0.00000, 2.17621, 2.3797, 2.17707, 2.3802, 2.17678, 2.37973, 0, 0
71, 0.00000, 3.8499, 2.39228, 3.85123, 2.39258, 3.85073, 2.39204, 0, 0
72, 0.00000, 3.85002, 2.39234, 3.85135, 2.39265, 3.85085, 2.3921, 0, 0
73, 0.00000, 5.31572, 3.07324, 5.318, 3.07364, 5.31718, 3.07277, 0, 0
74, 0.00000, 5.31577, 3.07327, 5.31806, 3.07367, 5.31723, 3.0728, 0, 0
75, 0.00000, 5.31577, 3.07327, 5.31806, 3.07367, 5.31723, 3.0728, 0, 0
76, 0.00000, 5.31577, 3.07327, 5.31806, 3.07367, 5.31723, 3.0728, 0, 0
77, 0.00000, 5.31577, 3.07327, 5.31806, 3.07367, 5.31723, 3.0728, 0, 0
78, 0.00000, 5.31577, 3.07327, 5.31806, 3.07367, 5.31723, 3.0728, 0, 0
79, 0.00000, 5.31577, 3.07327, 5.31806, 3.07367, 5.31723, 3.0728, 0, 0
80, 0.00000, 5.31577, 3.07327, 5.31806, 3.07367, 5.31723, 3.0728, 0, 0
81, 0.00000, 5.31577, 3.07327, 5.31806, 3.07367, 5.31723, 3.0728, 0, 0
82, 0.00000, 5.31577, 3.07327, 5.31806, 3.07367, 5.31723, 3.0728, 0, 0
83, 0.00000, 5.31577, 3.07327, 5.31806, 3.07367, 5.31723, 3.0728, 0, 0
84, 0.00000, 5.31577, 3.07327, 5.31806, 3.07367, 5.31723, 3.0728, 0, 0
85, 0.00000, 5.31577, 3.07327, 5.31806, 3.07367, 5.31723, 3.0728, 0, 0
86, 0.00000, 5.31577, 3.07327, 5.31806, 3.07367, 5.31723, 3.0728, 0, 0
87, 0.00000, 5.31577, 3.07327, 5.31806, 3.07367, 5.31723, 3.0728, 0, 0
88, 0.00000, 5.31577, 3.07327, 5.31806, 3.07367, 5.31723, 3.0728, 0, 0
89, 0.00000, 5.31577, 3.07327, 5.31806, 3.07367, 5.31723, 3.0728, 0, 0
90, 0.00000, 5.31577, 3.07327, 5.31806, 3.07367, 5.31723, 3.0728, 0, 0
91, 0.00000, 5.31577, 3.07327, 5.31806, 3.07367, 5.31723, 3.0728, 0, 0
92, 0.00000, 5.31577, 3.07327, 5.31806, 3.07367, 5.31723, 3.0728, 0, 0
93, 0.00000, 5.31577, 3.07327, 5.31806, 3.07367, 5.31723, 3.0728, 0, 0
94, 0.00000, 5.31577, 3.07327, 5.31806, 3.07367, 5.31723, 3.0728, 0, 0
95, 0.00000, 5.31577, 3.07327, 5.31806, 3.07367, 5.31723, 3.0728, 0, 0
96, 0.00000, 5.31577, 3.07327, 5.31806, 3.07367, 5.31723, 3.0728, 0, 0
