hour, t(sec), P1 (kW), Q1 (kvar), P2 (kW), Q2 (kvar), P3 (kW), Q3 (kvar), P4 (kW), Q4 (kvar)
1, 0.00000, 0.709026, 0.92292, 0.709518, 0.923441, 0.709245, 0.923047, 0, 0
2, 0.00000, 0.70903, 0.922921, 0.709522, 0.923442, 0.709249, 0.923048, 0, 0
3, 0.00000, 0.70903, 0.922921, 0.709522, 0.923442, 0.709249, 0.923049, 0, 0
4, 0.00000, 0.70903, 0.922921, 0.709522, 0.923442, 0.709249, 0.923049, 0, 0
5, 0.00000, 0.70903, 0.922921, 0.709522, 0.923442, 0.709249, 0.923049, 0, 0
6, 0.00000, 0.70903, 0.922921, 0.709522, 0.923442, 0.709249, 0.923049, 0, 0
7, 0.00000, 0.70903, 0.922921, 0.709522, 0.923442, 0.709249, 0.923049, 0, 0
8, 0.00000, 0.70903, 0.922921, 0.709522, 0.923442, 0.709249, 0.923049, 0, 0
9, 0.00000, 0.70903, 0.922921, 0.709522, 0.923442, 0.709249, 0.923049, 0, 0
10, 0.00000, 0.70903, 0.922921, 0.709522, 0.923442, 0.709249, 0.923049, 0, 0
11, 0.00000, 0.70903, 0.922921, 0.709522, 0.923442, 0.709249, 0.923049, 0, 0
12, 0.00000, 0.70903, 0.922921, 0.709522, 0.923442, 0.709249, 0.923049, 0, 0
13, 0.00000, 0.70903, 0.922921, 0.709522, 0.923442, 0.709249, 0.923049, 0, 0
14, 0.00000, 0.70903, 0.922921, 0.709522, 0.923442, 0.709249, 0.923049, 0, 0
15, 0.00000, 0.70903, 0.922921, 0.709522, 0.923442, 0.709249, 0.923049, 0, 0
16, 0.00000, 0.70903, 0.922921, 0.709522, 0.923442, 0.709249, 0.923049, 0, 0
17, 0.00000, 0.70903, 0.922921, 0.709522, 0.923442, 0.709249, 0.923049, 0, 0
18, 0.00000, 0.70903, 0.922921, 0.709522, 0.923442, 0.709249, 0.923049, 0, 0
19, 0.00000, 0.70903, 0.922921, 0.709522, 0.923442, 0.709249, 0.923049, 0, 0
20, 0.00000, 0.70903, 0.922921, 0.709522, 0.923442, 0.709249, 0.923049, 0, 0
21, 0.00000, 0.70903, 0.922921, 0.709522, 0.923442, 0.709249, 0.923049, 0, 0
22, 0.00000, 0.70903, 0.922921, 0.709522, 0.923442, 0.709249, 0.923049, 0, 0
23, 0.00000, 0.709035, 0.922946, 0.709526, 0.923466, 0.709253, 0.923073, 0, 0
24, 0.00000, 0.709088, 0.923289, 0.709569, 0.923791, 0.709302, 0.923406, 0, 0
25, 0.00000, 1.52216, 1.27273, 1.52298, 1.27312, 1.5226, 1.27266, 0, 0
26, 0.00000, 1.52231, 1.27364, 1.52308, 1.27396, 1.52272, 1.27354, 0, 0
27, 0.00000, 1.52274, 1.27609, 1.52336, 1.27625, 1.52304, 1.27591, 0, 0
28, 0.00000, 1.52296, 1.27736, 1.5235, 1.27743, 1.52321, 1.27715, 0, 0
29, 0.00000, 1.5232, 1.27878, 1.52365, 1.27875, 1.52339, 1.27852, 0, 0
30, 0.00000, 1.52332, 1.27943, 1.52373, 1.27936, 1.52348, 1.27915, 0, 0
31, 0.00000, 1.52334, 1.27953, 1.52374, 1.27945, 1.52349, 1.27925, 0, 0
32, 0.00000, 1.52334, 1.27958, 1.52375, 1.2795, 1.5235, 1.2793, 0, 0
33, 0.00000, 1.52334, 1.27956, 1.52375, 1.27948, 1.5235, 1.27928, 0, 0
34, 0.00000, 1.52335, 1.27961, 1.52375, 1.27953, 1.5235, 1.27933, 0, 0
35, 0.00000, 1.52326, 1.27907, 1.52369, 1.27903, 1.52343, 1.27881, 0, 0
36, 0.00000, 1.52331, 1.27938, 1.52372, 1.27931, 1.52347, 1.2791, 0, 0
37, 0.00000, 1.52335, 1.27963, 1.52375, 1.27954, 1.52351, 1.27934, 0, 0
38, 0.00000, 1.52335, 1.27963, 1.52375, 1.27954, 1.52351, 1.27934, 0, 0
39, 0.00000, 1.52335, 1.27963, 1.52375, 1.27954, 1.52351, 1.27934, 0, 0
40, 0.00000, 1.52335, 1.27963, 1.52375, 1.27954, 1.52351, 1.27934, 0, 0
41, 0.00000, 1.52335, 1.27963, 1.52375, 1.27954, 1.52351, 1.27934, 0, 0
42, 0.00000, 1.52335, 1.27963, 1.52375, 1.27954, 1.52351, 1.27934, 0, 0
43, 0.00000, 1.52335, 1.27963, 1.52375, 1.27954, 1.52351, 1.27934, 0, 0
44, 0.00000, 1.52335, 1.27963, 1.52375, 1.27954, 1.52351, 1.27934, 0, 0
45, 0.00000, 1.52335, 1.27963, 1.52375, 1.27954, 1.52351, 1.27934, 0, 0
46, 0.00000, 1.52335, 1.27963, 1.52375, 1.27954, 1.52351, 1.27934, 0, 0
47, 0.00000, 1.52335, 1.27963, 1.52375, 1.27954, 1.52351, 1.27934, 0, 0
48, 0.00000, 1.52335, 1.27963, 1.52375, 1.27954, 1.52351, 1.27934, 0, 0
49, 0.00000, 1.48036, 1.26024, 1.4808, 1.26019, 1.48054, 1.25996, 0, 0
50, 0.00000, 1.48036, 1.26024, 1.48081, 1.26019, 1.48054, 1.25996, 0, 0
51, 0.00000, 1.48036, 1.26024, 1.48081, 1.26019, 1.48054, 1.25996, 0, 0
52, 0.00000, 1.48036, 1.26024, 1.48081, 1.26019, 1.48054, 1.25996, 0, 0
53, 0.00000, 1.48036, 1.26024, 1.48081, 1.26019, 1.48054, 1.25996, 0, 0
54, 0.00000, 1.48036, 1.26024, 1.48081, 1.26019, 1.48054, 1.25996, 0, 0
55, 0.00000, 1.48036, 1.26024, 1.48081, 1.26019, 1.48054, 1.25996, 0, 0
56, 0.00000, 1.48036, 1.26024, 1.48081, 1.26019, 1.48054, 1.25996, 0, 0
57, 0.00000, 1.48036, 1.26024, 1.48081, 1.26019, 1.48054, 1.25996, 0, 0
58, 0.00000, 1.48036, 1.26024, 1.48081, 1.26019, 1.48054, 1.25996, 0, 0
59, 0.00000, 1.48036, 1.26024, 1.48081, 1.26019, 1.48054, 1.25996, 0, 0
60, 0.00000, 1.48036, 1.26024, 1.48081, 1.26019, 1.48054, 1.25996, 0, 0
61, 0.00000, 1.48036, 1.26024, 1.48081, 1.26019, 1.48054, 1.25996, 0, 0
62, 0.00000, 1.48036, 1.26023, 1.48081, 1.26019, 1.48054, 1.25996, 0, 0
63, 0.00000, 1.48036, 1.26022, 1.4808, 1.26018, 1.48054, 1.25995, 0, 0
64, 0.00000, 1.48036, 1.26021, 1.4808, 1.26017, 1.48054, 1.25994, 0, 0
65, 0.00000, 1.48036, 1.2602, 1.4808, 1.26015, 1.48054, 1.25992, 0, 0
66, 0.00000, 1.48035, 1.26018, 1.4808, 1.26014, 1.48054, 1.25991, 0, 0
67, 0.00000, 1.48032, 1.25999, 1.48078, 1.25996, 1.48051, 1.25972, 0, 0
68, 0.00000, 1.47997, 1.25796, 1.48055, 1.25807, 1.48024, 1.25775, 0, 0
69, 0.00000, 1.47945, 1.25498, 1.48021, 1.25529, 1.47984, 1.25487, 0, 0
70, 0.00000, 1.47879, 1.25123, 1.47977, 1.25178, 1.47933, 1.25123, 0, 0
71, 0.00000, 1.4788, 1.25122, 1.47979, 1.25177, 1.47934, 1.25121, 0, 0
72, 0.00000, 1.47881, 1.25122, 1.47979, 1.25177, 1.47934, 1.25122, 0, 0
73, 0.00000, 1.26394, 1.15436, 1.26502, 1.15506, 1.26451, 1.15441, 0, 0
74, 0.00000, 1.26397, 1.15438, 1.26505, 1.15508, 1.26455, 1.15442, 0, 0
75, 0.00000, 1.26397, 1.15438, 1.26505, 1.15508, 1.26455, 1.15442, 0, 0
76, 0.00000, 1.26397, 1.15438, 1.26505, 1.15508, 1.26455, 1.15442, 0, 0
77, 0.00000, 1.26397, 1.15438, 1.26505, 1.15508, 1.26455, 1.15442, 0, 0
78, 0.00000, 1.26397, 1.15438, 1.26505, 1.15508, 1.26455, 1.15442, 0, 0
79, 0.00000, 1.26397, 1.15438, 1.26505, 1.15508, 1.26455, 1.15442, 0, 0
80, 0.00000, 1.26397, 1.15438, 1.26505, 1.15508, 1.26455, 1.15442, 0, 0
81, 0.00000, 1.26397, 1.15438, 1.26505, 1.15508, 1.26455, 1.15442, 0, 0
82, 0.00000, 1.26397, 1.15438, 1.26505, 1.15508, 1.26455, 1.15442, 0, 0
83, 0.00000, 1.26397, 1.15438, 1.26505, 1.15508, 1.26455, 1.15442, 0, 0
84, 0.00000, 1.26397, 1.15438, 1.26505, 1.15508, 1.26455, 1.15442, 0, 0
85, 0.00000, 1.26397, 1.15438, 1.26505, 1.15508, 1.26455, 1.15442, 0, 0
86, 0.00000, 1.26397, 1.15438, 1.26505, 1.15508, 1.26455, 1.15442, 0, 0
87, 0.00000, 1.26397, 1.15438, 1.26505, 1.15508, 1.26455, 1.15442, 0, 0
88, 0.00000, 1.26397, 1.15438, 1.26505, 1.15508, 1.26455, 1.15442, 0, 0
89, 0.00000, 1.26397, 1.15438, 1.26505, 1.15508, 1.26455, 1.15442, 0, 0
90, 0.00000, 1.26397, 1.15438, 1.26505, 1.15508, 1.26455, 1.15442, 0, 0
91, 0.00000, 1.26397, 1.15438, 1.26505, 1.15508, 1.26455, 1.15442, 0, 0
92, 0.00000, 1.26397, 1.15438, 1.26505, 1.15508, 1.26455, 1.15442, 0, 0
93, 0.00000, 1.26397, 1.15438, 1.26505, 1.15508, 1.26455, 1.15442, 0, 0
94, 0.00000, 1.26397, 1.15438, 1.26505, 1.15508, 1.26455, 1.15442, 0, 0
95, 0.00000, 1.26397, 1.15438, 1.26505, 1.15508, 1.26455, 1.15442, 0, 0
96, 0.00000, 1.26397, 1.15438, 1.26505, 1.15508, 1.26455, 1.15442, 0, 0
