hour, t(sec), P1 (kW), Q1 (kvar), P2 (kW), Q2 (kvar), P3 (kW), Q3 (kvar), P4 (kW), Q4 (kvar)
1, 0.00000, 16.2158, 8.34292, 16.2176, 8.34302, 16.217, 8.34242, 0, 0
2, 0.00000, 16.2159, 8.34298, 16.2177, 8.34308, 16.2171, 8.34248, 0, 0
3, 0.00000, 16.2159, 8.34298, 16.2177, 8.34308, 16.2171, 8.34248, 0, 0
4, 0.00000, 16.2159, 8.34298, 16.2177, 8.34308, 16.2171, 8.34248, 0, 0
5, 0.00000, 16.2159, 8.34298, 16.2177, 8.34308, 16.2171, 8.34248, 0, 0
6, 0.00000, 16.2159, 8.34298, 16.2177, 8.34308, 16.2171, 8.34248, 0, 0
7, 0.00000, 16.2159, 8.34298, 16.2177, 8.34308, 16.2171, 8.34248, 0, 0
8, 0.00000, 16.2159, 8.34298, 16.2177, 8.34308, 16.2171, 8.34248, 0, 0
9, 0.00000, 16.2159, 8.34298, 16.2177, 8.34308, 16.2171, 8.34248, 0, 0
10, 0.00000, 16.2159, 8.34298, 16.2177, 8.34308, 16.2171, 8.34248, 0, 0
11, 0.00000, 16.2159, 8.34298, 16.2177, 8.34308, 16.2171, 8.34248, 0, 0
12, 0.00000, 16.2159, 8.34298, 16.2177, 8.34308, 16.2171, 8.34248, 0, 0
13, 0.00000, 16.2159, 8.34298, 16.2177, 8.34308, 16.2171, 8.34248, 0, 0
14, 0.00000, 16.2159, 8.34298, 16.2177, 8.34308, 16.2171, 8.34248, 0, 0
15, 0.00000, 16.2159, 8.34298, 16.2177, 8.34308, 16.2171, 8.34248, 0, 0
16, 0.00000, 16.2159, 8.34298, 16.2177, 8.34308, 16.2171, 8.34248, 0, 0
17, 0.00000, 16.2159, 8.34298, 16.2177, 8.34308, 16.2171, 8.34248, 0, 0
18, 0.00000, 16.2159, 8.34298, 16.2177, 8.34308, 16.2171, 8.34248, 0, 0
19, 0.00000, 16.2159, 8.34298, 16.2177, 8.34308, 16.2171, 8.34248, 0, 0
20, 0.00000, 16.2159, 8.34298, 16.2177, 8.34308, 16.2171, 8.34248, 0, 0
21, 0.00000, 16.2159, 8.34298, 16.2177, 8.34308, 16.2171, 8.34248, 0, 0
22, 0.00000, 16.2159, 8.34298, 16.2177, 8.34308, 16.2171, 8.34248, 0, 0
23, 0.00000, 16.2159, 8.34301, 16.2178, 8.3431, 16.2172, 8.34251, 0, 0
24, 0.00000, 16.2159, 8.34305, 16.2177, 8.34311, 16.2171, 8.34254, 0, 0
25, 0.00000, 8.51968, 7.66898, 8.52061, 7.6692, 8.52034, 7.66883, 0, 0
26, 0.00000, 6.83367, 7.63395, 6.83442, 7.63419, 6.83421, 7.63386, 0, 0
27, 0.00000, 0.132876, 7.57463, 0.133195, 7.57499, 0.133172, 7.57475, 0, 0
28, 0.00000, -4.84845, 7.61332, -4.8483, 7.61382, -4.84822, 7.61359, 0, 0
29, 0.00000, -6.88007, 7.64968, -6.8799, 7.65017, -6.87982, 7.64994, 0, 0
30, 0.00000, -6.88005, 7.64993, -6.87984, 7.65038, -6.87978, 7.65014, 0, 0
31, 0.00000, -6.88004, 7.64997, -6.87983, 7.65041, -6.87978, 7.65018, 0, 0
32, 0.00000, -6.88005, 7.64999, -6.87982, 7.65042, -6.87978, 7.65019, 0, 0
33, 0.00000, -6.88004, 7.64999, -6.87982, 7.65043, -6.87977, 7.6502, 0, 0
34, 0.00000, -6.88005, 7.65003, -6.87982, 7.65046, -6.87977, 7.65023, 0, 0
35, 0.00000, -6.88003, 7.64987, -6.87984, 7.65034, -6.87977, 7.65011, 0, 0
36, 0.00000, -6.88004, 7.64993, -6.87984, 7.65038, -6.87978, 7.65014, 0, 0
37, 0.00000, -6.88005, 7.65004, -6.87981, 7.65047, -6.87977, 7.65023, 0, 0
38, 0.00000, -6.88005, 7.65005, -6.87981, 7.65047, -6.87977, 7.65024, 0, 0
39, 0.00000, -6.88005, 7.65005, -6.87981, 7.65047, -6.87977, 7.65024, 0, 0
40, 0.00000, -6.88005, 7.65005, -6.87981, 7.65047, -6.87977, 7.65024, 0, 0
41, 0.00000, -6.88005, 7.65005, -6.87981, 7.65047, -6.87977, 7.65024, 0, 0
42, 0.00000, -6.88005, 7.65005, -6.87981, 7.65047, -6.87977, 7.65024, 0, 0
43, 0.00000, -6.88005, 7.65005, -6.87981, 7.65047, -6.87977, 7.65024, 0, 0
44, 0.00000, -6.88005, 7.65005, -6.87981, 7.65047, -6.87977, 7.65024, 0, 0
45, 0.00000, -6.88005, 7.65005, -6.87981, 7.65047, -6.87977, 7.65024, 0, 0
46, 0.00000, -6.88005, 7.65005, -6.87981, 7.65047, -6.87977, 7.65024, 0, 0
47, 0.00000, -6.88005, 7.65005, -6.87981, 7.65047, -6.87977, 7.65024, 0, 0
48, 0.00000, -6.88005, 7.65005, -6.87981, 7.65047, -6.87977, 7.65024, 0, 0
49, 0.00000, -5.78241, 8.14157, -5.78215, 8.142, -5.78212, 8.14176, 0, 0
50, 0.00000, -5.78241, 8.14155, -5.78215, 8.14198, -5.78212, 8.14174, 0, 0
51, 0.00000, -5.78241, 8.14155, -5.78215, 8.14198, -5.78212, 8.14174, 0, 0
52, 0.00000, -5.78241, 8.14155, -5.78215, 8.14198, -5.78212, 8.14174, 0, 0
53, 0.00000, -5.78241, 8.14155, -5.78215, 8.14198, -5.78212, 8.14174, 0, 0
54, 0.00000, -5.78241, 8.14155, -5.78215, 8.14198, -5.78212, 8.14174, 0, 0
55, 0.00000, -5.78241, 8.14155, -5.78215, 8.14198, -5.78212, 8.14174, 0, 0
56, 0.00000, -5.78241, 8.14155, -5.78215, 8.14198, -5.78212, 8.14174, 0, 0
57, 0.00000, -5.78241, 8.14155, -5.78215, 8.14198, -5.78212, 8.14174, 0, 0
58, 0.00000, -5.78241, 8.14155, -5.78215, 8.14198, -5.78212, 8.14174, 0, 0
59, 0.00000, -5.78241, 8.14155, -5.78215, 8.14198, -5.78212, 8.14174, 0, 0
60, 0.00000, -5.78241, 8.14155, -5.78215, 8.14198, -5.78212, 8.14174, 0, 0
61, 0.00000, -5.78241, 8.14155, -5.78215, 8.14198, -5.78212, 8.14174, 0, 0
62, 0.00000, -5.78241, 8.14155, -5.78215, 8.14198, -5.78212, 8.14174, 0, 0
63, 0.00000, -5.78241, 8.14154, -5.78215, 8.14197, -5.78212, 8.14173, 0, 0
64, 0.00000, -5.78241, 8.14153, -5.78216, 8.14197, -5.78212, 8.14172, 0, 0
65, 0.00000, -5.78241, 8.14151, -5.78216, 8.14196, -5.78212, 8.14171, 0, 0
66, 0.00000, -5.7824, 8.1415, -5.78216, 8.14195, -5.78212, 8.1417, 0, 0
67, 0.00000, -5.7824, 8.14144, -5.78217, 8.14191, -5.78212, 8.14166, 0, 0
68, 0.00000, -3.7474, 8.11128, -3.7472, 8.1118, -3.74713, 8.11154, 0, 0
69, 0.00000, 6.2698, 8.13657, 6.27055, 8.13684, 6.27035, 8.13651, 0, 0
70, 0.00000, 16.4426, 8.45562, 16.4445, 8.45573, 16.4439, 8.45509, 0, 0
71, 0.00000, 16.4432, 8.45596, 16.4452, 8.45607, 16.4445, 8.45543, 0, 0
72, 0.00000, 16.4433, 8.45598, 16.4452, 8.45609, 16.4446, 8.45545, 0, 0
73, 0.00000, 22.6195, 11.5816, 22.6229, 11.5817, 22.6218, 11.5806, 0, 0
74, 0.00000, 22.621, 11.5826, 22.6244, 11.5827, 22.6233, 11.5816, 0, 0
75, 0.00000, 22.621, 11.5826, 22.6244, 11.5827, 22.6233, 11.5816, 0, 0
76, 0.00000, 22.621, 11.5826, 22.6244, 11.5827, 22.6233, 11.5816, 0, 0
77, 0.00000, 22.621, 11.5826, 22.6244, 11.5827, 22.6233, 11.5816, 0, 0
78, 0.00000, 22.621, 11.5826, 22.6244, 11.5827, 22.6233, 11.5816, 0, 0
79, 0.00000, 22.621, 11.5826, 22.6244, 11.5827, 22.6233, 11.5816, 0, 0
80, 0.00000, 22.621, 11.5826, 22.6244, 11.5827, 22.6233, 11.5816, 0, 0
81, 0.00000, 22.621, 11.5826, 22.6244, 11.5827, 22.6233, 11.5816, 0, 0
82, 0.00000, 22.621, 11.5826, 22.6244, 11.5827, 22.6233, 11.5816, 0, 0
83, 0.00000, 22.621, 11.5826, 22.6244, 11.5827, 22.6233, 11.5816, 0, 0
84, 0.00000, 22.621, 11.5826, 22.6244, 11.5827, 22.6233, 11.5816, 0, 0
85, 0.00000, 22.621, 11.5826, 22.6244, 11.5827, 22.6233, 11.5816, 0, 0
86, 0.00000, 22.621, 11.5826, 22.6244, 11.5827, 22.6233, 11.5816, 0, 0
87, 0.00000, 22.621, 11.5826, 22.6244, 11.5827, 22.6233, 11.5816, 0, 0
88, 0.00000, 22.621, 11.5826, 22.6244, 11.5827, 22.6233, 11.5816, 0, 0
89, 0.00000, 22.621, 11.5826, 22.6244, 11.5827, 22.6233, 11.5816, 0, 0
90, 0.00000, 22.621, 11.5826, 22.6244, 11.5827, 22.6233, 11.5816, 0, 0
91, 0.00000, 22.621, 11.5826, 22.6244, 11.5827, 22.6233, 11.5816, 0, 0
92, 0.00000, 22.621, 11.5826, 22.6244, 11.5827, 22.6233, 11.5816, 0, 0
93, 0.00000, 22.621, 11.5826, 22.6244, 11.5827, 22.6233, 11.5816, 0, 0
94, 0.00000, 22.621, 11.5826, 22.6244, 11.5827, 22.6233, 11.5816, 0, 0
95, 0.00000, 22.621, 11.5826, 22.6244, 11.5827, 22.6233, 11.5816, 0, 0
96, 0.00000, 22.621, 11.5826, 22.6244, 11.5827, 22.6233, 11.5816, 0, 0
