hour, t(sec), P1 (kW), Q1 (kvar), P2 (kW), Q2 (kvar), P3 (kW), Q3 (kvar), P4 (kW), Q4 (kvar)
1, 0.00000, 0.169078, 0.558818, 0.16929, 0.55928, 0.169103, 0.559032, 0, 0
2, 0.00000, 0.169078, 0.558818, 0.16929, 0.559279, 0.169103, 0.559032, 0, 0
3, 0.00000, 0.169078, 0.558818, 0.16929, 0.559279, 0.169103, 0.559032, 0, 0
4, 0.00000, 0.169078, 0.558818, 0.16929, 0.559279, 0.169103, 0.559032, 0, 0
5, 0.00000, 0.169078, 0.558818, 0.16929, 0.559279, 0.169103, 0.559032, 0, 0
6, 0.00000, 0.169078, 0.558818, 0.16929, 0.559279, 0.169103, 0.559032, 0, 0
7, 0.00000, 0.169078, 0.558818, 0.16929, 0.559279, 0.169103, 0.559032, 0, 0
8, 0.00000, 0.169078, 0.558818, 0.16929, 0.559279, 0.169103, 0.559032, 0, 0
9, 0.00000, 0.169078, 0.558818, 0.16929, 0.559279, 0.169103, 0.559032, 0, 0
10, 0.00000, 0.169078, 0.558818, 0.16929, 0.559279, 0.169103, 0.559032, 0, 0
11, 0.00000, 0.169078, 0.558818, 0.16929, 0.559279, 0.169103, 0.559032, 0, 0
12, 0.00000, 0.169078, 0.558818, 0.16929, 0.559279, 0.169103, 0.559032, 0, 0
13, 0.00000, 0.169078, 0.558818, 0.16929, 0.559279, 0.169103, 0.559032, 0, 0
14, 0.00000, 0.169078, 0.558818, 0.16929, 0.559279, 0.169103, 0.559032, 0, 0
15, 0.00000, 0.169078, 0.558818, 0.16929, 0.559279, 0.169103, 0.559032, 0, 0
16, 0.00000, 0.169078, 0.558818, 0.16929, 0.559279, 0.169103, 0.559032, 0, 0
17, 0.00000, 0.169078, 0.558818, 0.16929, 0.559279, 0.169103, 0.559032, 0, 0
18, 0.00000, 0.169078, 0.558818, 0.16929, 0.559279, 0.169103, 0.559032, 0, 0
19, 0.00000, 0.169078, 0.558818, 0.16929, 0.559279, 0.169103, 0.559032, 0, 0
20, 0.00000, 0.169078, 0.558818, 0.16929, 0.559279, 0.169103, 0.559032, 0, 0
21, 0.00000, 0.169078, 0.558818, 0.16929, 0.559279, 0.169103, 0.559032, 0, 0
22, 0.00000, 0.169078, 0.558818, 0.16929, 0.559279, 0.169103, 0.559032, 0, 0
23, 0.00000, 0.169084, 0.558839, 0.169296, 0.559299, 0.16911, 0.559052, 0, 0
24, 0.00000, 0.169168, 0.559118, 0.169376, 0.559567, 0.169193, 0.559323, 0, 0
25, 0.00000, 0.169589, 0.560515, 0.169777, 0.560908, 0.16961, 0.560678, 0, 0
26, 0.00000, 0.169821, 0.561286, 0.169998, 0.561647, 0.16984, 0.561426, 0, 0
27, 0.00000, 0.170475, 0.56346, 0.170621, 0.563731, 0.17049, 0.563534, 0, 0
28, 0.00000, 0.170818, 0.564598, 0.170947, 0.564823, 0.17083, 0.564638, 0, 0
29, 0.00000, 0.171199, 0.565863, 0.171309, 0.566035, 0.171207, 0.565864, 0, 0
30, 0.00000, 0.171383, 0.566476, 0.171484, 0.566623, 0.17139, 0.566458, 0, 0
31, 0.00000, 0.171414, 0.56658, 0.171514, 0.566722, 0.171421, 0.566558, 0, 0
32, 0.00000, 0.17143, 0.566632, 0.171529, 0.566773, 0.171437, 0.566609, 0, 0
33, 0.00000, 0.171425, 0.566615, 0.171524, 0.566756, 0.171432, 0.566593, 0, 0
34, 0.00000, 0.171437, 0.566656, 0.171536, 0.566796, 0.171444, 0.566633, 0, 0
35, 0.00000, 0.171284, 0.566147, 0.17139, 0.566308, 0.171292, 0.566139, 0, 0
36, 0.00000, 0.171369, 0.566431, 0.171471, 0.566579, 0.171377, 0.566414, 0, 0
37, 0.00000, 0.171441, 0.56667, 0.17154, 0.566809, 0.171448, 0.566646, 0, 0
38, 0.00000, 0.171441, 0.56667, 0.17154, 0.566809, 0.171448, 0.566646, 0, 0
39, 0.00000, 0.171441, 0.56667, 0.17154, 0.566809, 0.171448, 0.566646, 0, 0
40, 0.00000, 0.171441, 0.56667, 0.17154, 0.566809, 0.171448, 0.566646, 0, 0
41, 0.00000, 0.171441, 0.56667, 0.17154, 0.566809, 0.171448, 0.566646, 0, 0
42, 0.00000, 0.171441, 0.56667, 0.17154, 0.566809, 0.171448, 0.566646, 0, 0
43, 0.00000, 0.171441, 0.56667, 0.17154, 0.566809, 0.171448, 0.566646, 0, 0
44, 0.00000, 0.171441, 0.56667, 0.17154, 0.566809, 0.171448, 0.566646, 0, 0
45, 0.00000, 0.171441, 0.56667, 0.17154, 0.566809, 0.171448, 0.566646, 0, 0
46, 0.00000, 0.171441, 0.56667, 0.17154, 0.566809, 0.171448, 0.566646, 0, 0
47, 0.00000, 0.171441, 0.56667, 0.17154, 0.566809, 0.171448, 0.566646, 0, 0
48, 0.00000, 0.171441, 0.56667, 0.17154, 0.566809, 0.171448, 0.566646, 0, 0
49, 0.00000, 0.171157, 0.565732, 0.171268, 0.565898, 0.171166, 0.565722, 0, 0
50, 0.00000, 0.171157, 0.565732, 0.171268, 0.565898, 0.171166, 0.565721, 0, 0
51, 0.00000, 0.171157, 0.565732, 0.171268, 0.565898, 0.171166, 0.565721, 0, 0
52, 0.00000, 0.171157, 0.565732, 0.171268, 0.565898, 0.171166, 0.565721, 0, 0
53, 0.00000, 0.171157, 0.565732, 0.171268, 0.565898, 0.171166, 0.565721, 0, 0
54, 0.00000, 0.171157, 0.565732, 0.171268, 0.565898, 0.171166, 0.565721, 0, 0
55, 0.00000, 0.171157, 0.565732, 0.171268, 0.565898, 0.171166, 0.565721, 0, 0
56, 0.00000, 0.171157, 0.565732, 0.171268, 0.565898, 0.171166, 0.565721, 0, 0
57, 0.00000, 0.171157, 0.565732, 0.171268, 0.565898, 0.171166, 0.565721, 0, 0
58, 0.00000, 0.171157, 0.565732, 0.171268, 0.565898, 0.171166, 0.565721, 0, 0
59, 0.00000, 0.171157, 0.565732, 0.171268, 0.565898, 0.171166, 0.565721, 0, 0
60, 0.00000, 0.171157, 0.565732, 0.171268, 0.565898, 0.171166, 0.565721, 0, 0
61, 0.00000, 0.171157, 0.565732, 0.171268, 0.565898, 0.171166, 0.565721, 0, 0
62, 0.00000, 0.171156, 0.565728, 0.171266, 0.565893, 0.171164, 0.565717, 0, 0
63, 0.00000, 0.171153, 0.565719, 0.171264, 0.565885, 0.171162, 0.565708, 0, 0
64, 0.00000, 0.17115, 0.565709, 0.171261, 0.565875, 0.171159, 0.565699, 0, 0
65, 0.00000, 0.171147, 0.565698, 0.171258, 0.565865, 0.171155, 0.565688, 0, 0
66, 0.00000, 0.171142, 0.565682, 0.171253, 0.565849, 0.171151, 0.565672, 0, 0
67, 0.00000, 0.171085, 0.565492, 0.171199, 0.565667, 0.171094, 0.565488, 0, 0
68, 0.00000, 0.17053, 0.563648, 0.170671, 0.5639, 0.170543, 0.563701, 0, 0
69, 0.00000, 0.16974, 0.561025, 0.169919, 0.561384, 0.16976, 0.561157, 0, 0
70, 0.00000, 0.168756, 0.557754, 0.168982, 0.558246, 0.168783, 0.557983, 0, 0
71, 0.00000, 0.168749, 0.557733, 0.168975, 0.558225, 0.168776, 0.557962, 0, 0
72, 0.00000, 0.168749, 0.557733, 0.168975, 0.558225, 0.168776, 0.557962, 0, 0
73, 0.00000, 0.167338, 0.553079, 0.167622, 0.553698, 0.167372, 0.553368, 0, 0
74, 0.00000, 0.167338, 0.553077, 0.167621, 0.553696, 0.167372, 0.553366, 0, 0
75, 0.00000, 0.167338, 0.553077, 0.167621, 0.553696, 0.167372, 0.553366, 0, 0
76, 0.00000, 0.167338, 0.553077, 0.167621, 0.553696, 0.167372, 0.553366, 0, 0
77, 0.00000, 0.167338, 0.553077, 0.167621, 0.553696, 0.167372, 0.553366, 0, 0
78, 0.00000, 0.167338, 0.553077, 0.167621, 0.553696, 0.167372, 0.553366, 0, 0
79, 0.00000, 0.167338, 0.553077, 0.167621, 0.553696, 0.167372, 0.553366, 0, 0
80, 0.00000, 0.167338, 0.553077, 0.167621, 0.553696, 0.167372, 0.553366, 0, 0
81, 0.00000, 0.167338, 0.553077, 0.167621, 0.553696, 0.167372, 0.553366, 0, 0
82, 0.00000, 0.167338, 0.553077, 0.167621, 0.553696, 0.167372, 0.553366, 0, 0
83, 0.00000, 0.167338, 0.553077, 0.167621, 0.553696, 0.167372, 0.553366, 0, 0
84, 0.00000, 0.167338, 0.553077, 0.167621, 0.553696, 0.167372, 0.553366, 0, 0
85, 0.00000, 0.167338, 0.553077, 0.167621, 0.553696, 0.167372, 0.553366, 0, 0
86, 0.00000, 0.167338, 0.553077, 0.167621, 0.553696, 0.167372, 0.553366, 0, 0
87, 0.00000, 0.167338, 0.553077, 0.167621, 0.553696, 0.167372, 0.553366, 0, 0
88, 0.00000, 0.167338, 0.553077, 0.167621, 0.553696, 0.167372, 0.553366, 0, 0
89, 0.00000, 0.167338, 0.553077, 0.167621, 0.553696, 0.167372, 0.553366, 0, 0
90, 0.00000, 0.167338, 0.553077, 0.167621, 0.553696, 0.167372, 0.553366, 0, 0
91, 0.00000, 0.167338, 0.553077, 0.167621, 0.553696, 0.167372, 0.553366, 0, 0
92, 0.00000, 0.167338, 0.553077, 0.167621, 0.553696, 0.167372, 0.553366, 0, 0
93, 0.00000, 0.167338, 0.553077, 0.167621, 0.553696, 0.167372, 0.553366, 0, 0
94, 0.00000, 0.167338, 0.553077, 0.167621, 0.553696, 0.167372, 0.553366, 0, 0
95, 0.00000, 0.167338, 0.553077, 0.167621, 0.553696, 0.167372, 0.553366, 0, 0
96, 0.00000, 0.167338, 0.553077, 0.167621, 0.553696, 0.167372, 0.553366, 0, 0
