hour, t(sec), P1 (kW), Q1 (kvar), P2 (kW), Q2 (kvar), P3 (kW), Q3 (kvar), P4 (kW), Q4 (kvar)
1, 0.00000, 12.5277, 6.70774, 12.5329, 6.70835, 12.5312, 6.70651, 0, 0
2, 0.00000, 12.5278, 6.70778, 12.533, 6.70838, 12.5312, 6.70655, 0, 0
3, 0.00000, 12.5278, 6.70778, 12.533, 6.70839, 12.5312, 6.70655, 0, 0
4, 0.00000, 12.5278, 6.70778, 12.533, 6.70839, 12.5312, 6.70655, 0, 0
5, 0.00000, 12.5278, 6.70778, 12.533, 6.70839, 12.5312, 6.70655, 0, 0
6, 0.00000, 12.5278, 6.70778, 12.533, 6.70839, 12.5312, 6.70655, 0, 0
7, 0.00000, 12.5278, 6.70778, 12.533, 6.70839, 12.5312, 6.70655, 0, 0
8, 0.00000, 12.5278, 6.70778, 12.533, 6.70839, 12.5312, 6.70655, 0, 0
9, 0.00000, 12.5278, 6.70778, 12.533, 6.70839, 12.5312, 6.70655, 0, 0
10, 0.00000, 12.5278, 6.70778, 12.533, 6.70839, 12.5312, 6.70655, 0, 0
11, 0.00000, 12.5278, 6.70778, 12.533, 6.70839, 12.5312, 6.70655, 0, 0
12, 0.00000, 12.5278, 6.70778, 12.533, 6.70839, 12.5312, 6.70655, 0, 0
13, 0.00000, 12.5278, 6.70778, 12.533, 6.70839, 12.5312, 6.70655, 0, 0
14, 0.00000, 12.5278, 6.70778, 12.533, 6.70839, 12.5312, 6.70655, 0, 0
15, 0.00000, 12.5278, 6.70778, 12.533, 6.70839, 12.5312, 6.70655, 0, 0
16, 0.00000, 12.5278, 6.70778, 12.533, 6.70839, 12.5312, 6.70655, 0, 0
17, 0.00000, 12.5278, 6.70778, 12.533, 6.70839, 12.5312, 6.70655, 0, 0
18, 0.00000, 12.5278, 6.70778, 12.533, 6.70839, 12.5312, 6.70655, 0, 0
19, 0.00000, 12.5278, 6.70778, 12.533, 6.70839, 12.5312, 6.70655, 0, 0
20, 0.00000, 12.5278, 6.70778, 12.533, 6.70839, 12.5312, 6.70655, 0, 0
21, 0.00000, 12.5278, 6.70778, 12.533, 6.70839, 12.5312, 6.70655, 0, 0
22, 0.00000, 12.5278, 6.70778, 12.533, 6.70839, 12.5312, 6.70655, 0, 0
23, 0.00000, 12.5278, 6.70782, 12.533, 6.70842, 12.5312, 6.70658, 0, 0
24, 0.00000, 12.5279, 6.70811, 12.533, 6.70864, 12.5312, 6.70686, 0, 0
25, 0.00000, 5.80715, 6.59721, 5.80972, 6.59837, 5.809, 6.59713, 0, 0
26, 0.00000, 4.13348, 6.58352, 4.13548, 6.58474, 4.13498, 6.58365, 0, 0
27, 0.00000, -2.53624, 6.58068, -2.53575, 6.58241, -2.53554, 6.58159, 0, 0
28, 0.00000, -6.75752, 6.62223, -6.75754, 6.62436, -6.757, 6.62356, 0, 0
29, 0.00000, -6.75753, 6.62362, -6.75726, 6.62547, -6.75688, 6.62466, 0, 0
30, 0.00000, -6.75754, 6.62426, -6.75712, 6.62598, -6.75682, 6.62517, 0, 0
31, 0.00000, -6.75753, 6.62436, -6.7571, 6.62606, -6.7568, 6.62526, 0, 0
32, 0.00000, -6.75753, 6.62441, -6.75709, 6.62611, -6.7568, 6.6253, 0, 0
33, 0.00000, -6.75753, 6.6244, -6.75709, 6.6261, -6.7568, 6.62529, 0, 0
34, 0.00000, -6.75753, 6.62447, -6.75708, 6.62615, -6.75679, 6.62535, 0, 0
35, 0.00000, -6.75752, 6.62395, -6.75718, 6.62574, -6.75684, 6.62494, 0, 0
36, 0.00000, -6.75753, 6.62423, -6.75713, 6.62595, -6.75682, 6.62515, 0, 0
37, 0.00000, -6.75753, 6.62449, -6.75708, 6.62617, -6.75679, 6.62536, 0, 0
38, 0.00000, -6.75753, 6.62449, -6.75708, 6.62617, -6.75679, 6.62537, 0, 0
39, 0.00000, -6.75753, 6.62449, -6.75708, 6.62617, -6.75679, 6.62537, 0, 0
40, 0.00000, -6.75753, 6.62449, -6.75708, 6.62617, -6.75679, 6.62537, 0, 0
41, 0.00000, -6.75753, 6.62449, -6.75708, 6.62617, -6.75679, 6.62537, 0, 0
42, 0.00000, -6.75753, 6.62449, -6.75708, 6.62617, -6.75679, 6.62537, 0, 0
43, 0.00000, -6.75753, 6.62449, -6.75708, 6.62617, -6.75679, 6.62537, 0, 0
44, 0.00000, -6.75753, 6.62449, -6.75708, 6.62617, -6.75679, 6.62537, 0, 0
45, 0.00000, -6.75753, 6.62449, -6.75708, 6.62617, -6.75679, 6.62537, 0, 0
46, 0.00000, -6.75753, 6.62449, -6.75708, 6.62617, -6.75679, 6.62537, 0, 0
47, 0.00000, -6.75753, 6.62449, -6.75708, 6.62617, -6.75679, 6.62537, 0, 0
48, 0.00000, -6.75753, 6.62449, -6.75708, 6.62617, -6.75679, 6.62537, 0, 0
49, 0.00000, -5.60674, 7.14105, -5.60617, 7.14278, -5.60592, 7.14192, 0, 0
50, 0.00000, -5.60674, 7.14105, -5.60617, 7.14278, -5.60592, 7.14192, 0, 0
51, 0.00000, -5.60674, 7.14105, -5.60617, 7.14278, -5.60592, 7.14192, 0, 0
52, 0.00000, -5.60674, 7.14105, -5.60617, 7.14278, -5.60592, 7.14192, 0, 0
53, 0.00000, -5.60674, 7.14105, -5.60617, 7.14278, -5.60592, 7.14192, 0, 0
54, 0.00000, -5.60674, 7.14105, -5.60617, 7.14278, -5.60592, 7.14192, 0, 0
55, 0.00000, -5.60674, 7.14105, -5.60617, 7.14278, -5.60592, 7.14192, 0, 0
56, 0.00000, -5.60674, 7.14105, -5.60617, 7.14278, -5.60592, 7.14192, 0, 0
57, 0.00000, -5.60674, 7.14105, -5.60617, 7.14278, -5.60592, 7.14192, 0, 0
58, 0.00000, -5.60674, 7.14105, -5.60617, 7.14278, -5.60592, 7.14192, 0, 0
59, 0.00000, -5.60674, 7.14105, -5.60617, 7.14278, -5.60592, 7.14192, 0, 0
60, 0.00000, -5.60674, 7.14105, -5.60617, 7.14278, -5.60592, 7.14192, 0, 0
61, 0.00000, -5.60674, 7.14105, -5.60617, 7.14278, -5.60592, 7.14192, 0, 0
62, 0.00000, -5.60674, 7.14104, -5.60617, 7.14277, -5.60592, 7.14191, 0, 0
63, 0.00000, -5.60674, 7.14103, -5.60617, 7.14276, -5.60592, 7.1419, 0, 0
64, 0.00000, -5.60674, 7.14101, -5.60617, 7.14275, -5.60592, 7.14189, 0, 0
65, 0.00000, -5.60674, 7.14099, -5.60618, 7.14273, -5.60593, 7.14187, 0, 0
66, 0.00000, -5.60674, 7.14097, -5.60618, 7.14271, -5.60593, 7.14185, 0, 0
67, 0.00000, -5.60674, 7.1408, -5.60621, 7.14257, -5.60594, 7.14171, 0, 0
68, 0.00000, -5.60677, 7.13882, -5.60659, 7.14104, -5.60611, 7.14014, 0, 0
69, 0.00000, 3.62253, 7.11169, 3.62452, 7.11307, 3.62408, 7.11192, 0, 0
70, 0.00000, 13.6985, 7.26725, 13.7046, 7.2679, 13.7025, 7.2658, 0, 0
71, 0.00000, 13.6988, 7.26738, 13.7049, 7.26804, 13.7028, 7.26592, 0, 0
72, 0.00000, 13.6989, 7.26739, 13.7049, 7.26805, 13.7029, 7.26594, 0, 0
73, 0.00000, 19.5775, 10.1162, 19.5884, 10.1171, 19.5849, 10.1134, 0, 0
74, 0.00000, 19.5783, 10.1167, 19.5892, 10.1176, 19.5857, 10.1139, 0, 0
75, 0.00000, 19.5783, 10.1167, 19.5892, 10.1176, 19.5857, 10.1139, 0, 0
76, 0.00000, 19.5783, 10.1167, 19.5892, 10.1176, 19.5857, 10.1139, 0, 0
77, 0.00000, 19.5783, 10.1167, 19.5892, 10.1176, 19.5857, 10.1139, 0, 0
78, 0.00000, 19.5783, 10.1167, 19.5892, 10.1176, 19.5857, 10.1139, 0, 0
79, 0.00000, 19.5783, 10.1167, 19.5892, 10.1176, 19.5857, 10.1139, 0, 0
80, 0.00000, 19.5783, 10.1167, 19.5892, 10.1176, 19.5857, 10.1139, 0, 0
81, 0.00000, 19.5783, 10.1167, 19.5892, 10.1176, 19.5857, 10.1139, 0, 0
82, 0.00000, 19.5783, 10.1167, 19.5892, 10.1176, 19.5857, 10.1139, 0, 0
83, 0.00000, 19.5783, 10.1167, 19.5892, 10.1176, 19.5857, 10.1139, 0, 0
84, 0.00000, 19.5783, 10.1167, 19.5892, 10.1176, 19.5857, 10.1139, 0, 0
85, 0.00000, 19.5783, 10.1167, 19.5892, 10.1176, 19.5857, 10.1139, 0, 0
86, 0.00000, 19.5783, 10.1167, 19.5892, 10.1176, 19.5857, 10.1139, 0, 0
87, 0.00000, 19.5783, 10.1167, 19.5892, 10.1176, 19.5857, 10.1139, 0, 0
88, 0.00000, 19.5783, 10.1167, 19.5892, 10.1176, 19.5857, 10.1139, 0, 0
89, 0.00000, 19.5783, 10.1167, 19.5892, 10.1176, 19.5857, 10.1139, 0, 0
90, 0.00000, 19.5783, 10.1167, 19.5892, 10.1176, 19.5857, 10.1139, 0, 0
91, 0.00000, 19.5783, 10.1167, 19.5892, 10.1176, 19.5857, 10.1139, 0, 0
92, 0.00000, 19.5783, 10.1167, 19.5892, 10.1176, 19.5857, 10.1139, 0, 0
93, 0.00000, 19.5783, 10.1167, 19.5892, 10.1176, 19.5857, 10.1139, 0, 0
94, 0.00000, 19.5783, 10.1167, 19.5892, 10.1176, 19.5857, 10.1139, 0, 0
95, 0.00000, 19.5783, 10.1167, 19.5892, 10.1176, 19.5857, 10.1139, 0, 0
96, 0.00000, 19.5783, 10.1167, 19.5892, 10.1176, 19.5857, 10.1139, 0, 0
