hour, t(sec), P1 (kW), Q1 (kvar), P2 (kW), Q2 (kvar), P3 (kW), Q3 (kvar), P4 (kW), Q4 (kvar)
1, 0.00000, 11.6004, 5.73041, 11.6054, 5.73068, 11.6037, 5.72903, 0, 0
2, 0.00000, 11.6005, 5.73045, 11.6055, 5.73072, 11.6038, 5.72908, 0, 0
3, 0.00000, 11.6005, 5.73045, 11.6055, 5.73072, 11.6038, 5.72908, 0, 0
4, 0.00000, 11.6005, 5.73045, 11.6055, 5.73072, 11.6038, 5.72908, 0, 0
5, 0.00000, 11.6005, 5.73045, 11.6055, 5.73072, 11.6038, 5.72908, 0, 0
6, 0.00000, 11.6005, 5.73045, 11.6055, 5.73072, 11.6038, 5.72908, 0, 0
7, 0.00000, 11.6005, 5.73045, 11.6055, 5.73072, 11.6038, 5.72908, 0, 0
8, 0.00000, 11.6005, 5.73045, 11.6055, 5.73072, 11.6038, 5.72908, 0, 0
9, 0.00000, 11.6005, 5.73045, 11.6055, 5.73072, 11.6038, 5.72908, 0, 0
10, 0.00000, 11.6005, 5.73045, 11.6055, 5.73072, 11.6038, 5.72908, 0, 0
11, 0.00000, 11.6005, 5.73045, 11.6055, 5.73072, 11.6038, 5.72908, 0, 0
12, 0.00000, 11.6005, 5.73045, 11.6055, 5.73072, 11.6038, 5.72908, 0, 0
13, 0.00000, 11.6005, 5.73045, 11.6055, 5.73072, 11.6038, 5.72908, 0, 0
14, 0.00000, 11.6005, 5.73045, 11.6055, 5.73072, 11.6038, 5.72908, 0, 0
15, 0.00000, 11.6005, 5.73045, 11.6055, 5.73072, 11.6038, 5.72908, 0, 0
16, 0.00000, 11.6005, 5.73045, 11.6055, 5.73072, 11.6038, 5.72908, 0, 0
17, 0.00000, 11.6005, 5.73045, 11.6055, 5.73072, 11.6038, 5.72908, 0, 0
18, 0.00000, 11.6005, 5.73045, 11.6055, 5.73072, 11.6038, 5.72908, 0, 0
19, 0.00000, 11.6005, 5.73045, 11.6055, 5.73072, 11.6038, 5.72908, 0, 0
20, 0.00000, 11.6005, 5.73045, 11.6055, 5.73072, 11.6038, 5.72908, 0, 0
21, 0.00000, 11.6005, 5.73045, 11.6055, 5.73072, 11.6038, 5.72908, 0, 0
22, 0.00000, 11.6005, 5.73045, 11.6055, 5.73072, 11.6038, 5.72908, 0, 0
23, 0.00000, 11.6007, 5.73066, 11.6057, 5.7309, 11.604, 5.72928, 0, 0
24, 0.00000, 11.6007, 5.73102, 11.6054, 5.73114, 11.6038, 5.72962, 0, 0
25, 0.00000, 5.59434, 5.90708, 5.59671, 5.90787, 5.59602, 5.90683, 0, 0
26, 0.00000, 3.91605, 5.88657, 3.91785, 5.88743, 3.91738, 5.88653, 0, 0
27, 0.00000, -2.75468, 5.88335, -2.75425, 5.8849, -2.75402, 5.88418, 0, 0
28, 0.00000, -6.09145, 5.92963, -6.09138, 5.93154, -6.09091, 5.93081, 0, 0
29, 0.00000, -6.09148, 5.93128, -6.09109, 5.93286, -6.0908, 5.93214, 0, 0
30, 0.00000, -6.09149, 5.93201, -6.09096, 5.93345, -6.09074, 5.93273, 0, 0
31, 0.00000, -6.09149, 5.93215, -6.09093, 5.93358, -6.09073, 5.93286, 0, 0
32, 0.00000, -6.09149, 5.93247, -6.09087, 5.93382, -6.0907, 5.9331, 0, 0
33, 0.00000, -6.09148, 5.9323, -6.0909, 5.9337, -6.09071, 5.93298, 0, 0
34, 0.00000, -6.0915, 5.93291, -6.09079, 5.93418, -6.09067, 5.93346, 0, 0
35, 0.00000, -6.09146, 5.9317, -6.091, 5.93322, -6.09074, 5.9325, 0, 0
36, 0.00000, -6.09149, 5.93195, -6.09097, 5.93341, -6.09074, 5.93269, 0, 0
37, 0.00000, -6.09151, 5.93314, -6.09074, 5.93437, -6.09065, 5.93365, 0, 0
38, 0.00000, -6.09151, 5.93315, -6.09075, 5.93438, -6.09066, 5.93366, 0, 0
39, 0.00000, -6.09151, 5.93315, -6.09075, 5.93438, -6.09066, 5.93366, 0, 0
40, 0.00000, -6.09151, 5.93315, -6.09075, 5.93438, -6.09066, 5.93366, 0, 0
41, 0.00000, -6.09151, 5.93315, -6.09075, 5.93438, -6.09066, 5.93366, 0, 0
42, 0.00000, -6.09151, 5.93315, -6.09075, 5.93438, -6.09066, 5.93366, 0, 0
43, 0.00000, -6.09151, 5.93315, -6.09075, 5.93438, -6.09066, 5.93366, 0, 0
44, 0.00000, -6.09151, 5.93315, -6.09075, 5.93438, -6.09066, 5.93366, 0, 0
45, 0.00000, -6.09151, 5.93315, -6.09075, 5.93438, -6.09066, 5.93366, 0, 0
46, 0.00000, -6.09151, 5.93315, -6.09075, 5.93438, -6.09066, 5.93366, 0, 0
47, 0.00000, -6.09151, 5.93315, -6.09075, 5.93438, -6.09066, 5.93366, 0, 0
48, 0.00000, -6.09151, 5.93315, -6.09075, 5.93438, -6.09066, 5.93366, 0, 0
49, 0.00000, -4.99513, 6.39076, -4.9943, 6.39195, -4.99425, 6.39122, 0, 0
50, 0.00000, -4.99513, 6.39075, -4.9943, 6.39195, -4.99425, 6.39122, 0, 0
51, 0.00000, -4.99513, 6.39075, -4.9943, 6.39195, -4.99425, 6.39122, 0, 0
52, 0.00000, -4.99513, 6.39075, -4.9943, 6.39195, -4.99425, 6.39122, 0, 0
53, 0.00000, -4.99513, 6.39075, -4.9943, 6.39195, -4.99425, 6.39122, 0, 0
54, 0.00000, -4.99513, 6.39075, -4.9943, 6.39195, -4.99425, 6.39122, 0, 0
55, 0.00000, -4.99513, 6.39075, -4.9943, 6.39195, -4.99425, 6.39122, 0, 0
56, 0.00000, -4.99513, 6.39075, -4.9943, 6.39195, -4.99425, 6.39122, 0, 0
57, 0.00000, -4.99513, 6.39075, -4.9943, 6.39195, -4.99425, 6.39122, 0, 0
58, 0.00000, -4.99513, 6.39075, -4.9943, 6.39195, -4.99425, 6.39122, 0, 0
59, 0.00000, -4.99513, 6.39075, -4.9943, 6.39195, -4.99425, 6.39122, 0, 0
60, 0.00000, -4.99513, 6.39075, -4.9943, 6.39195, -4.99425, 6.39122, 0, 0
61, 0.00000, -4.99513, 6.39075, -4.9943, 6.39195, -4.99425, 6.39122, 0, 0
62, 0.00000, -4.99512, 6.39067, -4.99431, 6.39188, -4.99425, 6.39115, 0, 0
63, 0.00000, -4.99512, 6.39052, -4.99434, 6.39176, -4.99426, 6.39103, 0, 0
64, 0.00000, -4.99512, 6.39035, -4.99437, 6.39163, -4.99427, 6.39089, 0, 0
65, 0.00000, -4.99512, 6.39017, -4.9944, 6.39149, -4.99428, 6.39075, 0, 0
66, 0.00000, -4.99511, 6.38994, -4.99443, 6.39131, -4.99429, 6.39057, 0, 0
67, 0.00000, -4.99512, 6.38957, -4.99449, 6.39102, -4.99432, 6.39027, 0, 0
68, 0.00000, -4.99513, 6.38728, -4.99488, 6.3892, -4.99447, 6.38841, 0, 0
69, 0.00000, 3.35213, 6.35764, 3.35392, 6.35866, 3.3535, 6.35772, 0, 0
70, 0.00000, 13.4786, 6.59103, 13.4844, 6.59125, 13.4824, 6.58939, 0, 0
71, 0.00000, 13.479, 6.59113, 13.4848, 6.59139, 13.4829, 6.58949, 0, 0
72, 0.00000, 13.4792, 6.59123, 13.485, 6.5915, 13.4831, 6.58959, 0, 0
73, 0.00000, 18.7751, 9.06921, 18.7853, 9.06951, 18.782, 9.06629, 0, 0
74, 0.00000, 18.7761, 9.06985, 18.7862, 9.07015, 18.7829, 9.06693, 0, 0
75, 0.00000, 18.7761, 9.06985, 18.7862, 9.07015, 18.7829, 9.06694, 0, 0
76, 0.00000, 18.7761, 9.06985, 18.7862, 9.07015, 18.7829, 9.06694, 0, 0
77, 0.00000, 18.7761, 9.06985, 18.7862, 9.07015, 18.7829, 9.06694, 0, 0
78, 0.00000, 18.7761, 9.06985, 18.7862, 9.07015, 18.7829, 9.06694, 0, 0
79, 0.00000, 18.7761, 9.06985, 18.7862, 9.07015, 18.7829, 9.06694, 0, 0
80, 0.00000, 18.7761, 9.06985, 18.7862, 9.07015, 18.7829, 9.06694, 0, 0
81, 0.00000, 18.7761, 9.06985, 18.7862, 9.07015, 18.7829, 9.06694, 0, 0
82, 0.00000, 18.7761, 9.06985, 18.7862, 9.07015, 18.7829, 9.06694, 0, 0
83, 0.00000, 18.7761, 9.06985, 18.7862, 9.07015, 18.7829, 9.06694, 0, 0
84, 0.00000, 18.7761, 9.06985, 18.7862, 9.07015, 18.7829, 9.06694, 0, 0
85, 0.00000, 18.7761, 9.06985, 18.7862, 9.07015, 18.7829, 9.06694, 0, 0
86, 0.00000, 18.7761, 9.06985, 18.7862, 9.07015, 18.7829, 9.06694, 0, 0
87, 0.00000, 18.7761, 9.06985, 18.7862, 9.07015, 18.7829, 9.06694, 0, 0
88, 0.00000, 18.7761, 9.06985, 18.7862, 9.07015, 18.7829, 9.06694, 0, 0
89, 0.00000, 18.7761, 9.06985, 18.7862, 9.07015, 18.7829, 9.06694, 0, 0
90, 0.00000, 18.7761, 9.06985, 18.7862, 9.07015, 18.7829, 9.06694, 0, 0
91, 0.00000, 18.7761, 9.06985, 18.7862, 9.07015, 18.7829, 9.06694, 0, 0
92, 0.00000, 18.7761, 9.06985, 18.7862, 9.07015, 18.7829, 9.06694, 0, 0
93, 0.00000, 18.7761, 9.06985, 18.7862, 9.07015, 18.7829, 9.06694, 0, 0
94, 0.00000, 18.7761, 9.06985, 18.7862, 9.07015, 18.7829, 9.06694, 0, 0
95, 0.00000, 18.7761, 9.06985, 18.7862, 9.07015, 18.7829, 9.06694, 0, 0
96, 0.00000, 18.7761, 9.06985, 18.7862, 9.07015, 18.7829, 9.06694, 0, 0
