hour, t(sec), P1 (kW), Q1 (kvar), P2 (kW), Q2 (kvar), P3 (kW), Q3 (kvar), P4 (kW), Q4 (kvar)
1, 0.00000, 17.1474, 8.93194, 17.1527, 8.93233, 17.1509, 8.93055, 0, 0
2, 0.00000, 17.1475, 8.932, 17.1528, 8.93238, 17.151, 8.9306, 0, 0
3, 0.00000, 17.1475, 8.932, 17.1528, 8.93238, 17.151, 8.9306, 0, 0
4, 0.00000, 17.1475, 8.932, 17.1528, 8.93238, 17.151, 8.9306, 0, 0
5, 0.00000, 17.1475, 8.932, 17.1528, 8.93238, 17.151, 8.9306, 0, 0
6, 0.00000, 17.1475, 8.932, 17.1528, 8.93238, 17.151, 8.9306, 0, 0
7, 0.00000, 17.1475, 8.932, 17.1528, 8.93238, 17.151, 8.9306, 0, 0
8, 0.00000, 17.1475, 8.932, 17.1528, 8.93238, 17.151, 8.9306, 0, 0
9, 0.00000, 17.1475, 8.932, 17.1528, 8.93238, 17.151, 8.9306, 0, 0
10, 0.00000, 17.1475, 8.932, 17.1528, 8.93238, 17.151, 8.9306, 0, 0
11, 0.00000, 17.1475, 8.932, 17.1528, 8.93238, 17.151, 8.9306, 0, 0
12, 0.00000, 17.1475, 8.932, 17.1528, 8.93238, 17.151, 8.9306, 0, 0
13, 0.00000, 17.1475, 8.932, 17.1528, 8.93238, 17.151, 8.9306, 0, 0
14, 0.00000, 17.1475, 8.932, 17.1528, 8.93238, 17.151, 8.9306, 0, 0
15, 0.00000, 17.1475, 8.932, 17.1528, 8.93238, 17.151, 8.9306, 0, 0
16, 0.00000, 17.1475, 8.932, 17.1528, 8.93238, 17.151, 8.9306, 0, 0
17, 0.00000, 17.1475, 8.932, 17.1528, 8.93238, 17.151, 8.9306, 0, 0
18, 0.00000, 17.1475, 8.932, 17.1528, 8.93238, 17.151, 8.9306, 0, 0
19, 0.00000, 17.1475, 8.932, 17.1528, 8.93238, 17.151, 8.9306, 0, 0
20, 0.00000, 17.1475, 8.932, 17.1528, 8.93238, 17.151, 8.9306, 0, 0
21, 0.00000, 17.1475, 8.932, 17.1528, 8.93238, 17.151, 8.9306, 0, 0
22, 0.00000, 17.1475, 8.932, 17.1528, 8.93238, 17.151, 8.9306, 0, 0
23, 0.00000, 17.1477, 8.93228, 17.1529, 8.9326, 17.1512, 8.93087, 0, 0
24, 0.00000, 17.1477, 8.9327, 17.1527, 8.93288, 17.1509, 8.93127, 0, 0
25, 0.00000, 15.1583, 7.97163, 15.1619, 7.97144, 15.1605, 7.97036, 0, 0
26, 0.00000, 15.1583, 7.97238, 15.1616, 7.97199, 15.1603, 7.97107, 0, 0
27, 0.00000, 15.1587, 7.97399, 15.1614, 7.97319, 15.1602, 7.97261, 0, 0
28, 0.00000, 15.1589, 7.97482, 15.1612, 7.9738, 15.1601, 7.9734, 0, 0
29, 0.00000, 15.1592, 7.97618, 15.161, 7.97483, 15.1599, 7.9747, 0, 0
30, 0.00000, 15.1594, 7.97678, 15.1609, 7.97528, 15.1599, 7.97528, 0, 0
31, 0.00000, 15.1594, 7.97688, 15.1609, 7.97536, 15.1599, 7.97537, 0, 0
32, 0.00000, 15.1595, 7.97717, 15.1609, 7.97559, 15.1599, 7.97565, 0, 0
33, 0.00000, 15.1595, 7.97698, 15.1609, 7.97544, 15.1599, 7.97547, 0, 0
34, 0.00000, 15.1596, 7.97745, 15.1608, 7.9758, 15.1599, 7.97592, 0, 0
35, 0.00000, 15.1594, 7.97648, 15.161, 7.97507, 15.16, 7.97499, 0, 0
36, 0.00000, 15.1594, 7.97672, 15.1609, 7.97524, 15.1599, 7.97522, 0, 0
37, 0.00000, 15.1596, 7.97765, 15.1608, 7.97594, 15.1599, 7.9761, 0, 0
38, 0.00000, 15.1596, 7.97764, 15.1608, 7.97593, 15.1599, 7.97609, 0, 0
39, 0.00000, 15.1596, 7.97764, 15.1608, 7.97593, 15.1599, 7.97609, 0, 0
40, 0.00000, 15.1596, 7.97764, 15.1608, 7.97593, 15.1599, 7.97609, 0, 0
41, 0.00000, 15.1596, 7.97764, 15.1608, 7.97593, 15.1599, 7.97609, 0, 0
42, 0.00000, 15.1596, 7.97764, 15.1608, 7.97593, 15.1599, 7.97609, 0, 0
43, 0.00000, 15.1596, 7.97764, 15.1608, 7.97593, 15.1599, 7.97609, 0, 0
44, 0.00000, 15.1596, 7.97764, 15.1608, 7.97593, 15.1599, 7.97609, 0, 0
45, 0.00000, 15.1596, 7.97764, 15.1608, 7.97593, 15.1599, 7.97609, 0, 0
46, 0.00000, 15.1596, 7.97764, 15.1608, 7.97593, 15.1599, 7.97609, 0, 0
47, 0.00000, 15.1596, 7.97764, 15.1608, 7.97593, 15.1599, 7.97609, 0, 0
48, 0.00000, 15.1596, 7.97764, 15.1608, 7.97593, 15.1599, 7.97609, 0, 0
49, 0.00000, 16.4026, 8.57743, 16.4041, 8.57561, 16.403, 8.57572, 0, 0
50, 0.00000, 16.4026, 8.57746, 16.4041, 8.57564, 16.4031, 8.57575, 0, 0
51, 0.00000, 16.4026, 8.57746, 16.4041, 8.57564, 16.4031, 8.57575, 0, 0
52, 0.00000, 16.4026, 8.57746, 16.4041, 8.57564, 16.4031, 8.57575, 0, 0
53, 0.00000, 16.4026, 8.57746, 16.4041, 8.57564, 16.4031, 8.57575, 0, 0
54, 0.00000, 16.4026, 8.57746, 16.4041, 8.57564, 16.4031, 8.57575, 0, 0
55, 0.00000, 16.4026, 8.57746, 16.4041, 8.57564, 16.4031, 8.57575, 0, 0
56, 0.00000, 16.4026, 8.57746, 16.4041, 8.57564, 16.4031, 8.57575, 0, 0
57, 0.00000, 16.4026, 8.57746, 16.4041, 8.57564, 16.4031, 8.57575, 0, 0
58, 0.00000, 16.4026, 8.57746, 16.4041, 8.57564, 16.4031, 8.57575, 0, 0
59, 0.00000, 16.4026, 8.57746, 16.4041, 8.57564, 16.4031, 8.57575, 0, 0
60, 0.00000, 16.4026, 8.57746, 16.4041, 8.57564, 16.4031, 8.57575, 0, 0
61, 0.00000, 16.4026, 8.57746, 16.4041, 8.57564, 16.4031, 8.57575, 0, 0
62, 0.00000, 16.4026, 8.5774, 16.4042, 8.57561, 16.4031, 8.5757, 0, 0
63, 0.00000, 16.4026, 8.57729, 16.4042, 8.57553, 16.4031, 8.57559, 0, 0
64, 0.00000, 16.4026, 8.57717, 16.4042, 8.57545, 16.4031, 8.57548, 0, 0
65, 0.00000, 16.4026, 8.57705, 16.4042, 8.57536, 16.4031, 8.57536, 0, 0
66, 0.00000, 16.4025, 8.57688, 16.4043, 8.57524, 16.4032, 8.5752, 0, 0
67, 0.00000, 16.4024, 8.57661, 16.4043, 8.57503, 16.4032, 8.57494, 0, 0
68, 0.00000, 16.4019, 8.57478, 16.4046, 8.57369, 16.4034, 8.57319, 0, 0
69, 0.00000, 16.4014, 8.57287, 16.405, 8.57233, 16.4035, 8.57138, 0, 0
70, 0.00000, 16.4004, 8.56957, 16.4054, 8.56992, 16.4037, 8.56822, 0, 0
71, 0.00000, 16.4004, 8.56943, 16.4056, 8.56983, 16.4039, 8.5681, 0, 0
72, 0.00000, 16.4007, 8.56953, 16.4058, 8.56994, 16.4041, 8.5682, 0, 0
73, 0.00000, 24.9016, 12.7538, 24.9114, 12.7544, 24.9083, 12.7512, 0, 0
74, 0.00000, 24.9026, 12.7545, 24.9124, 12.755, 24.9093, 12.7519, 0, 0
75, 0.00000, 24.9027, 12.7545, 24.9124, 12.755, 24.9093, 12.7519, 0, 0
76, 0.00000, 24.9027, 12.7545, 24.9124, 12.755, 24.9093, 12.7519, 0, 0
77, 0.00000, 24.9027, 12.7545, 24.9124, 12.755, 24.9093, 12.7519, 0, 0
78, 0.00000, 24.9027, 12.7545, 24.9124, 12.755, 24.9093, 12.7519, 0, 0
79, 0.00000, 24.9027, 12.7545, 24.9124, 12.755, 24.9093, 12.7519, 0, 0
80, 0.00000, 24.9027, 12.7545, 24.9124, 12.755, 24.9093, 12.7519, 0, 0
81, 0.00000, 24.9027, 12.7545, 24.9124, 12.755, 24.9093, 12.7519, 0, 0
82, 0.00000, 24.9027, 12.7545, 24.9124, 12.755, 24.9093, 12.7519, 0, 0
83, 0.00000, 24.9027, 12.7545, 24.9124, 12.755, 24.9093, 12.7519, 0, 0
84, 0.00000, 24.9027, 12.7545, 24.9124, 12.755, 24.9093, 12.7519, 0, 0
85, 0.00000, 24.9027, 12.7545, 24.9124, 12.755, 24.9093, 12.7519, 0, 0
86, 0.00000, 24.9027, 12.7545, 24.9124, 12.755, 24.9093, 12.7519, 0, 0
87, 0.00000, 24.9027, 12.7545, 24.9124, 12.755, 24.9093, 12.7519, 0, 0
88, 0.00000, 24.9027, 12.7545, 24.9124, 12.755, 24.9093, 12.7519, 0, 0
89, 0.00000, 24.9027, 12.7545, 24.9124, 12.755, 24.9093, 12.7519, 0, 0
90, 0.00000, 24.9027, 12.7545, 24.9124, 12.755, 24.9093, 12.7519, 0, 0
91, 0.00000, 24.9027, 12.7545, 24.9124, 12.755, 24.9093, 12.7519, 0, 0
92, 0.00000, 24.9027, 12.7545, 24.9124, 12.755, 24.9093, 12.7519, 0, 0
93, 0.00000, 24.9027, 12.7545, 24.9124, 12.755, 24.9093, 12.7519, 0, 0
94, 0.00000, 24.9027, 12.7545, 24.9124, 12.755, 24.9093, 12.7519, 0, 0
95, 0.00000, 24.9027, 12.7545, 24.9124, 12.755, 24.9093, 12.7519, 0, 0
96, 0.00000, 24.9027, 12.7545, 24.9124, 12.755, 24.9093, 12.7519, 0, 0
