hour, t(sec), P1 (kW), Q1 (kvar), P2 (kW), Q2 (kvar), P3 (kW), Q3 (kvar), P4 (kW), Q4 (kvar)
1, 0.00000, 8.93798, 5.00292, 8.94247, 5.00363, 8.94089, 5.00195, 0, 0
2, 0.00000, 8.93803, 5.00294, 8.94252, 5.00365, 8.94095, 5.00198, 0, 0
3, 0.00000, 8.93803, 5.00295, 8.94252, 5.00365, 8.94095, 5.00198, 0, 0
4, 0.00000, 8.93803, 5.00295, 8.94252, 5.00365, 8.94095, 5.00198, 0, 0
5, 0.00000, 8.93803, 5.00295, 8.94252, 5.00365, 8.94095, 5.00198, 0, 0
6, 0.00000, 8.93803, 5.00295, 8.94252, 5.00365, 8.94095, 5.00198, 0, 0
7, 0.00000, 8.93803, 5.00295, 8.94252, 5.00365, 8.94095, 5.00198, 0, 0
8, 0.00000, 8.93803, 5.00295, 8.94252, 5.00365, 8.94095, 5.00198, 0, 0
9, 0.00000, 8.93803, 5.00295, 8.94252, 5.00365, 8.94095, 5.00198, 0, 0
10, 0.00000, 8.93803, 5.00295, 8.94252, 5.00365, 8.94095, 5.00198, 0, 0
11, 0.00000, 8.93803, 5.00295, 8.94252, 5.00365, 8.94095, 5.00198, 0, 0
12, 0.00000, 8.93803, 5.00295, 8.94252, 5.00365, 8.94095, 5.00198, 0, 0
13, 0.00000, 8.93803, 5.00295, 8.94252, 5.00365, 8.94095, 5.00198, 0, 0
14, 0.00000, 8.93803, 5.00295, 8.94252, 5.00365, 8.94095, 5.00198, 0, 0
15, 0.00000, 8.93803, 5.00295, 8.94252, 5.00365, 8.94095, 5.00198, 0, 0
16, 0.00000, 8.93803, 5.00295, 8.94252, 5.00365, 8.94095, 5.00198, 0, 0
17, 0.00000, 8.93803, 5.00295, 8.94252, 5.00365, 8.94095, 5.00198, 0, 0
18, 0.00000, 8.93803, 5.00295, 8.94252, 5.00365, 8.94095, 5.00198, 0, 0
19, 0.00000, 8.93803, 5.00295, 8.94252, 5.00365, 8.94095, 5.00198, 0, 0
20, 0.00000, 8.93803, 5.00295, 8.94252, 5.00365, 8.94095, 5.00198, 0, 0
21, 0.00000, 8.93803, 5.00295, 8.94252, 5.00365, 8.94095, 5.00198, 0, 0
22, 0.00000, 8.93803, 5.00295, 8.94252, 5.00365, 8.94095, 5.00198, 0, 0
23, 0.00000, 8.93806, 5.00298, 8.94254, 5.00369, 8.94097, 5.00202, 0, 0
24, 0.00000, 5.5836, 4.9593, 5.58664, 4.96052, 5.58569, 4.95911, 0, 0
25, 0.00000, 3.23364, 5.39768, 3.23566, 5.39916, 3.23517, 5.39796, 0, 0
26, 0.00000, 1.56396, 5.39234, 1.56536, 5.39393, 1.56513, 5.39287, 0, 0
27, 0.00000, -4.23392, 5.41406, -4.23394, 5.41623, -4.23346, 5.4154, 0, 0
28, 0.00000, -4.23384, 5.41556, -4.23368, 5.41747, -4.2333, 5.41666, 0, 0
29, 0.00000, -4.23376, 5.41721, -4.23338, 5.41885, -4.23313, 5.41806, 0, 0
30, 0.00000, -4.23373, 5.41799, -4.23324, 5.41949, -4.23305, 5.41871, 0, 0
31, 0.00000, -4.23372, 5.41811, -4.23322, 5.41959, -4.23303, 5.41882, 0, 0
32, 0.00000, -4.23371, 5.41817, -4.23321, 5.41965, -4.23303, 5.41887, 0, 0
33, 0.00000, -4.23371, 5.41815, -4.23321, 5.41963, -4.23303, 5.41886, 0, 0
34, 0.00000, -4.23371, 5.41822, -4.2332, 5.41969, -4.23302, 5.41891, 0, 0
35, 0.00000, -4.23374, 5.41759, -4.23331, 5.41917, -4.23308, 5.41839, 0, 0
36, 0.00000, -4.23373, 5.41794, -4.23325, 5.41945, -4.23305, 5.41868, 0, 0
37, 0.00000, -4.23371, 5.41824, -4.2332, 5.41971, -4.23302, 5.41893, 0, 0
38, 0.00000, -4.23371, 5.41824, -4.2332, 5.41971, -4.23302, 5.41893, 0, 0
39, 0.00000, -4.23371, 5.41824, -4.2332, 5.41971, -4.23302, 5.41893, 0, 0
40, 0.00000, -4.23371, 5.41824, -4.2332, 5.41971, -4.23302, 5.41893, 0, 0
41, 0.00000, -4.23371, 5.41824, -4.2332, 5.41971, -4.23302, 5.41893, 0, 0
42, 0.00000, -4.23371, 5.41824, -4.2332, 5.41971, -4.23302, 5.41893, 0, 0
43, 0.00000, -4.23371, 5.41824, -4.2332, 5.41971, -4.23302, 5.41893, 0, 0
44, 0.00000, -4.23371, 5.41824, -4.2332, 5.41971, -4.23302, 5.41893, 0, 0
45, 0.00000, -4.23371, 5.41824, -4.2332, 5.41971, -4.23302, 5.41893, 0, 0
46, 0.00000, -4.23371, 5.41824, -4.2332, 5.41971, -4.23302, 5.41893, 0, 0
47, 0.00000, -4.23371, 5.41824, -4.2332, 5.41971, -4.23302, 5.41893, 0, 0
48, 0.00000, -4.23371, 5.41824, -4.2332, 5.41971, -4.23302, 5.41893, 0, 0
49, 0.00000, -3.24542, 5.86428, -3.24474, 5.86579, -3.24463, 5.86495, 0, 0
50, 0.00000, -3.24541, 5.86428, -3.24474, 5.86579, -3.24462, 5.86495, 0, 0
51, 0.00000, -3.24541, 5.86428, -3.24474, 5.86579, -3.24462, 5.86495, 0, 0
52, 0.00000, -3.24541, 5.86428, -3.24474, 5.86579, -3.24462, 5.86495, 0, 0
53, 0.00000, -3.24541, 5.86428, -3.24474, 5.86579, -3.24462, 5.86495, 0, 0
54, 0.00000, -3.24541, 5.86428, -3.24474, 5.86579, -3.24462, 5.86495, 0, 0
55, 0.00000, -3.24541, 5.86428, -3.24474, 5.86579, -3.24462, 5.86495, 0, 0
56, 0.00000, -3.24541, 5.86428, -3.24474, 5.86579, -3.24462, 5.86495, 0, 0
57, 0.00000, -3.24541, 5.86428, -3.24474, 5.86579, -3.24462, 5.86495, 0, 0
58, 0.00000, -3.24541, 5.86428, -3.24474, 5.86579, -3.24462, 5.86495, 0, 0
59, 0.00000, -3.24541, 5.86428, -3.24474, 5.86579, -3.24462, 5.86495, 0, 0
60, 0.00000, -3.24541, 5.86428, -3.24474, 5.86579, -3.24462, 5.86495, 0, 0
61, 0.00000, -3.24541, 5.86428, -3.24474, 5.86579, -3.24462, 5.86495, 0, 0
62, 0.00000, -3.24541, 5.86428, -3.24474, 5.86578, -3.24462, 5.86494, 0, 0
63, 0.00000, -3.24541, 5.86426, -3.24474, 5.86577, -3.24462, 5.86493, 0, 0
64, 0.00000, -3.24542, 5.86424, -3.24475, 5.86576, -3.24463, 5.86491, 0, 0
65, 0.00000, -3.24542, 5.86423, -3.24475, 5.86574, -3.24463, 5.8649, 0, 0
66, 0.00000, -3.24542, 5.8642, -3.24475, 5.86572, -3.24463, 5.86488, 0, 0
67, 0.00000, -3.24543, 5.86399, -3.24479, 5.86554, -3.24465, 5.8647, 0, 0
68, 0.00000, -3.2456, 5.86159, -3.24519, 5.86358, -3.24489, 5.86267, 0, 0
69, 0.00000, 0.888559, 5.84584, 0.889889, 5.84767, 0.889755, 5.84655, 0, 0
70, 0.00000, 10.9389, 5.94792, 10.9447, 5.9487, 10.9427, 5.94659, 0, 0
71, 0.00000, 10.9391, 5.94801, 10.9449, 5.94879, 10.9429, 5.94668, 0, 0
72, 0.00000, 10.9391, 5.94802, 10.9449, 5.94881, 10.9429, 5.9467, 0, 0
73, 0.00000, 14.3789, 7.58774, 14.3886, 7.58881, 14.3854, 7.58543, 0, 0
74, 0.00000, 14.3794, 7.58806, 14.3891, 7.58912, 14.3859, 7.58574, 0, 0
75, 0.00000, 14.3794, 7.58806, 14.3891, 7.58912, 14.3859, 7.58574, 0, 0
76, 0.00000, 14.3794, 7.58806, 14.3891, 7.58912, 14.3859, 7.58574, 0, 0
77, 0.00000, 14.3794, 7.58806, 14.3891, 7.58912, 14.3859, 7.58574, 0, 0
78, 0.00000, 14.3794, 7.58806, 14.3891, 7.58912, 14.3859, 7.58574, 0, 0
79, 0.00000, 14.3794, 7.58806, 14.3891, 7.58912, 14.3859, 7.58574, 0, 0
80, 0.00000, 14.3794, 7.58806, 14.3891, 7.58912, 14.3859, 7.58574, 0, 0
81, 0.00000, 14.3794, 7.58806, 14.3891, 7.58912, 14.3859, 7.58574, 0, 0
82, 0.00000, 14.3794, 7.58806, 14.3891, 7.58912, 14.3859, 7.58574, 0, 0
83, 0.00000, 14.3794, 7.58806, 14.3891, 7.58912, 14.3859, 7.58574, 0, 0
84, 0.00000, 14.3794, 7.58806, 14.3891, 7.58912, 14.3859, 7.58574, 0, 0
85, 0.00000, 14.3794, 7.58806, 14.3891, 7.58912, 14.3859, 7.58574, 0, 0
86, 0.00000, 14.3794, 7.58806, 14.3891, 7.58912, 14.3859, 7.58574, 0, 0
87, 0.00000, 14.3794, 7.58806, 14.3891, 7.58912, 14.3859, 7.58574, 0, 0
88, 0.00000, 14.3794, 7.58806, 14.3891, 7.58912, 14.3859, 7.58574, 0, 0
89, 0.00000, 14.3794, 7.58806, 14.3891, 7.58912, 14.3859, 7.58574, 0, 0
90, 0.00000, 14.3794, 7.58806, 14.3891, 7.58912, 14.3859, 7.58574, 0, 0
91, 0.00000, 14.3794, 7.58806, 14.3891, 7.58912, 14.3859, 7.58574, 0, 0
92, 0.00000, 14.3794, 7.58806, 14.3891, 7.58912, 14.3859, 7.58574, 0, 0
93, 0.00000, 14.3794, 7.58806, 14.3891, 7.58912, 14.3859, 7.58574, 0, 0
94, 0.00000, 14.3794, 7.58806, 14.3891, 7.58912, 14.3859, 7.58574, 0, 0
95, 0.00000, 14.3794, 7.58806, 14.3891, 7.58912, 14.3859, 7.58574, 0, 0
96, 0.00000, 14.3794, 7.58806, 14.3891, 7.58912, 14.3859, 7.58574, 0, 0
