hour, t(sec), P1 (kW), Q1 (kvar), P2 (kW), Q2 (kvar), P3 (kW), Q3 (kvar), P4 (kW), Q4 (kvar)
1, 0.00000, 15.3068, 7.43875, 15.3144, 7.43914, 15.3119, 7.43667, 0, 0
2, 0.00000, 15.3071, 7.43885, 15.3146, 7.43924, 15.3121, 7.43677, 0, 0
3, 0.00000, 15.3071, 7.43885, 15.3146, 7.43924, 15.3121, 7.43677, 0, 0
4, 0.00000, 15.3071, 7.43885, 15.3146, 7.43924, 15.3121, 7.43677, 0, 0
5, 0.00000, 15.3071, 7.43885, 15.3146, 7.43924, 15.3121, 7.43677, 0, 0
6, 0.00000, 15.3071, 7.43885, 15.3146, 7.43924, 15.3121, 7.43677, 0, 0
7, 0.00000, 15.3071, 7.43885, 15.3146, 7.43924, 15.3121, 7.43677, 0, 0
8, 0.00000, 15.3071, 7.43885, 15.3146, 7.43924, 15.3121, 7.43677, 0, 0
9, 0.00000, 15.3071, 7.43885, 15.3146, 7.43924, 15.3121, 7.43677, 0, 0
10, 0.00000, 15.3071, 7.43885, 15.3146, 7.43924, 15.3121, 7.43677, 0, 0
11, 0.00000, 15.3071, 7.43885, 15.3146, 7.43924, 15.3121, 7.43677, 0, 0
12, 0.00000, 15.3071, 7.43885, 15.3146, 7.43924, 15.3121, 7.43677, 0, 0
13, 0.00000, 15.3071, 7.43885, 15.3146, 7.43924, 15.3121, 7.43677, 0, 0
14, 0.00000, 15.3071, 7.43885, 15.3146, 7.43924, 15.3121, 7.43677, 0, 0
15, 0.00000, 15.3071, 7.43885, 15.3146, 7.43924, 15.3121, 7.43677, 0, 0
16, 0.00000, 15.3071, 7.43885, 15.3146, 7.43924, 15.3121, 7.43677, 0, 0
17, 0.00000, 15.3071, 7.43885, 15.3146, 7.43924, 15.3121, 7.43677, 0, 0
18, 0.00000, 15.3071, 7.43885, 15.3146, 7.43924, 15.3121, 7.43677, 0, 0
19, 0.00000, 15.3071, 7.43885, 15.3146, 7.43924, 15.3121, 7.43677, 0, 0
20, 0.00000, 15.3071, 7.43885, 15.3146, 7.43924, 15.3121, 7.43677, 0, 0
21, 0.00000, 15.3071, 7.43885, 15.3146, 7.43924, 15.3121, 7.43677, 0, 0
22, 0.00000, 15.3071, 7.43885, 15.3146, 7.43924, 15.3121, 7.43677, 0, 0
23, 0.00000, 15.3071, 7.43888, 15.3146, 7.43927, 15.3122, 7.4368, 0, 0
24, 0.00000, 11.9038, 7.30801, 11.9098, 7.30889, 11.908, 7.30673, 0, 0
25, 0.00000, 8.51885, 7.21214, 8.52301, 7.21317, 8.52179, 7.2115, 0, 0
26, 0.00000, 6.83299, 7.17696, 6.83637, 7.17806, 6.83543, 7.1766, 0, 0
27, 0.00000, 0.132757, 7.11762, 0.134057, 7.11931, 0.134009, 7.11828, 0, 0
28, 0.00000, 0.132933, 7.1188, 0.134242, 7.12016, 0.134114, 7.11923, 0, 0
29, 0.00000, 0.133048, 7.12, 0.134365, 7.121, 0.134148, 7.12018, 0, 0
30, 0.00000, 0.13312, 7.12058, 0.134444, 7.12141, 0.134184, 7.12064, 0, 0
31, 0.00000, 0.133146, 7.12068, 0.13447, 7.12148, 0.134205, 7.12073, 0, 0
32, 0.00000, 0.13315, 7.12072, 0.134475, 7.12151, 0.134207, 7.12076, 0, 0
33, 0.00000, 0.133156, 7.12072, 0.134481, 7.12151, 0.134214, 7.12076, 0, 0
34, 0.00000, 0.133158, 7.12076, 0.134483, 7.12155, 0.134213, 7.1208, 0, 0
35, 0.00000, 0.133122, 7.12032, 0.134444, 7.12124, 0.134208, 7.12045, 0, 0
36, 0.00000, 0.133127, 7.12055, 0.13445, 7.12139, 0.134194, 7.12062, 0, 0
37, 0.00000, 0.13316, 7.12078, 0.134486, 7.12156, 0.134214, 7.12081, 0, 0
38, 0.00000, 0.133159, 7.12078, 0.134485, 7.12156, 0.134214, 7.12081, 0, 0
39, 0.00000, 0.133159, 7.12078, 0.134485, 7.12156, 0.134214, 7.12081, 0, 0
40, 0.00000, 0.133159, 7.12078, 0.134485, 7.12156, 0.134214, 7.12081, 0, 0
41, 0.00000, 0.133159, 7.12078, 0.134485, 7.12156, 0.134214, 7.12081, 0, 0
42, 0.00000, 0.133159, 7.12078, 0.134485, 7.12156, 0.134214, 7.12081, 0, 0
43, 0.00000, 0.133159, 7.12078, 0.134485, 7.12156, 0.134214, 7.12081, 0, 0
44, 0.00000, 0.133159, 7.12078, 0.134485, 7.12156, 0.134214, 7.12081, 0, 0
45, 0.00000, 0.133159, 7.12078, 0.134485, 7.12156, 0.134214, 7.12081, 0, 0
46, 0.00000, 0.133159, 7.12078, 0.134485, 7.12156, 0.134214, 7.12081, 0, 0
47, 0.00000, 0.133159, 7.12078, 0.134485, 7.12156, 0.134214, 7.12081, 0, 0
48, 0.00000, 0.133159, 7.12078, 0.134485, 7.12156, 0.134214, 7.12081, 0, 0
49, 0.00000, 0.133008, 7.11993, 0.1344, 7.12088, 0.134147, 7.12006, 0, 0
50, 0.00000, 0.133028, 7.11993, 0.134418, 7.12089, 0.134166, 7.12006, 0, 0
51, 0.00000, 0.133028, 7.11993, 0.134418, 7.12089, 0.134166, 7.12006, 0, 0
52, 0.00000, 0.133028, 7.11993, 0.134418, 7.12089, 0.134166, 7.12006, 0, 0
53, 0.00000, 0.133028, 7.11993, 0.134418, 7.12089, 0.134166, 7.12006, 0, 0
54, 0.00000, 0.133028, 7.11993, 0.134418, 7.12089, 0.134166, 7.12006, 0, 0
55, 0.00000, 0.133028, 7.11993, 0.134418, 7.12089, 0.134166, 7.12006, 0, 0
56, 0.00000, 0.133028, 7.11993, 0.134418, 7.12089, 0.134166, 7.12006, 0, 0
57, 0.00000, 0.133028, 7.11993, 0.134418, 7.12089, 0.134166, 7.12006, 0, 0
58, 0.00000, 0.133028, 7.11993, 0.134418, 7.12089, 0.134166, 7.12006, 0, 0
59, 0.00000, 0.133028, 7.11993, 0.134418, 7.12089, 0.134166, 7.12006, 0, 0
60, 0.00000, 0.133028, 7.11993, 0.134418, 7.12089, 0.134166, 7.12006, 0, 0
61, 0.00000, 0.133028, 7.11993, 0.134418, 7.12089, 0.134166, 7.12006, 0, 0
62, 0.00000, 0.133029, 7.11993, 0.134419, 7.12088, 0.134167, 7.12005, 0, 0
63, 0.00000, 0.133028, 7.11992, 0.134418, 7.12088, 0.134167, 7.12005, 0, 0
64, 0.00000, 0.133026, 7.11991, 0.134416, 7.12087, 0.134166, 7.12004, 0, 0
65, 0.00000, 0.133024, 7.11989, 0.134414, 7.12086, 0.134165, 7.12002, 0, 0
66, 0.00000, 0.133025, 7.11987, 0.134415, 7.12084, 0.134167, 7.12001, 0, 0
67, 0.00000, 0.13301, 7.11973, 0.134398, 7.12074, 0.134161, 7.11989, 0, 0
68, 0.00000, 0.13282, 7.118, 0.134198, 7.11954, 0.134089, 7.11853, 0, 0
69, 0.00000, 5.15125, 7.14922, 5.15417, 7.15056, 5.15344, 7.14916, 0, 0
70, 0.00000, 15.306, 7.43809, 15.3141, 7.43852, 15.3114, 7.4359, 0, 0
71, 0.00000, 15.3069, 7.43851, 15.3149, 7.43894, 15.3123, 7.4363, 0, 0
72, 0.00000, 15.3069, 7.43853, 15.315, 7.43896, 15.3123, 7.43633, 0, 0
73, 0.00000, 15.3057, 7.43665, 15.3158, 7.43723, 15.3125, 7.43389, 0, 0
74, 0.00000, 15.3065, 7.43707, 15.3167, 7.43765, 15.3134, 7.4343, 0, 0
75, 0.00000, 15.3065, 7.43707, 15.3167, 7.43765, 15.3134, 7.4343, 0, 0
76, 0.00000, 15.3065, 7.43707, 15.3167, 7.43765, 15.3134, 7.4343, 0, 0
77, 0.00000, 15.3065, 7.43707, 15.3167, 7.43765, 15.3134, 7.4343, 0, 0
78, 0.00000, 15.3065, 7.43707, 15.3167, 7.43765, 15.3134, 7.4343, 0, 0
79, 0.00000, 15.3065, 7.43707, 15.3167, 7.43765, 15.3134, 7.4343, 0, 0
80, 0.00000, 15.3065, 7.43707, 15.3167, 7.43765, 15.3134, 7.4343, 0, 0
81, 0.00000, 15.3065, 7.43707, 15.3167, 7.43765, 15.3134, 7.4343, 0, 0
82, 0.00000, 15.3065, 7.43707, 15.3167, 7.43765, 15.3134, 7.4343, 0, 0
83, 0.00000, 15.3065, 7.43707, 15.3167, 7.43765, 15.3134, 7.4343, 0, 0
84, 0.00000, 15.3065, 7.43707, 15.3167, 7.43765, 15.3134, 7.4343, 0, 0
85, 0.00000, 15.3065, 7.43707, 15.3167, 7.43765, 15.3134, 7.4343, 0, 0
86, 0.00000, 15.3065, 7.43707, 15.3167, 7.43765, 15.3134, 7.4343, 0, 0
87, 0.00000, 15.3065, 7.43707, 15.3167, 7.43765, 15.3134, 7.4343, 0, 0
88, 0.00000, 15.3065, 7.43707, 15.3167, 7.43765, 15.3134, 7.4343, 0, 0
89, 0.00000, 15.3065, 7.43707, 15.3167, 7.43765, 15.3134, 7.4343, 0, 0
90, 0.00000, 15.3065, 7.43707, 15.3167, 7.43765, 15.3134, 7.4343, 0, 0
91, 0.00000, 15.3065, 7.43707, 15.3167, 7.43765, 15.3134, 7.4343, 0, 0
92, 0.00000, 15.3065, 7.43707, 15.3167, 7.43765, 15.3134, 7.4343, 0, 0
93, 0.00000, 15.3065, 7.43707, 15.3167, 7.43765, 15.3134, 7.4343, 0, 0
94, 0.00000, 15.3065, 7.43707, 15.3167, 7.43765, 15.3134, 7.4343, 0, 0
95, 0.00000, 15.3065, 7.43707, 15.3167, 7.43765, 15.3134, 7.4343, 0, 0
96, 0.00000, 15.3065, 7.43707, 15.3167, 7.43765, 15.3134, 7.4343, 0, 0
