hour, t(sec), P1 (kW), Q1 (kvar), P2 (kW), Q2 (kvar), P3 (kW), Q3 (kvar), P4 (kW), Q4 (kvar)
1, 0.00000, 0.159565, 1.13345, 0.159787, 1.13423, 0.159552, 1.13379, 0, 0
2, 0.00000, 0.159564, 1.13345, 0.159787, 1.13423, 0.159552, 1.13379, 0, 0
3, 0.00000, 0.159564, 1.13345, 0.159787, 1.13423, 0.159552, 1.13379, 0, 0
4, 0.00000, 0.159564, 1.13345, 0.159787, 1.13423, 0.159552, 1.13379, 0, 0
5, 0.00000, 0.159564, 1.13345, 0.159787, 1.13423, 0.159552, 1.13379, 0, 0
6, 0.00000, 0.159564, 1.13345, 0.159787, 1.13423, 0.159552, 1.13379, 0, 0
7, 0.00000, 0.159564, 1.13345, 0.159787, 1.13423, 0.159552, 1.13379, 0, 0
8, 0.00000, 0.159564, 1.13345, 0.159787, 1.13423, 0.159552, 1.13379, 0, 0
9, 0.00000, 0.159564, 1.13345, 0.159787, 1.13423, 0.159552, 1.13379, 0, 0
10, 0.00000, 0.159564, 1.13345, 0.159787, 1.13423, 0.159552, 1.13379, 0, 0
11, 0.00000, 0.159564, 1.13345, 0.159787, 1.13423, 0.159552, 1.13379, 0, 0
12, 0.00000, 0.159564, 1.13345, 0.159787, 1.13423, 0.159552, 1.13379, 0, 0
13, 0.00000, 0.159564, 1.13345, 0.159787, 1.13423, 0.159552, 1.13379, 0, 0
14, 0.00000, 0.159564, 1.13345, 0.159787, 1.13423, 0.159552, 1.13379, 0, 0
15, 0.00000, 0.159564, 1.13345, 0.159787, 1.13423, 0.159552, 1.13379, 0, 0
16, 0.00000, 0.159564, 1.13345, 0.159787, 1.13423, 0.159552, 1.13379, 0, 0
17, 0.00000, 0.159564, 1.13345, 0.159787, 1.13423, 0.159552, 1.13379, 0, 0
18, 0.00000, 0.159564, 1.13345, 0.159787, 1.13423, 0.159552, 1.13379, 0, 0
19, 0.00000, 0.159564, 1.13345, 0.159787, 1.13423, 0.159552, 1.13379, 0, 0
20, 0.00000, 0.159564, 1.13345, 0.159787, 1.13423, 0.159552, 1.13379, 0, 0
21, 0.00000, 0.159564, 1.13345, 0.159787, 1.13423, 0.159552, 1.13379, 0, 0
22, 0.00000, 0.159564, 1.13345, 0.159787, 1.13423, 0.159552, 1.13379, 0, 0
23, 0.00000, 0.15957, 1.13349, 0.159792, 1.13427, 0.159558, 1.13383, 0, 0
24, 0.00000, 0.159642, 1.134, 0.15986, 1.13476, 0.159631, 1.13433, 0, 0
25, 0.00000, 0.159965, 1.13633, 0.160164, 1.13698, 0.15996, 1.13658, 0, 0
26, 0.00000, 0.160147, 1.13763, 0.160334, 1.13823, 0.160144, 1.13784, 0, 0
27, 0.00000, 0.160624, 1.14106, 0.160782, 1.1415, 0.16063, 1.14116, 0, 0
28, 0.00000, 0.16087, 1.14283, 0.161012, 1.14318, 0.160881, 1.14287, 0, 0
29, 0.00000, 0.161147, 1.14482, 0.161272, 1.14508, 0.161162, 1.1448, 0, 0
30, 0.00000, 0.161273, 1.14573, 0.161391, 1.14595, 0.161291, 1.14568, 0, 0
31, 0.00000, 0.161292, 1.14586, 0.161408, 1.14607, 0.16131, 1.1458, 0, 0
32, 0.00000, 0.161303, 1.14594, 0.161419, 1.14615, 0.161322, 1.14588, 0, 0
33, 0.00000, 0.161298, 1.14591, 0.161414, 1.14612, 0.161317, 1.14585, 0, 0
34, 0.00000, 0.16131, 1.14599, 0.161425, 1.1462, 0.161328, 1.14593, 0, 0
35, 0.00000, 0.161205, 1.14523, 0.161326, 1.14548, 0.161221, 1.1452, 0, 0
36, 0.00000, 0.161264, 1.14566, 0.161382, 1.14589, 0.161282, 1.14561, 0, 0
37, 0.00000, 0.161314, 1.14602, 0.161429, 1.14622, 0.161332, 1.14596, 0, 0
38, 0.00000, 0.161314, 1.14602, 0.161429, 1.14622, 0.161332, 1.14596, 0, 0
39, 0.00000, 0.161314, 1.14602, 0.161429, 1.14622, 0.161332, 1.14596, 0, 0
40, 0.00000, 0.161314, 1.14602, 0.161429, 1.14622, 0.161332, 1.14596, 0, 0
41, 0.00000, 0.161314, 1.14602, 0.161429, 1.14622, 0.161332, 1.14596, 0, 0
42, 0.00000, 0.161314, 1.14602, 0.161429, 1.14622, 0.161332, 1.14596, 0, 0
43, 0.00000, 0.161314, 1.14602, 0.161429, 1.14622, 0.161332, 1.14596, 0, 0
44, 0.00000, 0.161314, 1.14602, 0.161429, 1.14622, 0.161332, 1.14596, 0, 0
45, 0.00000, 0.161314, 1.14602, 0.161429, 1.14622, 0.161332, 1.14596, 0, 0
46, 0.00000, 0.161314, 1.14602, 0.161429, 1.14622, 0.161332, 1.14596, 0, 0
47, 0.00000, 0.161314, 1.14602, 0.161429, 1.14622, 0.161332, 1.14596, 0, 0
48, 0.00000, 0.161314, 1.14602, 0.161429, 1.14622, 0.161332, 1.14596, 0, 0
49, 0.00000, 0.161108, 1.14456, 0.161235, 1.14481, 0.161125, 1.14452, 0, 0
50, 0.00000, 0.161108, 1.14456, 0.161235, 1.14481, 0.161125, 1.14452, 0, 0
51, 0.00000, 0.161108, 1.14456, 0.161235, 1.14481, 0.161125, 1.14452, 0, 0
52, 0.00000, 0.161108, 1.14456, 0.161235, 1.14481, 0.161125, 1.14452, 0, 0
53, 0.00000, 0.161108, 1.14456, 0.161235, 1.14481, 0.161125, 1.14452, 0, 0
54, 0.00000, 0.161108, 1.14456, 0.161235, 1.14481, 0.161125, 1.14452, 0, 0
55, 0.00000, 0.161108, 1.14456, 0.161235, 1.14481, 0.161125, 1.14452, 0, 0
56, 0.00000, 0.161108, 1.14456, 0.161235, 1.14481, 0.161125, 1.14452, 0, 0
57, 0.00000, 0.161108, 1.14456, 0.161235, 1.14481, 0.161125, 1.14452, 0, 0
58, 0.00000, 0.161108, 1.14456, 0.161235, 1.14481, 0.161125, 1.14452, 0, 0
59, 0.00000, 0.161108, 1.14456, 0.161235, 1.14481, 0.161125, 1.14452, 0, 0
60, 0.00000, 0.161108, 1.14456, 0.161235, 1.14481, 0.161125, 1.14452, 0, 0
61, 0.00000, 0.161108, 1.14456, 0.161235, 1.14481, 0.161125, 1.14452, 0, 0
62, 0.00000, 0.161106, 1.14455, 0.161234, 1.1448, 0.161124, 1.14451, 0, 0
63, 0.00000, 0.161104, 1.14453, 0.161231, 1.14479, 0.161122, 1.14449, 0, 0
64, 0.00000, 0.161101, 1.14451, 0.161229, 1.14477, 0.161119, 1.14447, 0, 0
65, 0.00000, 0.161098, 1.14449, 0.161226, 1.14475, 0.161116, 1.14445, 0, 0
66, 0.00000, 0.161093, 1.14446, 0.161221, 1.14471, 0.161111, 1.14442, 0, 0
67, 0.00000, 0.161058, 1.1442, 0.161188, 1.14447, 0.161075, 1.14417, 0, 0
68, 0.00000, 0.160661, 1.14135, 0.160816, 1.14175, 0.160671, 1.14141, 0, 0
69, 0.00000, 0.160084, 1.1372, 0.160274, 1.13779, 0.160083, 1.1374, 0, 0
70, 0.00000, 0.159339, 1.13185, 0.159575, 1.13268, 0.159326, 1.13222, 0, 0
71, 0.00000, 0.159333, 1.13181, 0.159569, 1.13264, 0.159319, 1.13218, 0, 0
72, 0.00000, 0.159333, 1.13181, 0.159569, 1.13264, 0.159319, 1.13218, 0, 0
73, 0.00000, 0.158283, 1.12438, 0.158581, 1.12543, 0.158266, 1.12485, 0, 0
74, 0.00000, 0.158283, 1.12438, 0.15858, 1.12543, 0.158266, 1.12485, 0, 0
75, 0.00000, 0.158283, 1.12438, 0.15858, 1.12543, 0.158266, 1.12485, 0, 0
76, 0.00000, 0.158283, 1.12438, 0.15858, 1.12543, 0.158266, 1.12485, 0, 0
77, 0.00000, 0.158283, 1.12438, 0.15858, 1.12543, 0.158266, 1.12485, 0, 0
78, 0.00000, 0.158283, 1.12438, 0.15858, 1.12543, 0.158266, 1.12485, 0, 0
79, 0.00000, 0.158283, 1.12438, 0.15858, 1.12543, 0.158266, 1.12485, 0, 0
80, 0.00000, 0.158283, 1.12438, 0.15858, 1.12543, 0.158266, 1.12485, 0, 0
81, 0.00000, 0.158283, 1.12438, 0.15858, 1.12543, 0.158266, 1.12485, 0, 0
82, 0.00000, 0.158283, 1.12438, 0.15858, 1.12543, 0.158266, 1.12485, 0, 0
83, 0.00000, 0.158283, 1.12438, 0.15858, 1.12543, 0.158266, 1.12485, 0, 0
84, 0.00000, 0.158283, 1.12438, 0.15858, 1.12543, 0.158266, 1.12485, 0, 0
85, 0.00000, 0.158283, 1.12438, 0.15858, 1.12543, 0.158266, 1.12485, 0, 0
86, 0.00000, 0.158283, 1.12438, 0.15858, 1.12543, 0.158266, 1.12485, 0, 0
87, 0.00000, 0.158283, 1.12438, 0.15858, 1.12543, 0.158266, 1.12485, 0, 0
88, 0.00000, 0.158283, 1.12438, 0.15858, 1.12543, 0.158266, 1.12485, 0, 0
89, 0.00000, 0.158283, 1.12438, 0.15858, 1.12543, 0.158266, 1.12485, 0, 0
90, 0.00000, 0.158283, 1.12438, 0.15858, 1.12543, 0.158266, 1.12485, 0, 0
91, 0.00000, 0.158283, 1.12438, 0.15858, 1.12543, 0.158266, 1.12485, 0, 0
92, 0.00000, 0.158283, 1.12438, 0.15858, 1.12543, 0.158266, 1.12485, 0, 0
93, 0.00000, 0.158283, 1.12438, 0.15858, 1.12543, 0.158266, 1.12485, 0, 0
94, 0.00000, 0.158283, 1.12438, 0.15858, 1.12543, 0.158266, 1.12485, 0, 0
95, 0.00000, 0.158283, 1.12438, 0.15858, 1.12543, 0.158266, 1.12485, 0, 0
96, 0.00000, 0.158283, 1.12438, 0.15858, 1.12543, 0.158266, 1.12485, 0, 0
