hour, t(sec), P1 (kW), Q1 (kvar), P2 (kW), Q2 (kvar), P3 (kW), Q3 (kvar), P4 (kW), Q4 (kvar)
1, 0.00000, 13.521, 7.18058, 13.5276, 7.18131, 13.5254, 7.17898, 0, 0
2, 0.00000, 13.5211, 7.18063, 13.5277, 7.18136, 13.5255, 7.17903, 0, 0
3, 0.00000, 13.5211, 7.18063, 13.5277, 7.18136, 13.5255, 7.17903, 0, 0
4, 0.00000, 13.5211, 7.18063, 13.5277, 7.18136, 13.5255, 7.17903, 0, 0
5, 0.00000, 13.5211, 7.18063, 13.5277, 7.18136, 13.5255, 7.17903, 0, 0
6, 0.00000, 13.5211, 7.18063, 13.5277, 7.18136, 13.5255, 7.17903, 0, 0
7, 0.00000, 13.5211, 7.18063, 13.5277, 7.18136, 13.5255, 7.17903, 0, 0
8, 0.00000, 13.5211, 7.18063, 13.5277, 7.18136, 13.5255, 7.17903, 0, 0
9, 0.00000, 13.5211, 7.18063, 13.5277, 7.18136, 13.5255, 7.17903, 0, 0
10, 0.00000, 13.5211, 7.18063, 13.5277, 7.18136, 13.5255, 7.17903, 0, 0
11, 0.00000, 13.5211, 7.18063, 13.5277, 7.18136, 13.5255, 7.17903, 0, 0
12, 0.00000, 13.5211, 7.18063, 13.5277, 7.18136, 13.5255, 7.17903, 0, 0
13, 0.00000, 13.5211, 7.18063, 13.5277, 7.18136, 13.5255, 7.17903, 0, 0
14, 0.00000, 13.5211, 7.18063, 13.5277, 7.18136, 13.5255, 7.17903, 0, 0
15, 0.00000, 13.5211, 7.18063, 13.5277, 7.18136, 13.5255, 7.17903, 0, 0
16, 0.00000, 13.5211, 7.18063, 13.5277, 7.18136, 13.5255, 7.17903, 0, 0
17, 0.00000, 13.5211, 7.18063, 13.5277, 7.18136, 13.5255, 7.17903, 0, 0
18, 0.00000, 13.5211, 7.18063, 13.5277, 7.18136, 13.5255, 7.17903, 0, 0
19, 0.00000, 13.5211, 7.18063, 13.5277, 7.18136, 13.5255, 7.17903, 0, 0
20, 0.00000, 13.5211, 7.18063, 13.5277, 7.18136, 13.5255, 7.17903, 0, 0
21, 0.00000, 13.5211, 7.18063, 13.5277, 7.18136, 13.5255, 7.17903, 0, 0
22, 0.00000, 13.5211, 7.18063, 13.5277, 7.18136, 13.5255, 7.17903, 0, 0
23, 0.00000, 13.5211, 7.18067, 13.5277, 7.1814, 13.5255, 7.17907, 0, 0
24, 0.00000, 13.5212, 7.18101, 13.5277, 7.18164, 13.5255, 7.17939, 0, 0
25, 0.00000, 4.77592, 6.11364, 4.77855, 6.11506, 4.77784, 6.11369, 0, 0
26, 0.00000, 3.10388, 6.10336, 3.10586, 6.10486, 3.10542, 6.10366, 0, 0
27, 0.00000, -3.55944, 6.11384, -3.55919, 6.116, -3.5588, 6.11509, 0, 0
28, 0.00000, -6.75371, 6.14889, -6.75386, 6.15136, -6.7532, 6.15046, 0, 0
29, 0.00000, -6.75372, 6.15051, -6.75353, 6.15268, -6.75305, 6.15178, 0, 0
30, 0.00000, -6.75372, 6.15127, -6.75337, 6.1533, -6.75297, 6.15239, 0, 0
31, 0.00000, -6.75372, 6.1514, -6.75335, 6.15341, -6.75295, 6.1525, 0, 0
32, 0.00000, -6.75372, 6.15145, -6.75333, 6.15346, -6.75295, 6.15255, 0, 0
33, 0.00000, -6.75372, 6.15144, -6.75334, 6.15345, -6.75295, 6.15254, 0, 0
34, 0.00000, -6.75372, 6.15151, -6.75333, 6.1535, -6.75294, 6.15259, 0, 0
35, 0.00000, -6.75371, 6.15091, -6.75344, 6.15302, -6.753, 6.15211, 0, 0
36, 0.00000, -6.75372, 6.15123, -6.75338, 6.15327, -6.75297, 6.15237, 0, 0
37, 0.00000, -6.75372, 6.15153, -6.75332, 6.15352, -6.75294, 6.15261, 0, 0
38, 0.00000, -6.75372, 6.15153, -6.75332, 6.15352, -6.75294, 6.15261, 0, 0
39, 0.00000, -6.75372, 6.15153, -6.75332, 6.15352, -6.75294, 6.15261, 0, 0
40, 0.00000, -6.75372, 6.15153, -6.75332, 6.15352, -6.75294, 6.15261, 0, 0
41, 0.00000, -6.75372, 6.15153, -6.75332, 6.15352, -6.75294, 6.15261, 0, 0
42, 0.00000, -6.75372, 6.15153, -6.75332, 6.15352, -6.75294, 6.15261, 0, 0
43, 0.00000, -6.75372, 6.15153, -6.75332, 6.15352, -6.75294, 6.15261, 0, 0
44, 0.00000, -6.75372, 6.15153, -6.75332, 6.15352, -6.75294, 6.15261, 0, 0
45, 0.00000, -6.75372, 6.15153, -6.75332, 6.15352, -6.75294, 6.15261, 0, 0
46, 0.00000, -6.75372, 6.15153, -6.75332, 6.15352, -6.75294, 6.15261, 0, 0
47, 0.00000, -6.75372, 6.15153, -6.75332, 6.15352, -6.75294, 6.15261, 0, 0
48, 0.00000, -6.75372, 6.15153, -6.75332, 6.15352, -6.75294, 6.15261, 0, 0
49, 0.00000, -5.84641, 6.55794, -5.84592, 6.56002, -5.84556, 6.55905, 0, 0
50, 0.00000, -5.8464, 6.55794, -5.84592, 6.56002, -5.84556, 6.55905, 0, 0
51, 0.00000, -5.8464, 6.55794, -5.84592, 6.56002, -5.84556, 6.55905, 0, 0
52, 0.00000, -5.8464, 6.55794, -5.84592, 6.56002, -5.84556, 6.55905, 0, 0
53, 0.00000, -5.8464, 6.55794, -5.84592, 6.56002, -5.84556, 6.55905, 0, 0
54, 0.00000, -5.8464, 6.55794, -5.84592, 6.56002, -5.84556, 6.55905, 0, 0
55, 0.00000, -5.8464, 6.55794, -5.84592, 6.56002, -5.84556, 6.55905, 0, 0
56, 0.00000, -5.8464, 6.55794, -5.84592, 6.56002, -5.84556, 6.55905, 0, 0
57, 0.00000, -5.8464, 6.55794, -5.84592, 6.56002, -5.84556, 6.55905, 0, 0
58, 0.00000, -5.8464, 6.55794, -5.84592, 6.56002, -5.84556, 6.55905, 0, 0
59, 0.00000, -5.8464, 6.55794, -5.84592, 6.56002, -5.84556, 6.55905, 0, 0
60, 0.00000, -5.8464, 6.55794, -5.84592, 6.56002, -5.84556, 6.55905, 0, 0
61, 0.00000, -5.8464, 6.55794, -5.84592, 6.56002, -5.84556, 6.55905, 0, 0
62, 0.00000, -5.8464, 6.55793, -5.84592, 6.56001, -5.84556, 6.55904, 0, 0
63, 0.00000, -5.8464, 6.55792, -5.84592, 6.56, -5.84556, 6.55903, 0, 0
64, 0.00000, -5.8464, 6.5579, -5.84592, 6.55998, -5.84556, 6.55901, 0, 0
65, 0.00000, -5.8464, 6.55788, -5.84593, 6.55997, -5.84556, 6.559, 0, 0
66, 0.00000, -5.8464, 6.55786, -5.84593, 6.55995, -5.84556, 6.55898, 0, 0
67, 0.00000, -5.84641, 6.55765, -5.84597, 6.55978, -5.84558, 6.55881, 0, 0
68, 0.00000, -5.84644, 6.55533, -5.84642, 6.55793, -5.8458, 6.55694, 0, 0
69, 0.00000, 2.34815, 6.5187, 2.35003, 6.52043, 2.34969, 6.51918, 0, 0
70, 0.00000, 12.412, 6.64933, 12.4185, 6.65011, 12.4163, 6.64781, 0, 0
71, 0.00000, 12.4123, 6.64946, 12.4188, 6.65024, 12.4166, 6.64793, 0, 0
72, 0.00000, 12.4124, 6.64947, 12.4189, 6.65025, 12.4167, 6.64794, 0, 0
73, 0.00000, 18.5244, 9.59849, 18.5366, 9.5996, 18.5326, 9.59544, 0, 0
74, 0.00000, 18.5252, 9.59902, 18.5375, 9.60013, 18.5335, 9.59596, 0, 0
75, 0.00000, 18.5252, 9.59903, 18.5375, 9.60013, 18.5335, 9.59596, 0, 0
76, 0.00000, 18.5252, 9.59903, 18.5375, 9.60013, 18.5335, 9.59596, 0, 0
77, 0.00000, 18.5252, 9.59903, 18.5375, 9.60013, 18.5335, 9.59596, 0, 0
78, 0.00000, 18.5252, 9.59903, 18.5375, 9.60013, 18.5335, 9.59596, 0, 0
79, 0.00000, 18.5252, 9.59903, 18.5375, 9.60013, 18.5335, 9.59596, 0, 0
80, 0.00000, 18.5252, 9.59903, 18.5375, 9.60013, 18.5335, 9.59596, 0, 0
81, 0.00000, 18.5252, 9.59903, 18.5375, 9.60013, 18.5335, 9.59596, 0, 0
82, 0.00000, 18.5252, 9.59903, 18.5375, 9.60013, 18.5335, 9.59596, 0, 0
83, 0.00000, 18.5252, 9.59903, 18.5375, 9.60013, 18.5335, 9.59596, 0, 0
84, 0.00000, 18.5252, 9.59903, 18.5375, 9.60013, 18.5335, 9.59596, 0, 0
85, 0.00000, 18.5252, 9.59903, 18.5375, 9.60013, 18.5335, 9.59596, 0, 0
86, 0.00000, 18.5252, 9.59903, 18.5375, 9.60013, 18.5335, 9.59596, 0, 0
87, 0.00000, 18.5252, 9.59903, 18.5375, 9.60013, 18.5335, 9.59596, 0, 0
88, 0.00000, 18.5252, 9.59903, 18.5375, 9.60013, 18.5335, 9.59596, 0, 0
89, 0.00000, 18.5252, 9.59903, 18.5375, 9.60013, 18.5335, 9.59596, 0, 0
90, 0.00000, 18.5252, 9.59903, 18.5375, 9.60013, 18.5335, 9.59596, 0, 0
91, 0.00000, 18.5252, 9.59903, 18.5375, 9.60013, 18.5335, 9.59596, 0, 0
92, 0.00000, 18.5252, 9.59903, 18.5375, 9.60013, 18.5335, 9.59596, 0, 0
93, 0.00000, 18.5252, 9.59903, 18.5375, 9.60013, 18.5335, 9.59596, 0, 0
94, 0.00000, 18.5252, 9.59903, 18.5375, 9.60013, 18.5335, 9.59596, 0, 0
95, 0.00000, 18.5252, 9.59903, 18.5375, 9.60013, 18.5335, 9.59596, 0, 0
96, 0.00000, 18.5252, 9.59903, 18.5375, 9.60013, 18.5335, 9.59596, 0, 0
