hour, t(sec), P1 (kW), Q1 (kvar), P2 (kW), Q2 (kvar), P3 (kW), Q3 (kvar), P4 (kW), Q4 (kvar)
1, 0.00000, 47.7356, 6.03058, 47.7528, 6.02399, 47.7507, 6.02203, 0, 0
2, 0.00000, 47.7356, 6.03058, 47.7528, 6.02399, 47.7507, 6.02203, 0, 0
3, 0.00000, 47.7356, 6.03058, 47.7528, 6.02399, 47.7507, 6.02203, 0, 0
4, 0.00000, 47.7356, 6.03058, 47.7528, 6.02399, 47.7507, 6.02203, 0, 0
5, 0.00000, 47.7356, 6.03058, 47.7528, 6.02399, 47.7507, 6.02203, 0, 0
6, 0.00000, 47.7356, 6.03058, 47.7528, 6.02399, 47.7507, 6.02203, 0, 0
7, 0.00000, 47.7356, 6.03058, 47.7528, 6.02399, 47.7507, 6.02203, 0, 0
8, 0.00000, 47.7356, 6.03058, 47.7528, 6.02399, 47.7507, 6.02203, 0, 0
9, 0.00000, 47.7356, 6.03058, 47.7528, 6.02399, 47.7507, 6.02203, 0, 0
10, 0.00000, 47.7356, 6.03058, 47.7528, 6.02399, 47.7507, 6.02203, 0, 0
11, 0.00000, 47.7356, 6.03058, 47.7528, 6.02399, 47.7507, 6.02203, 0, 0
12, 0.00000, 47.7356, 6.03058, 47.7528, 6.02399, 47.7507, 6.02203, 0, 0
13, 0.00000, 47.7356, 6.03058, 47.7528, 6.02399, 47.7507, 6.02203, 0, 0
14, 0.00000, 47.7356, 6.03058, 47.7528, 6.02399, 47.7507, 6.02203, 0, 0
15, 0.00000, 47.7356, 6.03058, 47.7528, 6.02399, 47.7507, 6.02203, 0, 0
16, 0.00000, 47.7356, 6.03058, 47.7528, 6.02399, 47.7507, 6.02203, 0, 0
17, 0.00000, 47.7356, 6.03058, 47.7528, 6.02399, 47.7507, 6.02203, 0, 0
18, 0.00000, 47.7356, 6.03058, 47.7528, 6.02399, 47.7507, 6.02203, 0, 0
19, 0.00000, 47.7356, 6.03058, 47.7528, 6.02399, 47.7507, 6.02203, 0, 0
20, 0.00000, 47.7356, 6.03058, 47.7528, 6.02399, 47.7507, 6.02203, 0, 0
21, 0.00000, 47.7356, 6.03058, 47.7528, 6.02399, 47.7507, 6.02203, 0, 0
22, 0.00000, 47.7356, 6.03058, 47.7528, 6.02399, 47.7507, 6.02203, 0, 0
23, 0.00000, 47.7356, 6.03058, 47.7528, 6.02399, 47.7507, 6.02203, 0, 0
24, 0.00000, 47.7356, 6.03058, 47.7528, 6.02399, 47.7507, 6.02203, 0, 0
25, 0.00000, 33.9073, -1.17293, 33.9188, -1.18012, 33.9177, -1.18014, 0, 0
26, 0.00000, 33.9073, -1.17295, 33.9187, -1.18015, 33.9177, -1.18017, 0, 0
27, 0.00000, 33.9073, -1.17295, 33.9187, -1.18015, 33.9177, -1.18017, 0, 0
28, 0.00000, 33.9073, -1.17295, 33.9187, -1.18015, 33.9177, -1.18017, 0, 0
29, 0.00000, 33.9073, -1.17295, 33.9187, -1.18015, 33.9177, -1.18017, 0, 0
30, 0.00000, 33.9073, -1.17295, 33.9187, -1.18015, 33.9177, -1.18017, 0, 0
31, 0.00000, 33.9073, -1.17295, 33.9187, -1.18015, 33.9177, -1.18017, 0, 0
32, 0.00000, 33.9073, -1.17295, 33.9187, -1.18015, 33.9177, -1.18017, 0, 0
33, 0.00000, 33.9073, -1.17295, 33.9187, -1.18015, 33.9177, -1.18017, 0, 0
34, 0.00000, 33.9073, -1.17295, 33.9187, -1.18015, 33.9177, -1.18017, 0, 0
35, 0.00000, 33.9073, -1.17295, 33.9187, -1.18015, 33.9177, -1.18017, 0, 0
36, 0.00000, 33.9073, -1.17295, 33.9187, -1.18015, 33.9177, -1.18017, 0, 0
37, 0.00000, 33.9073, -1.17295, 33.9187, -1.18015, 33.9177, -1.18017, 0, 0
38, 0.00000, 33.9073, -1.17295, 33.9187, -1.18015, 33.9177, -1.18017, 0, 0
39, 0.00000, 33.9073, -1.17295, 33.9187, -1.18015, 33.9177, -1.18017, 0, 0
40, 0.00000, 33.9073, -1.17295, 33.9187, -1.18015, 33.9177, -1.18017, 0, 0
41, 0.00000, 33.9073, -1.17295, 33.9187, -1.18015, 33.9177, -1.18017, 0, 0
42, 0.00000, 33.9073, -1.17295, 33.9187, -1.18015, 33.9177, -1.18017, 0, 0
43, 0.00000, 33.9073, -1.17295, 33.9187, -1.18015, 33.9177, -1.18017, 0, 0
44, 0.00000, 33.9073, -1.17295, 33.9187, -1.18015, 33.9177, -1.18017, 0, 0
45, 0.00000, 33.9073, -1.17295, 33.9187, -1.18015, 33.9177, -1.18017, 0, 0
46, 0.00000, 33.9073, -1.17295, 33.9187, -1.18015, 33.9177, -1.18017, 0, 0
47, 0.00000, 33.9073, -1.17295, 33.9187, -1.18015, 33.9177, -1.18017, 0, 0
48, 0.00000, 33.9073, -1.17295, 33.9187, -1.18015, 33.9177, -1.18017, 0, 0
49, 0.00000, 37.3431, 0.598488, 37.3565, 0.591132, 37.3551, 0.590663, 0, 0
50, 0.00000, 37.343, 0.598445, 37.3564, 0.59109, 37.355, 0.59062, 0, 0
51, 0.00000, 37.343, 0.598444, 37.3564, 0.591089, 37.355, 0.59062, 0, 0
52, 0.00000, 37.343, 0.598444, 37.3564, 0.591089, 37.355, 0.59062, 0, 0
53, 0.00000, 37.343, 0.598444, 37.3564, 0.591089, 37.355, 0.59062, 0, 0
54, 0.00000, 37.343, 0.598444, 37.3564, 0.591089, 37.355, 0.59062, 0, 0
55, 0.00000, 37.343, 0.598444, 37.3564, 0.591089, 37.355, 0.59062, 0, 0
56, 0.00000, 37.343, 0.598444, 37.3564, 0.591089, 37.355, 0.59062, 0, 0
57, 0.00000, 37.343, 0.598444, 37.3564, 0.591089, 37.355, 0.59062, 0, 0
58, 0.00000, 37.343, 0.598444, 37.3564, 0.591089, 37.355, 0.59062, 0, 0
59, 0.00000, 37.343, 0.598444, 37.3564, 0.591089, 37.355, 0.59062, 0, 0
60, 0.00000, 37.343, 0.598444, 37.3564, 0.591089, 37.355, 0.59062, 0, 0
61, 0.00000, 37.343, 0.598444, 37.3564, 0.591089, 37.355, 0.59062, 0, 0
62, 0.00000, 37.343, 0.598444, 37.3564, 0.591089, 37.355, 0.59062, 0, 0
63, 0.00000, 37.343, 0.598444, 37.3564, 0.591089, 37.355, 0.59062, 0, 0
64, 0.00000, 37.343, 0.598444, 37.3564, 0.591089, 37.355, 0.59062, 0, 0
65, 0.00000, 37.343, 0.598444, 37.3564, 0.591089, 37.355, 0.59062, 0, 0
66, 0.00000, 37.343, 0.598444, 37.3564, 0.591089, 37.355, 0.59062, 0, 0
67, 0.00000, 37.343, 0.598444, 37.3564, 0.591089, 37.355, 0.59062, 0, 0
68, 0.00000, 37.343, 0.598444, 37.3564, 0.591089, 37.355, 0.59062, 0, 0
69, 0.00000, 37.343, 0.598444, 37.3564, 0.591089, 37.355, 0.59062, 0, 0
70, 0.00000, 37.343, 0.598444, 37.3564, 0.591089, 37.355, 0.59062, 0, 0
71, 0.00000, 37.343, 0.598444, 37.3564, 0.591089, 37.355, 0.59062, 0, 0
72, 0.00000, 37.343, 0.598444, 37.3564, 0.591089, 37.355, 0.59062, 0, 0
73, 0.00000, 68.2765, 17.5324, 68.3299, 17.5408, 68.301, 17.5454, 0, 0
74, 0.00000, 68.2765, 17.5324, 68.3299, 17.5408, 68.301, 17.5454, 0, 0
75, 0.00000, 68.2765, 17.5324, 68.3299, 17.5408, 68.301, 17.5454, 0, 0
76, 0.00000, 68.2765, 17.5324, 68.3299, 17.5408, 68.301, 17.5454, 0, 0
77, 0.00000, 68.2765, 17.5324, 68.3299, 17.5408, 68.301, 17.5454, 0, 0
78, 0.00000, 68.2765, 17.5324, 68.3299, 17.5408, 68.301, 17.5454, 0, 0
79, 0.00000, 68.2765, 17.5324, 68.3299, 17.5408, 68.301, 17.5454, 0, 0
80, 0.00000, 68.2765, 17.5324, 68.3299, 17.5408, 68.301, 17.5454, 0, 0
81, 0.00000, 68.2765, 17.5324, 68.3299, 17.5408, 68.301, 17.5454, 0, 0
82, 0.00000, 68.2765, 17.5324, 68.3299, 17.5408, 68.301, 17.5454, 0, 0
83, 0.00000, 68.2765, 17.5324, 68.3299, 17.5408, 68.301, 17.5454, 0, 0
84, 0.00000, 68.2765, 17.5324, 68.3299, 17.5408, 68.301, 17.5454, 0, 0
85, 0.00000, 68.2765, 17.5324, 68.3299, 17.5408, 68.301, 17.5454, 0, 0
86, 0.00000, 68.2765, 17.5324, 68.3299, 17.5408, 68.301, 17.5454, 0, 0
87, 0.00000, 68.2765, 17.5324, 68.3299, 17.5408, 68.301, 17.5454, 0, 0
88, 0.00000, 68.2765, 17.5324, 68.3299, 17.5408, 68.301, 17.5454, 0, 0
89, 0.00000, 68.2765, 17.5324, 68.3299, 17.5408, 68.301, 17.5454, 0, 0
90, 0.00000, 68.2765, 17.5324, 68.3299, 17.5408, 68.301, 17.5454, 0, 0
91, 0.00000, 68.2765, 17.5324, 68.3299, 17.5408, 68.301, 17.5454, 0, 0
92, 0.00000, 68.2765, 17.5324, 68.3299, 17.5408, 68.301, 17.5454, 0, 0
93, 0.00000, 68.2765, 17.5324, 68.3299, 17.5408, 68.301, 17.5454, 0, 0
94, 0.00000, 68.2765, 17.5324, 68.3299, 17.5408, 68.301, 17.5454, 0, 0
95, 0.00000, 68.2765, 17.5324, 68.3299, 17.5408, 68.301, 17.5454, 0, 0
96, 0.00000, 68.2765, 17.5324, 68.3299, 17.5408, 68.301, 17.5454, 0, 0
