hour, t(sec), P1 (kW), Q1 (kvar), P2 (kW), Q2 (kvar), P3 (kW), Q3 (kvar), P4 (kW), Q4 (kvar)
1, 0.00000, 0.0977676, 0.669482, 0.0978428, 0.669782, 0.0977589, 0.669646, 0, 0
2, 0.00000, 0.0977676, 0.669482, 0.0978428, 0.669782, 0.0977589, 0.669646, 0, 0
3, 0.00000, 0.0977676, 0.669482, 0.0978428, 0.669782, 0.0977589, 0.669646, 0, 0
4, 0.00000, 0.0977676, 0.669482, 0.0978428, 0.669782, 0.0977589, 0.669646, 0, 0
5, 0.00000, 0.0977676, 0.669482, 0.0978428, 0.669782, 0.0977589, 0.669646, 0, 0
6, 0.00000, 0.0977676, 0.669482, 0.0978428, 0.669782, 0.0977589, 0.669646, 0, 0
7, 0.00000, 0.0977676, 0.669482, 0.0978428, 0.669782, 0.0977589, 0.669646, 0, 0
8, 0.00000, 0.0977676, 0.669482, 0.0978428, 0.669782, 0.0977589, 0.669646, 0, 0
9, 0.00000, 0.0977676, 0.669482, 0.0978428, 0.669782, 0.0977589, 0.669646, 0, 0
10, 0.00000, 0.0977676, 0.669482, 0.0978428, 0.669782, 0.0977589, 0.669646, 0, 0
11, 0.00000, 0.0977676, 0.669482, 0.0978428, 0.669782, 0.0977589, 0.669646, 0, 0
12, 0.00000, 0.0977676, 0.669482, 0.0978428, 0.669782, 0.0977589, 0.669646, 0, 0
13, 0.00000, 0.0977676, 0.669482, 0.0978428, 0.669782, 0.0977589, 0.669646, 0, 0
14, 0.00000, 0.0977676, 0.669482, 0.0978428, 0.669782, 0.0977589, 0.669646, 0, 0
15, 0.00000, 0.0977676, 0.669482, 0.0978428, 0.669782, 0.0977589, 0.669646, 0, 0
16, 0.00000, 0.0977676, 0.669482, 0.0978428, 0.669782, 0.0977589, 0.669646, 0, 0
17, 0.00000, 0.0977676, 0.669482, 0.0978428, 0.669782, 0.0977589, 0.669646, 0, 0
18, 0.00000, 0.0977676, 0.669482, 0.0978428, 0.669782, 0.0977589, 0.669646, 0, 0
19, 0.00000, 0.0977676, 0.669482, 0.0978428, 0.669782, 0.0977589, 0.669646, 0, 0
20, 0.00000, 0.0977676, 0.669482, 0.0978428, 0.669782, 0.0977589, 0.669646, 0, 0
21, 0.00000, 0.0977676, 0.669482, 0.0978428, 0.669782, 0.0977589, 0.669646, 0, 0
22, 0.00000, 0.0977676, 0.669482, 0.0978428, 0.669782, 0.0977589, 0.669646, 0, 0
23, 0.00000, 0.0978431, 0.669998, 0.0979149, 0.670286, 0.0978347, 0.670156, 0, 0
24, 0.00000, 0.0979948, 0.671035, 0.09806, 0.671298, 0.0979869, 0.671181, 0, 0
25, 0.00000, 0.0982711, 0.672922, 0.0983238, 0.673141, 0.098264, 0.673047, 0, 0
26, 0.00000, 0.0983458, 0.673434, 0.0983953, 0.67364, 0.0983391, 0.673552, 0, 0
27, 0.00000, 0.0985575, 0.674881, 0.0985976, 0.675052, 0.0985515, 0.674982, 0, 0
28, 0.00000, 0.0986114, 0.675249, 0.0986491, 0.675411, 0.0986056, 0.675346, 0, 0
29, 0.00000, 0.0986396, 0.675443, 0.098676, 0.6756, 0.0986339, 0.675536, 0, 0
30, 0.00000, 0.0986646, 0.675613, 0.0986998, 0.675766, 0.098659, 0.675705, 0, 0
31, 0.00000, 0.0986763, 0.675693, 0.098711, 0.675844, 0.0986707, 0.675784, 0, 0
32, 0.00000, 0.0987, 0.675855, 0.0987336, 0.676002, 0.0986945, 0.675944, 0, 0
33, 0.00000, 0.098691, 0.675793, 0.0987249, 0.675942, 0.0986854, 0.675883, 0, 0
34, 0.00000, 0.0987, 0.675855, 0.0987336, 0.676002, 0.0986945, 0.675944, 0, 0
35, 0.00000, 0.0986552, 0.675547, 0.0986907, 0.675703, 0.0986493, 0.675641, 0, 0
36, 0.00000, 0.0986663, 0.675623, 0.0987013, 0.675777, 0.0986605, 0.675716, 0, 0
37, 0.00000, 0.0987, 0.675855, 0.0987335, 0.676002, 0.0986945, 0.675944, 0, 0
38, 0.00000, 0.0987, 0.675855, 0.0987336, 0.676002, 0.0986945, 0.675944, 0, 0
39, 0.00000, 0.0987, 0.675855, 0.0987336, 0.676002, 0.0986945, 0.675944, 0, 0
40, 0.00000, 0.0987, 0.675855, 0.0987336, 0.676002, 0.0986945, 0.675944, 0, 0
41, 0.00000, 0.0987, 0.675855, 0.0987336, 0.676002, 0.0986945, 0.675944, 0, 0
42, 0.00000, 0.0987, 0.675855, 0.0987336, 0.676002, 0.0986945, 0.675944, 0, 0
43, 0.00000, 0.0987, 0.675855, 0.0987336, 0.676002, 0.0986945, 0.675944, 0, 0
44, 0.00000, 0.0987, 0.675855, 0.0987336, 0.676002, 0.0986945, 0.675944, 0, 0
45, 0.00000, 0.0987, 0.675855, 0.0987336, 0.676002, 0.0986945, 0.675944, 0, 0
46, 0.00000, 0.0987, 0.675855, 0.0987336, 0.676002, 0.0986945, 0.675944, 0, 0
47, 0.00000, 0.0987, 0.675855, 0.0987336, 0.676002, 0.0986945, 0.675944, 0, 0
48, 0.00000, 0.0987, 0.675855, 0.0987336, 0.676002, 0.0986945, 0.675944, 0, 0
49, 0.00000, 0.0986117, 0.675252, 0.0986492, 0.675413, 0.098606, 0.675347, 0, 0
50, 0.00000, 0.0986117, 0.675252, 0.0986492, 0.675413, 0.098606, 0.675347, 0, 0
51, 0.00000, 0.0986117, 0.675252, 0.0986492, 0.675413, 0.098606, 0.675347, 0, 0
52, 0.00000, 0.0986117, 0.675252, 0.0986492, 0.675413, 0.098606, 0.675347, 0, 0
53, 0.00000, 0.0986117, 0.675252, 0.0986492, 0.675413, 0.098606, 0.675347, 0, 0
54, 0.00000, 0.0986117, 0.675252, 0.0986492, 0.675413, 0.098606, 0.675347, 0, 0
55, 0.00000, 0.0986117, 0.675252, 0.0986492, 0.675413, 0.098606, 0.675347, 0, 0
56, 0.00000, 0.0986117, 0.675252, 0.0986492, 0.675413, 0.098606, 0.675347, 0, 0
57, 0.00000, 0.0986117, 0.675252, 0.0986492, 0.675413, 0.098606, 0.675347, 0, 0
58, 0.00000, 0.0986117, 0.675252, 0.0986492, 0.675413, 0.098606, 0.675347, 0, 0
59, 0.00000, 0.0986117, 0.675252, 0.0986492, 0.675413, 0.098606, 0.675347, 0, 0
60, 0.00000, 0.0986117, 0.675252, 0.0986492, 0.675413, 0.098606, 0.675347, 0, 0
61, 0.00000, 0.0986117, 0.675252, 0.0986492, 0.675413, 0.098606, 0.675347, 0, 0
62, 0.00000, 0.0986117, 0.675252, 0.0986492, 0.675413, 0.098606, 0.675347, 0, 0
63, 0.00000, 0.0986117, 0.675252, 0.0986492, 0.675413, 0.098606, 0.675347, 0, 0
64, 0.00000, 0.0986117, 0.675252, 0.0986492, 0.675413, 0.098606, 0.675347, 0, 0
65, 0.00000, 0.0986117, 0.675252, 0.0986492, 0.675413, 0.098606, 0.675347, 0, 0
66, 0.00000, 0.0986087, 0.675231, 0.0986463, 0.675393, 0.0986029, 0.675327, 0, 0
67, 0.00000, 0.098578, 0.67502, 0.0986169, 0.675188, 0.0985719, 0.67512, 0, 0
68, 0.00000, 0.0985362, 0.674733, 0.0985771, 0.674909, 0.0985298, 0.674838, 0, 0
69, 0.00000, 0.0983782, 0.673645, 0.0984262, 0.673855, 0.0983703, 0.673773, 0, 0
70, 0.00000, 0.0980299, 0.671242, 0.0980934, 0.671531, 0.0980182, 0.671424, 0, 0
71, 0.00000, 0.0979762, 0.670872, 0.0980421, 0.671173, 0.0979639, 0.671062, 0, 0
72, 0.00000, 0.0979762, 0.670872, 0.0980421, 0.671173, 0.0979639, 0.671062, 0, 0
73, 0.00000, 0.0974513, 0.667289, 0.0975402, 0.667669, 0.0974377, 0.667514, 0, 0
74, 0.00000, 0.0974513, 0.667289, 0.0975402, 0.667669, 0.0974377, 0.667514, 0, 0
75, 0.00000, 0.0974513, 0.667289, 0.0975402, 0.667669, 0.0974377, 0.667514, 0, 0
76, 0.00000, 0.0974513, 0.667289, 0.0975402, 0.667669, 0.0974377, 0.667514, 0, 0
77, 0.00000, 0.0974513, 0.667289, 0.0975402, 0.667669, 0.0974377, 0.667514, 0, 0
78, 0.00000, 0.0974513, 0.667289, 0.0975402, 0.667669, 0.0974377, 0.667514, 0, 0
79, 0.00000, 0.0974513, 0.667289, 0.0975402, 0.667669, 0.0974377, 0.667514, 0, 0
80, 0.00000, 0.0974513, 0.667289, 0.0975402, 0.667669, 0.0974377, 0.667514, 0, 0
81, 0.00000, 0.0974513, 0.667289, 0.0975402, 0.667669, 0.0974377, 0.667514, 0, 0
82, 0.00000, 0.0974513, 0.667289, 0.0975402, 0.667669, 0.0974377, 0.667514, 0, 0
83, 0.00000, 0.0974513, 0.667289, 0.0975402, 0.667669, 0.0974377, 0.667514, 0, 0
84, 0.00000, 0.0974513, 0.667289, 0.0975402, 0.667669, 0.0974377, 0.667514, 0, 0
85, 0.00000, 0.0974513, 0.667289, 0.0975402, 0.667669, 0.0974377, 0.667514, 0, 0
86, 0.00000, 0.0974513, 0.667289, 0.0975402, 0.667669, 0.0974377, 0.667514, 0, 0
87, 0.00000, 0.0974513, 0.667289, 0.0975402, 0.667669, 0.0974377, 0.667514, 0, 0
88, 0.00000, 0.0974513, 0.667289, 0.0975402, 0.667669, 0.0974377, 0.667514, 0, 0
89, 0.00000, 0.0974513, 0.667289, 0.0975402, 0.667669, 0.0974377, 0.667514, 0, 0
90, 0.00000, 0.0974513, 0.667289, 0.0975402, 0.667669, 0.0974377, 0.667514, 0, 0
91, 0.00000, 0.0974513, 0.667289, 0.0975402, 0.667669, 0.0974377, 0.667514, 0, 0
92, 0.00000, 0.0974513, 0.667289, 0.0975402, 0.667669, 0.0974377, 0.667514, 0, 0
93, 0.00000, 0.0974513, 0.667289, 0.0975402, 0.667669, 0.0974377, 0.667514, 0, 0
94, 0.00000, 0.0974513, 0.667289, 0.0975402, 0.667669, 0.0974377, 0.667514, 0, 0
95, 0.00000, 0.0974513, 0.667289, 0.0975402, 0.667669, 0.0974377, 0.667514, 0, 0
96, 0.00000, 0.0974513, 0.667289, 0.0975402, 0.667669, 0.0974377, 0.667514, 0, 0
