hour, t(sec), P1 (kW), Q1 (kvar), P2 (kW), Q2 (kvar), P3 (kW), Q3 (kvar), P4 (kW), Q4 (kvar)
1, 0.00000, 0.097355, 0.666655, 0.0974539, 0.66705, 0.0973434, 0.666872, 0, 0
2, 0.00000, 0.097355, 0.666655, 0.0974539, 0.66705, 0.0973434, 0.666872, 0, 0
3, 0.00000, 0.097355, 0.666655, 0.0974539, 0.66705, 0.0973434, 0.666872, 0, 0
4, 0.00000, 0.097355, 0.666655, 0.0974539, 0.66705, 0.0973434, 0.666872, 0, 0
5, 0.00000, 0.097355, 0.666655, 0.0974539, 0.66705, 0.0973434, 0.666872, 0, 0
6, 0.00000, 0.097355, 0.666655, 0.0974539, 0.66705, 0.0973434, 0.666872, 0, 0
7, 0.00000, 0.097355, 0.666655, 0.0974539, 0.66705, 0.0973434, 0.666872, 0, 0
8, 0.00000, 0.097355, 0.666655, 0.0974539, 0.66705, 0.0973434, 0.666872, 0, 0
9, 0.00000, 0.097355, 0.666655, 0.0974539, 0.66705, 0.0973434, 0.666872, 0, 0
10, 0.00000, 0.097355, 0.666655, 0.0974539, 0.66705, 0.0973434, 0.666872, 0, 0
11, 0.00000, 0.097355, 0.666655, 0.0974539, 0.66705, 0.0973434, 0.666872, 0, 0
12, 0.00000, 0.097355, 0.666655, 0.0974539, 0.66705, 0.0973434, 0.666872, 0, 0
13, 0.00000, 0.097355, 0.666655, 0.0974539, 0.66705, 0.0973434, 0.666872, 0, 0
14, 0.00000, 0.097355, 0.666655, 0.0974539, 0.66705, 0.0973434, 0.666872, 0, 0
15, 0.00000, 0.097355, 0.666655, 0.0974539, 0.66705, 0.0973434, 0.666872, 0, 0
16, 0.00000, 0.097355, 0.666655, 0.0974539, 0.66705, 0.0973434, 0.666872, 0, 0
17, 0.00000, 0.097355, 0.666655, 0.0974539, 0.66705, 0.0973434, 0.666872, 0, 0
18, 0.00000, 0.097355, 0.666655, 0.0974539, 0.66705, 0.0973434, 0.666872, 0, 0
19, 0.00000, 0.097355, 0.666655, 0.0974539, 0.66705, 0.0973434, 0.666872, 0, 0
20, 0.00000, 0.097355, 0.666655, 0.0974539, 0.66705, 0.0973434, 0.666872, 0, 0
21, 0.00000, 0.097355, 0.666655, 0.0974539, 0.66705, 0.0973434, 0.666872, 0, 0
22, 0.00000, 0.097355, 0.666655, 0.0974539, 0.66705, 0.0973434, 0.666872, 0, 0
23, 0.00000, 0.097435, 0.667202, 0.0975302, 0.667583, 0.0974237, 0.667412, 0, 0
24, 0.00000, 0.0976135, 0.668421, 0.0977006, 0.668773, 0.0976028, 0.668617, 0, 0
25, 0.00000, 0.097958, 0.670775, 0.0980288, 0.671068, 0.0979485, 0.670942, 0, 0
26, 0.00000, 0.0980489, 0.671397, 0.0981155, 0.671674, 0.0980398, 0.671556, 0, 0
27, 0.00000, 0.0983112, 0.673189, 0.0983655, 0.673421, 0.098303, 0.673326, 0, 0
28, 0.00000, 0.0983772, 0.673641, 0.0984285, 0.673861, 0.0983694, 0.673772, 0, 0
29, 0.00000, 0.098413, 0.673885, 0.0984624, 0.674099, 0.0984052, 0.674013, 0, 0
30, 0.00000, 0.0984462, 0.674112, 0.0984939, 0.67432, 0.0984385, 0.674237, 0, 0
31, 0.00000, 0.0984625, 0.674223, 0.0985094, 0.674428, 0.0984549, 0.674347, 0, 0
32, 0.00000, 0.0984953, 0.674448, 0.0985406, 0.674646, 0.0984878, 0.674568, 0, 0
33, 0.00000, 0.0984828, 0.674362, 0.0985287, 0.674563, 0.0984752, 0.674484, 0, 0
34, 0.00000, 0.0984953, 0.674448, 0.0985406, 0.674646, 0.0984878, 0.674568, 0, 0
35, 0.00000, 0.098434, 0.674026, 0.0984823, 0.674238, 0.098426, 0.674155, 0, 0
36, 0.00000, 0.0984487, 0.674128, 0.0984963, 0.674336, 0.0984408, 0.674255, 0, 0
37, 0.00000, 0.0984953, 0.674447, 0.0985406, 0.674646, 0.0984878, 0.674568, 0, 0
38, 0.00000, 0.0984953, 0.674448, 0.0985406, 0.674646, 0.0984878, 0.674568, 0, 0
39, 0.00000, 0.0984953, 0.674448, 0.0985406, 0.674646, 0.0984878, 0.674568, 0, 0
40, 0.00000, 0.0984953, 0.674448, 0.0985406, 0.674646, 0.0984878, 0.674568, 0, 0
41, 0.00000, 0.0984953, 0.674448, 0.0985406, 0.674646, 0.0984878, 0.674568, 0, 0
42, 0.00000, 0.0984953, 0.674448, 0.0985406, 0.674646, 0.0984878, 0.674568, 0, 0
43, 0.00000, 0.0984953, 0.674448, 0.0985406, 0.674646, 0.0984878, 0.674568, 0, 0
44, 0.00000, 0.0984953, 0.674448, 0.0985406, 0.674646, 0.0984878, 0.674568, 0, 0
45, 0.00000, 0.0984953, 0.674448, 0.0985406, 0.674646, 0.0984878, 0.674568, 0, 0
46, 0.00000, 0.0984953, 0.674448, 0.0985406, 0.674646, 0.0984878, 0.674568, 0, 0
47, 0.00000, 0.0984953, 0.674448, 0.0985406, 0.674646, 0.0984878, 0.674568, 0, 0
48, 0.00000, 0.0984953, 0.674448, 0.0985406, 0.674646, 0.0984878, 0.674568, 0, 0
49, 0.00000, 0.0983891, 0.673723, 0.0984394, 0.673939, 0.0983813, 0.673852, 0, 0
50, 0.00000, 0.0983891, 0.673723, 0.0984394, 0.673939, 0.0983813, 0.673852, 0, 0
51, 0.00000, 0.0983891, 0.673723, 0.0984394, 0.673939, 0.0983813, 0.673852, 0, 0
52, 0.00000, 0.0983891, 0.673723, 0.0984394, 0.673939, 0.0983813, 0.673852, 0, 0
53, 0.00000, 0.0983891, 0.673723, 0.0984394, 0.673939, 0.0983813, 0.673852, 0, 0
54, 0.00000, 0.0983891, 0.673723, 0.0984394, 0.673939, 0.0983813, 0.673852, 0, 0
55, 0.00000, 0.0983891, 0.673723, 0.0984394, 0.673939, 0.0983813, 0.673852, 0, 0
56, 0.00000, 0.0983891, 0.673723, 0.0984394, 0.673939, 0.0983813, 0.673852, 0, 0
57, 0.00000, 0.0983891, 0.673723, 0.0984394, 0.673939, 0.0983813, 0.673852, 0, 0
58, 0.00000, 0.0983891, 0.673723, 0.0984394, 0.673939, 0.0983813, 0.673852, 0, 0
59, 0.00000, 0.0983891, 0.673723, 0.0984394, 0.673939, 0.0983813, 0.673852, 0, 0
60, 0.00000, 0.0983891, 0.673723, 0.0984394, 0.673939, 0.0983813, 0.673852, 0, 0
61, 0.00000, 0.0983891, 0.673723, 0.0984394, 0.673939, 0.0983813, 0.673852, 0, 0
62, 0.00000, 0.0983891, 0.673723, 0.0984394, 0.673939, 0.0983813, 0.673852, 0, 0
63, 0.00000, 0.0983891, 0.673723, 0.0984394, 0.673939, 0.0983813, 0.673852, 0, 0
64, 0.00000, 0.0983891, 0.673723, 0.0984394, 0.673939, 0.0983813, 0.673852, 0, 0
65, 0.00000, 0.0983891, 0.673723, 0.0984394, 0.673939, 0.0983813, 0.673852, 0, 0
66, 0.00000, 0.098385, 0.673694, 0.0984355, 0.673912, 0.0983772, 0.673824, 0, 0
67, 0.00000, 0.0983426, 0.673403, 0.0983951, 0.673629, 0.0983344, 0.673538, 0, 0
68, 0.00000, 0.0982884, 0.67303, 0.0983436, 0.673269, 0.0982797, 0.673173, 0, 0
69, 0.00000, 0.0980902, 0.671665, 0.0981547, 0.671948, 0.0980795, 0.671837, 0, 0
70, 0.00000, 0.0976676, 0.668749, 0.0977515, 0.66913, 0.0976521, 0.668989, 0, 0
71, 0.00000, 0.0976104, 0.668355, 0.0976969, 0.668749, 0.0975943, 0.668603, 0, 0
72, 0.00000, 0.0976104, 0.668355, 0.0976969, 0.668749, 0.0975943, 0.668603, 0, 0
73, 0.00000, 0.0969678, 0.66397, 0.0970841, 0.664466, 0.0969501, 0.664263, 0, 0
74, 0.00000, 0.0969678, 0.66397, 0.0970841, 0.664466, 0.0969501, 0.664263, 0, 0
75, 0.00000, 0.0969678, 0.66397, 0.0970841, 0.664466, 0.0969501, 0.664263, 0, 0
76, 0.00000, 0.0969678, 0.66397, 0.0970841, 0.664466, 0.0969501, 0.664263, 0, 0
77, 0.00000, 0.0969678, 0.66397, 0.0970841, 0.664466, 0.0969501, 0.664263, 0, 0
78, 0.00000, 0.0969678, 0.66397, 0.0970841, 0.664466, 0.0969501, 0.664263, 0, 0
79, 0.00000, 0.0969678, 0.66397, 0.0970841, 0.664466, 0.0969501, 0.664263, 0, 0
80, 0.00000, 0.0969678, 0.66397, 0.0970841, 0.664466, 0.0969501, 0.664263, 0, 0
81, 0.00000, 0.0969678, 0.66397, 0.0970841, 0.664466, 0.0969501, 0.664263, 0, 0
82, 0.00000, 0.0969678, 0.66397, 0.0970841, 0.664466, 0.0969501, 0.664263, 0, 0
83, 0.00000, 0.0969678, 0.66397, 0.0970841, 0.664466, 0.0969501, 0.664263, 0, 0
84, 0.00000, 0.0969678, 0.66397, 0.0970841, 0.664466, 0.0969501, 0.664263, 0, 0
85, 0.00000, 0.0969678, 0.66397, 0.0970841, 0.664466, 0.0969501, 0.664263, 0, 0
86, 0.00000, 0.0969678, 0.66397, 0.0970841, 0.664466, 0.0969501, 0.664263, 0, 0
87, 0.00000, 0.0969678, 0.66397, 0.0970841, 0.664466, 0.0969501, 0.664263, 0, 0
88, 0.00000, 0.0969678, 0.66397, 0.0970841, 0.664466, 0.0969501, 0.664263, 0, 0
89, 0.00000, 0.0969678, 0.66397, 0.0970841, 0.664466, 0.0969501, 0.664263, 0, 0
90, 0.00000, 0.0969678, 0.66397, 0.0970841, 0.664466, 0.0969501, 0.664263, 0, 0
91, 0.00000, 0.0969678, 0.66397, 0.0970841, 0.664466, 0.0969501, 0.664263, 0, 0
92, 0.00000, 0.0969678, 0.66397, 0.0970841, 0.664466, 0.0969501, 0.664263, 0, 0
93, 0.00000, 0.0969678, 0.66397, 0.0970841, 0.664466, 0.0969501, 0.664263, 0, 0
94, 0.00000, 0.0969678, 0.66397, 0.0970841, 0.664466, 0.0969501, 0.664263, 0, 0
95, 0.00000, 0.0969678, 0.66397, 0.0970841, 0.664466, 0.0969501, 0.664263, 0, 0
96, 0.00000, 0.0969678, 0.66397, 0.0970841, 0.664466, 0.0969501, 0.664263, 0, 0
