hour, t(sec), P1 (kW), Q1 (kvar), P2 (kW), Q2 (kvar), P3 (kW), Q3 (kvar), P4 (kW), Q4 (kvar)
1, 0.00000, 20.632, 8.76109, 20.6338, 8.76131, 20.6333, 8.76072, 0, 0
2, 0.00000, 20.632, 8.76109, 20.6338, 8.76131, 20.6333, 8.76072, 0, 0
3, 0.00000, 20.632, 8.76109, 20.6338, 8.76131, 20.6333, 8.76072, 0, 0
4, 0.00000, 20.632, 8.76109, 20.6338, 8.76131, 20.6333, 8.76072, 0, 0
5, 0.00000, 20.632, 8.76109, 20.6338, 8.76131, 20.6333, 8.76072, 0, 0
6, 0.00000, 20.632, 8.76109, 20.6338, 8.76131, 20.6333, 8.76072, 0, 0
7, 0.00000, 20.632, 8.76109, 20.6338, 8.76131, 20.6333, 8.76072, 0, 0
8, 0.00000, 20.632, 8.76109, 20.6338, 8.76131, 20.6333, 8.76072, 0, 0
9, 0.00000, 20.632, 8.76109, 20.6338, 8.76131, 20.6333, 8.76072, 0, 0
10, 0.00000, 20.632, 8.76109, 20.6338, 8.76131, 20.6333, 8.76072, 0, 0
11, 0.00000, 20.632, 8.76109, 20.6338, 8.76131, 20.6333, 8.76072, 0, 0
12, 0.00000, 20.632, 8.76109, 20.6338, 8.76131, 20.6333, 8.76072, 0, 0
13, 0.00000, 20.632, 8.76109, 20.6338, 8.76131, 20.6333, 8.76072, 0, 0
14, 0.00000, 20.632, 8.76109, 20.6338, 8.76131, 20.6333, 8.76072, 0, 0
15, 0.00000, 20.632, 8.76109, 20.6338, 8.76131, 20.6333, 8.76072, 0, 0
16, 0.00000, 20.632, 8.76109, 20.6338, 8.76131, 20.6333, 8.76072, 0, 0
17, 0.00000, 20.632, 8.76109, 20.6338, 8.76131, 20.6333, 8.76072, 0, 0
18, 0.00000, 20.632, 8.76109, 20.6338, 8.76131, 20.6333, 8.76072, 0, 0
19, 0.00000, 20.632, 8.76109, 20.6338, 8.76131, 20.6333, 8.76072, 0, 0
20, 0.00000, 20.632, 8.76109, 20.6338, 8.76131, 20.6333, 8.76072, 0, 0
21, 0.00000, 20.632, 8.76109, 20.6338, 8.76131, 20.6333, 8.76072, 0, 0
22, 0.00000, 20.632, 8.76109, 20.6338, 8.76131, 20.6333, 8.76072, 0, 0
23, 0.00000, 20.632, 8.76081, 20.6338, 8.76104, 20.6333, 8.76046, 0, 0
24, 0.00000, 17.2519, 7.10852, 17.2532, 7.10861, 17.2529, 7.10822, 0, 0
25, 0.00000, 12.9482, 5.01204, 12.949, 5.01201, 12.9489, 5.01182, 0, 0
26, 0.00000, 11.2677, 4.45378, 11.2684, 4.45374, 11.2683, 4.45359, 0, 0
27, 0.00000, 4.56471, 1.72637, 4.56494, 1.7262, 4.56507, 1.72623, 0, 0
28, 0.00000, 4.1704, 1.72051, 4.17059, 1.72035, 4.17072, 1.72039, 0, 0
29, 0.00000, 4.17042, 1.7199, 4.1706, 1.71975, 4.17073, 1.71978, 0, 0
30, 0.00000, 4.17043, 1.71952, 4.17061, 1.71937, 4.17073, 1.7194, 0, 0
31, 0.00000, 4.17043, 1.71935, 4.17061, 1.7192, 4.17074, 1.71924, 0, 0
32, 0.00000, 4.17044, 1.71906, 4.17062, 1.71891, 4.17074, 1.71894, 0, 0
33, 0.00000, 4.17044, 1.71915, 4.17061, 1.719, 4.17074, 1.71903, 0, 0
34, 0.00000, 4.17044, 1.71906, 4.17062, 1.71891, 4.17074, 1.71894, 0, 0
35, 0.00000, 4.17043, 1.71957, 4.17061, 1.71942, 4.17073, 1.71945, 0, 0
36, 0.00000, 4.17043, 1.71942, 4.17061, 1.71927, 4.17074, 1.7193, 0, 0
37, 0.00000, 4.17044, 1.71906, 4.17062, 1.71891, 4.17074, 1.71894, 0, 0
38, 0.00000, 4.17044, 1.71906, 4.17062, 1.71891, 4.17074, 1.71894, 0, 0
39, 0.00000, 4.17044, 1.71906, 4.17062, 1.71891, 4.17074, 1.71894, 0, 0
40, 0.00000, 4.17044, 1.71906, 4.17062, 1.71891, 4.17074, 1.71894, 0, 0
41, 0.00000, 4.17044, 1.71906, 4.17062, 1.71891, 4.17074, 1.71894, 0, 0
42, 0.00000, 4.17044, 1.71906, 4.17062, 1.71891, 4.17074, 1.71894, 0, 0
43, 0.00000, 4.17044, 1.71906, 4.17062, 1.71891, 4.17074, 1.71894, 0, 0
44, 0.00000, 4.17044, 1.71906, 4.17062, 1.71891, 4.17074, 1.71894, 0, 0
45, 0.00000, 4.17044, 1.71906, 4.17062, 1.71891, 4.17074, 1.71894, 0, 0
46, 0.00000, 4.17044, 1.71906, 4.17062, 1.71891, 4.17074, 1.71894, 0, 0
47, 0.00000, 4.17044, 1.71906, 4.17062, 1.71891, 4.17074, 1.71894, 0, 0
48, 0.00000, 4.17044, 1.71906, 4.17062, 1.71891, 4.17074, 1.71894, 0, 0
49, 0.00000, 6.0235, 2.07434, 6.02378, 2.07416, 6.0239, 2.07418, 0, 0
50, 0.00000, 6.0235, 2.07434, 6.02378, 2.07416, 6.0239, 2.07418, 0, 0
51, 0.00000, 6.0235, 2.07434, 6.02378, 2.07416, 6.0239, 2.07418, 0, 0
52, 0.00000, 6.0235, 2.07434, 6.02378, 2.07416, 6.0239, 2.07418, 0, 0
53, 0.00000, 6.0235, 2.07434, 6.02378, 2.07416, 6.0239, 2.07418, 0, 0
54, 0.00000, 6.0235, 2.07434, 6.02378, 2.07416, 6.0239, 2.07418, 0, 0
55, 0.00000, 6.0235, 2.07434, 6.02378, 2.07416, 6.0239, 2.07418, 0, 0
56, 0.00000, 6.0235, 2.07434, 6.02378, 2.07416, 6.0239, 2.07418, 0, 0
57, 0.00000, 6.0235, 2.07434, 6.02378, 2.07416, 6.0239, 2.07418, 0, 0
58, 0.00000, 6.0235, 2.07434, 6.02378, 2.07416, 6.0239, 2.07418, 0, 0
59, 0.00000, 6.0235, 2.07434, 6.02378, 2.07416, 6.0239, 2.07418, 0, 0
60, 0.00000, 6.0235, 2.07434, 6.02378, 2.07416, 6.0239, 2.07418, 0, 0
61, 0.00000, 6.0235, 2.07434, 6.02378, 2.07416, 6.0239, 2.07418, 0, 0
62, 0.00000, 6.0235, 2.07434, 6.02378, 2.07416, 6.0239, 2.07418, 0, 0
63, 0.00000, 6.0235, 2.07434, 6.02378, 2.07416, 6.0239, 2.07418, 0, 0
64, 0.00000, 6.0235, 2.07434, 6.02378, 2.07416, 6.0239, 2.07418, 0, 0
65, 0.00000, 6.0235, 2.07434, 6.02378, 2.07416, 6.0239, 2.07418, 0, 0
66, 0.00000, 6.0235, 2.07438, 6.02378, 2.0742, 6.0239, 2.07422, 0, 0
67, 0.00000, 6.02349, 2.07474, 6.02377, 2.07455, 6.0239, 2.07457, 0, 0
68, 0.00000, 6.02347, 2.07545, 6.02376, 2.07526, 6.02389, 2.07528, 0, 0
69, 0.00000, 11.4454, 2.18084, 11.446, 2.18058, 11.4461, 2.18052, 0, 0
70, 0.00000, 21.547, 2.50495, 21.5487, 2.50457, 21.5485, 2.50424, 0, 0
71, 0.00000, 21.5472, 2.50608, 21.5489, 2.5057, 21.5487, 2.50535, 0, 0
72, 0.00000, 21.5472, 2.50609, 21.5489, 2.50571, 21.5488, 2.50536, 0, 0
73, 0.00000, 31.2621, 7.42025, 31.2654, 7.41989, 31.2649, 7.41911, 0, 0
74, 0.00000, 31.2622, 7.42029, 31.2655, 7.41993, 31.265, 7.41915, 0, 0
75, 0.00000, 31.2622, 7.42029, 31.2655, 7.41993, 31.265, 7.41915, 0, 0
76, 0.00000, 31.2622, 7.42029, 31.2655, 7.41993, 31.265, 7.41915, 0, 0
77, 0.00000, 31.2622, 7.42029, 31.2655, 7.41993, 31.265, 7.41915, 0, 0
78, 0.00000, 31.2622, 7.42029, 31.2655, 7.41993, 31.265, 7.41915, 0, 0
79, 0.00000, 31.2622, 7.42029, 31.2655, 7.41993, 31.265, 7.41915, 0, 0
80, 0.00000, 31.2622, 7.42029, 31.2655, 7.41993, 31.265, 7.41915, 0, 0
81, 0.00000, 31.2622, 7.42029, 31.2655, 7.41993, 31.265, 7.41915, 0, 0
82, 0.00000, 31.2622, 7.42029, 31.2655, 7.41993, 31.265, 7.41915, 0, 0
83, 0.00000, 31.2622, 7.42029, 31.2655, 7.41993, 31.265, 7.41915, 0, 0
84, 0.00000, 31.2622, 7.42029, 31.2655, 7.41993, 31.265, 7.41915, 0, 0
85, 0.00000, 31.2622, 7.42029, 31.2655, 7.41993, 31.265, 7.41915, 0, 0
86, 0.00000, 31.2622, 7.42029, 31.2655, 7.41993, 31.265, 7.41915, 0, 0
87, 0.00000, 31.2622, 7.42029, 31.2655, 7.41993, 31.265, 7.41915, 0, 0
88, 0.00000, 31.2622, 7.42029, 31.2655, 7.41993, 31.265, 7.41915, 0, 0
89, 0.00000, 31.2622, 7.42029, 31.2655, 7.41993, 31.265, 7.41915, 0, 0
90, 0.00000, 31.2622, 7.42029, 31.2655, 7.41993, 31.265, 7.41915, 0, 0
91, 0.00000, 31.2622, 7.42029, 31.2655, 7.41993, 31.265, 7.41915, 0, 0
92, 0.00000, 31.2622, 7.42029, 31.2655, 7.41993, 31.265, 7.41915, 0, 0
93, 0.00000, 31.2622, 7.42029, 31.2655, 7.41993, 31.265, 7.41915, 0, 0
94, 0.00000, 31.2622, 7.42029, 31.2655, 7.41993, 31.265, 7.41915, 0, 0
95, 0.00000, 31.2622, 7.42029, 31.2655, 7.41993, 31.265, 7.41915, 0, 0
96, 0.00000, 31.2622, 7.42029, 31.2655, 7.41993, 31.265, 7.41915, 0, 0
