hour, t(sec), P1 (kW), Q1 (kvar), P2 (kW), Q2 (kvar), P3 (kW), Q3 (kvar), P4 (kW), Q4 (kvar)
1, 0.00000, 3.36369, 1.43104, 3.36454, 1.43119, 3.36429, 1.4309, 0, 0
2, 0.00000, 3.36369, 1.43104, 3.36454, 1.43119, 3.36429, 1.4309, 0, 0
3, 0.00000, 3.36369, 1.43104, 3.36454, 1.43119, 3.36429, 1.4309, 0, 0
4, 0.00000, 3.36369, 1.43104, 3.36454, 1.43119, 3.36429, 1.4309, 0, 0
5, 0.00000, 3.36369, 1.43104, 3.36454, 1.43119, 3.36429, 1.4309, 0, 0
6, 0.00000, 3.36369, 1.43104, 3.36454, 1.43119, 3.36429, 1.4309, 0, 0
7, 0.00000, 3.36369, 1.43104, 3.36454, 1.43119, 3.36429, 1.4309, 0, 0
8, 0.00000, 3.36369, 1.43104, 3.36454, 1.43119, 3.36429, 1.4309, 0, 0
9, 0.00000, 3.36369, 1.43104, 3.36454, 1.43119, 3.36429, 1.4309, 0, 0
10, 0.00000, 3.36369, 1.43104, 3.36454, 1.43119, 3.36429, 1.4309, 0, 0
11, 0.00000, 3.36369, 1.43104, 3.36454, 1.43119, 3.36429, 1.4309, 0, 0
12, 0.00000, 3.36369, 1.43104, 3.36454, 1.43119, 3.36429, 1.4309, 0, 0
13, 0.00000, 3.36369, 1.43104, 3.36454, 1.43119, 3.36429, 1.4309, 0, 0
14, 0.00000, 3.36369, 1.43104, 3.36454, 1.43119, 3.36429, 1.4309, 0, 0
15, 0.00000, 3.36369, 1.43104, 3.36454, 1.43119, 3.36429, 1.4309, 0, 0
16, 0.00000, 3.36369, 1.43104, 3.36454, 1.43119, 3.36429, 1.4309, 0, 0
17, 0.00000, 3.36369, 1.43104, 3.36454, 1.43119, 3.36429, 1.4309, 0, 0
18, 0.00000, 3.36369, 1.43104, 3.36454, 1.43119, 3.36429, 1.4309, 0, 0
19, 0.00000, 3.36369, 1.43104, 3.36454, 1.43119, 3.36429, 1.4309, 0, 0
20, 0.00000, 3.36369, 1.43104, 3.36454, 1.43119, 3.36429, 1.4309, 0, 0
21, 0.00000, 3.36369, 1.43104, 3.36454, 1.43119, 3.36429, 1.4309, 0, 0
22, 0.00000, 3.36369, 1.43104, 3.36454, 1.43119, 3.36429, 1.4309, 0, 0
23, 0.00000, 1.69023, 0.665087, 1.69066, 0.665037, 1.69062, 0.664973, 0, 0
24, 0.00000, 0.960634, 0.336099, 0.960862, 0.335979, 0.960914, 0.336003, 0, 0
25, 0.00000, 1.05683, 0.374921, 1.05703, 0.374829, 1.05707, 0.374839, 0, 0
26, 0.00000, 1.0569, 0.374207, 1.05709, 0.374123, 1.05713, 0.374131, 0, 0
27, 0.00000, 1.05711, 0.372241, 1.05726, 0.372174, 1.0573, 0.372178, 0, 0
28, 0.00000, 1.05716, 0.371739, 1.0573, 0.371676, 1.05734, 0.371679, 0, 0
29, 0.00000, 1.05719, 0.37147, 1.05733, 0.371411, 1.05736, 0.371412, 0, 0
30, 0.00000, 1.05721, 0.371243, 1.05735, 0.371186, 1.05738, 0.371187, 0, 0
31, 0.00000, 1.05722, 0.371139, 1.05736, 0.371083, 1.05739, 0.371084, 0, 0
32, 0.00000, 1.05725, 0.37093, 1.05737, 0.370876, 1.05741, 0.370876, 0, 0
33, 0.00000, 1.05724, 0.371007, 1.05736, 0.370953, 1.0574, 0.370953, 0, 0
34, 0.00000, 1.05725, 0.370931, 1.05737, 0.370877, 1.05741, 0.370877, 0, 0
35, 0.00000, 1.0572, 0.371327, 1.05734, 0.37127, 1.05737, 0.37127, 0, 0
36, 0.00000, 1.05721, 0.371228, 1.05735, 0.371172, 1.05738, 0.371172, 0, 0
37, 0.00000, 1.05724, 0.370928, 1.05737, 0.370874, 1.05741, 0.370874, 0, 0
38, 0.00000, 1.05725, 0.370929, 1.05737, 0.370875, 1.05741, 0.370875, 0, 0
39, 0.00000, 1.05725, 0.370929, 1.05737, 0.370875, 1.05741, 0.370875, 0, 0
40, 0.00000, 1.05725, 0.370929, 1.05737, 0.370875, 1.05741, 0.370875, 0, 0
41, 0.00000, 1.05725, 0.370929, 1.05737, 0.370875, 1.05741, 0.370875, 0, 0
42, 0.00000, 1.05725, 0.370929, 1.05737, 0.370875, 1.05741, 0.370875, 0, 0
43, 0.00000, 1.05725, 0.370929, 1.05737, 0.370875, 1.05741, 0.370875, 0, 0
44, 0.00000, 1.05725, 0.370929, 1.05737, 0.370875, 1.05741, 0.370875, 0, 0
45, 0.00000, 1.05725, 0.370929, 1.05737, 0.370875, 1.05741, 0.370875, 0, 0
46, 0.00000, 1.05725, 0.370929, 1.05737, 0.370875, 1.05741, 0.370875, 0, 0
47, 0.00000, 1.05725, 0.370929, 1.05737, 0.370875, 1.05741, 0.370875, 0, 0
48, 0.00000, 1.05725, 0.370929, 1.05737, 0.370875, 1.05741, 0.370875, 0, 0
49, 0.00000, 1.20109, 0.433914, 1.20125, 0.433857, 1.20128, 0.433852, 0, 0
50, 0.00000, 1.20109, 0.433914, 1.20125, 0.433857, 1.20128, 0.433852, 0, 0
51, 0.00000, 1.20109, 0.433914, 1.20125, 0.433857, 1.20128, 0.433852, 0, 0
52, 0.00000, 1.20109, 0.433914, 1.20125, 0.433857, 1.20128, 0.433852, 0, 0
53, 0.00000, 1.20109, 0.433914, 1.20125, 0.433857, 1.20128, 0.433852, 0, 0
54, 0.00000, 1.20109, 0.433914, 1.20125, 0.433857, 1.20128, 0.433852, 0, 0
55, 0.00000, 1.20109, 0.433914, 1.20125, 0.433857, 1.20128, 0.433852, 0, 0
56, 0.00000, 1.20109, 0.433914, 1.20125, 0.433857, 1.20128, 0.433852, 0, 0
57, 0.00000, 1.20109, 0.433914, 1.20125, 0.433857, 1.20128, 0.433852, 0, 0
58, 0.00000, 1.20109, 0.433914, 1.20125, 0.433857, 1.20128, 0.433852, 0, 0
59, 0.00000, 1.20109, 0.433914, 1.20125, 0.433857, 1.20128, 0.433852, 0, 0
60, 0.00000, 1.20109, 0.433914, 1.20125, 0.433857, 1.20128, 0.433852, 0, 0
61, 0.00000, 1.20109, 0.433914, 1.20125, 0.433857, 1.20128, 0.433852, 0, 0
62, 0.00000, 1.20109, 0.433914, 1.20125, 0.433857, 1.20128, 0.433852, 0, 0
63, 0.00000, 1.20109, 0.433914, 1.20125, 0.433857, 1.20128, 0.433852, 0, 0
64, 0.00000, 1.20109, 0.433914, 1.20125, 0.433857, 1.20128, 0.433852, 0, 0
65, 0.00000, 1.20109, 0.433914, 1.20125, 0.433857, 1.20128, 0.433852, 0, 0
66, 0.00000, 1.20109, 0.43394, 1.20125, 0.433883, 1.20128, 0.433878, 0, 0
67, 0.00000, 1.20106, 0.434211, 1.20122, 0.434151, 1.20125, 0.434146, 0, 0
68, 0.00000, 1.20101, 0.434599, 1.20119, 0.434538, 1.20122, 0.434532, 0, 0
69, 0.00000, 1.20086, 0.436046, 1.20107, 0.435977, 1.20111, 0.435967, 0, 0
70, 0.00000, 1.93034, 0.443695, 1.93078, 0.443598, 1.93079, 0.443532, 0, 0
71, 0.00000, 3.60343, 0.459965, 3.60426, 0.45984, 3.60414, 0.459662, 0, 0
72, 0.00000, 3.60343, 0.459967, 3.60426, 0.459842, 3.60414, 0.459664, 0, 0
73, 0.00000, 4.90454, 1.03651, 4.90602, 1.03637, 4.90573, 1.03603, 0, 0
74, 0.00000, 4.90454, 1.03651, 4.90603, 1.03638, 4.90574, 1.03603, 0, 0
75, 0.00000, 4.90454, 1.03651, 4.90603, 1.03638, 4.90574, 1.03603, 0, 0
76, 0.00000, 4.90454, 1.03651, 4.90603, 1.03638, 4.90574, 1.03603, 0, 0
77, 0.00000, 4.90454, 1.03651, 4.90603, 1.03638, 4.90574, 1.03603, 0, 0
78, 0.00000, 4.90454, 1.03651, 4.90603, 1.03638, 4.90574, 1.03603, 0, 0
79, 0.00000, 4.90454, 1.03651, 4.90603, 1.03638, 4.90574, 1.03603, 0, 0
80, 0.00000, 4.90454, 1.03651, 4.90603, 1.03638, 4.90574, 1.03603, 0, 0
81, 0.00000, 4.90454, 1.03651, 4.90603, 1.03638, 4.90574, 1.03603, 0, 0
82, 0.00000, 4.90454, 1.03651, 4.90603, 1.03638, 4.90574, 1.03603, 0, 0
83, 0.00000, 4.90454, 1.03651, 4.90603, 1.03638, 4.90574, 1.03603, 0, 0
84, 0.00000, 4.90454, 1.03651, 4.90603, 1.03638, 4.90574, 1.03603, 0, 0
85, 0.00000, 4.90454, 1.03651, 4.90603, 1.03638, 4.90574, 1.03603, 0, 0
86, 0.00000, 4.90454, 1.03651, 4.90603, 1.03638, 4.90574, 1.03603, 0, 0
87, 0.00000, 4.90454, 1.03651, 4.90603, 1.03638, 4.90574, 1.03603, 0, 0
88, 0.00000, 4.90454, 1.03651, 4.90603, 1.03638, 4.90574, 1.03603, 0, 0
89, 0.00000, 4.90454, 1.03651, 4.90603, 1.03638, 4.90574, 1.03603, 0, 0
90, 0.00000, 4.90454, 1.03651, 4.90603, 1.03638, 4.90574, 1.03603, 0, 0
91, 0.00000, 4.90454, 1.03651, 4.90603, 1.03638, 4.90574, 1.03603, 0, 0
92, 0.00000, 4.90454, 1.03651, 4.90603, 1.03638, 4.90574, 1.03603, 0, 0
93, 0.00000, 4.90454, 1.03651, 4.90603, 1.03638, 4.90574, 1.03603, 0, 0
94, 0.00000, 4.90454, 1.03651, 4.90603, 1.03638, 4.90574, 1.03603, 0, 0
95, 0.00000, 4.90454, 1.03651, 4.90603, 1.03638, 4.90574, 1.03603, 0, 0
96, 0.00000, 4.90454, 1.03651, 4.90603, 1.03638, 4.90574, 1.03603, 0, 0
