hour, t(sec), P1 (kW), Q1 (kvar), P2 (kW), Q2 (kvar), P3 (kW), Q3 (kvar), P4 (kW), Q4 (kvar)
1, 0.00000, 3.25389, 1.36672, 3.25463, 1.36685, 3.25442, 1.3666, 0, 0
2, 0.00000, 3.25389, 1.36672, 3.25463, 1.36685, 3.25442, 1.3666, 0, 0
3, 0.00000, 3.25389, 1.36672, 3.25463, 1.36685, 3.25442, 1.3666, 0, 0
4, 0.00000, 3.25389, 1.36672, 3.25463, 1.36685, 3.25442, 1.3666, 0, 0
5, 0.00000, 3.25389, 1.36672, 3.25463, 1.36685, 3.25442, 1.3666, 0, 0
6, 0.00000, 3.25389, 1.36672, 3.25463, 1.36685, 3.25442, 1.3666, 0, 0
7, 0.00000, 3.25389, 1.36672, 3.25463, 1.36685, 3.25442, 1.3666, 0, 0
8, 0.00000, 3.25389, 1.36672, 3.25463, 1.36685, 3.25442, 1.3666, 0, 0
9, 0.00000, 3.25389, 1.36672, 3.25463, 1.36685, 3.25442, 1.3666, 0, 0
10, 0.00000, 3.25389, 1.36672, 3.25463, 1.36685, 3.25442, 1.3666, 0, 0
11, 0.00000, 3.25389, 1.36672, 3.25463, 1.36685, 3.25442, 1.3666, 0, 0
12, 0.00000, 3.25389, 1.36672, 3.25463, 1.36685, 3.25442, 1.3666, 0, 0
13, 0.00000, 3.25389, 1.36672, 3.25463, 1.36685, 3.25442, 1.3666, 0, 0
14, 0.00000, 3.25389, 1.36672, 3.25463, 1.36685, 3.25442, 1.3666, 0, 0
15, 0.00000, 3.25389, 1.36672, 3.25463, 1.36685, 3.25442, 1.3666, 0, 0
16, 0.00000, 3.25389, 1.36672, 3.25463, 1.36685, 3.25442, 1.3666, 0, 0
17, 0.00000, 3.25389, 1.36672, 3.25463, 1.36685, 3.25442, 1.3666, 0, 0
18, 0.00000, 3.25389, 1.36672, 3.25463, 1.36685, 3.25442, 1.3666, 0, 0
19, 0.00000, 3.25389, 1.36672, 3.25463, 1.36685, 3.25442, 1.3666, 0, 0
20, 0.00000, 3.25389, 1.36672, 3.25463, 1.36685, 3.25442, 1.3666, 0, 0
21, 0.00000, 3.25389, 1.36672, 3.25463, 1.36685, 3.25442, 1.3666, 0, 0
22, 0.00000, 3.25389, 1.36672, 3.25463, 1.36685, 3.25442, 1.3666, 0, 0
23, 0.00000, 1.58074, 0.558288, 1.5811, 0.558218, 1.58108, 0.558178, 0, 0
24, 0.00000, 0.384311, 0.152192, 0.384409, 0.152056, 0.384503, 0.152124, 0, 0
25, 0.00000, 1.12929, 0.470831, 1.12949, 0.470746, 1.12954, 0.470754, 0, 0
26, 0.00000, 1.12936, 0.4701, 1.12954, 0.470021, 1.12959, 0.470028, 0, 0
27, 0.00000, 1.12954, 0.46813, 1.12969, 0.468069, 1.12973, 0.468071, 0, 0
28, 0.00000, 1.12959, 0.467625, 1.12973, 0.467568, 1.12977, 0.467569, 0, 0
29, 0.00000, 1.12962, 0.467351, 1.12975, 0.467297, 1.12979, 0.467297, 0, 0
30, 0.00000, 1.12964, 0.467128, 1.12977, 0.467075, 1.12981, 0.467076, 0, 0
31, 0.00000, 1.12965, 0.467028, 1.12978, 0.466976, 1.12981, 0.466976, 0, 0
32, 0.00000, 1.12967, 0.466828, 1.12979, 0.466779, 1.12983, 0.466778, 0, 0
33, 0.00000, 1.12966, 0.466901, 1.12978, 0.466851, 1.12982, 0.46685, 0, 0
34, 0.00000, 1.12967, 0.466829, 1.12979, 0.466779, 1.12983, 0.466778, 0, 0
35, 0.00000, 1.12963, 0.467206, 1.12976, 0.467153, 1.1298, 0.467152, 0, 0
36, 0.00000, 1.12964, 0.467109, 1.12977, 0.467057, 1.12981, 0.467056, 0, 0
37, 0.00000, 1.12967, 0.466826, 1.12979, 0.466777, 1.12983, 0.466776, 0, 0
38, 0.00000, 1.12967, 0.466827, 1.12979, 0.466777, 1.12983, 0.466777, 0, 0
39, 0.00000, 1.12967, 0.466827, 1.12979, 0.466777, 1.12983, 0.466777, 0, 0
40, 0.00000, 1.12967, 0.466827, 1.12979, 0.466778, 1.12983, 0.466777, 0, 0
41, 0.00000, 1.12967, 0.466827, 1.12979, 0.466778, 1.12983, 0.466777, 0, 0
42, 0.00000, 1.12967, 0.466827, 1.12979, 0.466778, 1.12983, 0.466777, 0, 0
43, 0.00000, 1.12967, 0.466827, 1.12979, 0.466778, 1.12983, 0.466777, 0, 0
44, 0.00000, 1.12967, 0.466827, 1.12979, 0.466778, 1.12983, 0.466777, 0, 0
45, 0.00000, 1.12967, 0.466827, 1.12979, 0.466778, 1.12983, 0.466777, 0, 0
46, 0.00000, 1.12967, 0.466827, 1.12979, 0.466778, 1.12983, 0.466777, 0, 0
47, 0.00000, 1.12967, 0.466827, 1.12979, 0.466778, 1.12983, 0.466777, 0, 0
48, 0.00000, 1.12967, 0.466827, 1.12979, 0.466778, 1.12983, 0.466777, 0, 0
49, 0.00000, 1.53102, 0.64139, 1.53121, 0.641345, 1.53124, 0.641329, 0, 0
50, 0.00000, 1.53102, 0.64139, 1.53121, 0.641345, 1.53124, 0.641328, 0, 0
51, 0.00000, 1.53102, 0.64139, 1.53121, 0.641345, 1.53124, 0.641328, 0, 0
52, 0.00000, 1.53102, 0.64139, 1.53121, 0.641345, 1.53124, 0.641328, 0, 0
53, 0.00000, 1.53102, 0.64139, 1.53121, 0.641345, 1.53124, 0.641328, 0, 0
54, 0.00000, 1.53102, 0.64139, 1.53121, 0.641345, 1.53124, 0.641328, 0, 0
55, 0.00000, 1.53102, 0.64139, 1.53121, 0.641345, 1.53124, 0.641328, 0, 0
56, 0.00000, 1.53102, 0.64139, 1.53121, 0.641345, 1.53124, 0.641328, 0, 0
57, 0.00000, 1.53102, 0.64139, 1.53121, 0.641345, 1.53124, 0.641328, 0, 0
58, 0.00000, 1.53102, 0.64139, 1.53121, 0.641345, 1.53124, 0.641328, 0, 0
59, 0.00000, 1.53102, 0.64139, 1.53121, 0.641345, 1.53124, 0.641328, 0, 0
60, 0.00000, 1.53102, 0.64139, 1.53121, 0.641345, 1.53124, 0.641328, 0, 0
61, 0.00000, 1.53102, 0.64139, 1.53121, 0.641345, 1.53124, 0.641328, 0, 0
62, 0.00000, 1.53102, 0.64139, 1.53121, 0.641345, 1.53124, 0.641328, 0, 0
63, 0.00000, 1.53102, 0.64139, 1.53121, 0.641345, 1.53124, 0.641328, 0, 0
64, 0.00000, 1.53102, 0.64139, 1.53121, 0.641345, 1.53124, 0.641328, 0, 0
65, 0.00000, 1.53102, 0.64139, 1.53121, 0.641345, 1.53124, 0.641328, 0, 0
66, 0.00000, 1.53102, 0.641414, 1.53121, 0.641369, 1.53123, 0.641353, 0, 0
67, 0.00000, 1.53099, 0.64167, 1.53119, 0.641623, 1.53121, 0.641606, 0, 0
68, 0.00000, 1.53096, 0.642056, 1.53116, 0.642008, 1.53119, 0.641989, 0, 0
69, 0.00000, 1.53082, 0.64347, 1.53105, 0.643417, 1.5311, 0.643391, 0, 0
70, 0.00000, 2.72899, 0.656045, 2.72954, 0.655967, 2.72952, 0.655856, 0, 0
71, 0.00000, 4.4041, 0.676423, 4.40502, 0.676321, 4.40488, 0.676106, 0, 0
72, 0.00000, 4.4041, 0.676426, 4.40502, 0.676324, 4.40488, 0.676109, 0, 0
73, 0.00000, 5.84582, 1.31832, 5.84743, 1.31821, 5.84711, 1.31782, 0, 0
74, 0.00000, 5.84582, 1.31833, 5.84743, 1.31822, 5.84712, 1.31783, 0, 0
75, 0.00000, 5.84582, 1.31833, 5.84743, 1.31822, 5.84712, 1.31783, 0, 0
76, 0.00000, 5.84582, 1.31833, 5.84743, 1.31822, 5.84712, 1.31783, 0, 0
77, 0.00000, 5.84582, 1.31833, 5.84743, 1.31822, 5.84712, 1.31783, 0, 0
78, 0.00000, 5.84582, 1.31833, 5.84743, 1.31822, 5.84712, 1.31783, 0, 0
79, 0.00000, 5.84582, 1.31833, 5.84743, 1.31822, 5.84712, 1.31783, 0, 0
80, 0.00000, 5.84582, 1.31833, 5.84743, 1.31822, 5.84712, 1.31783, 0, 0
81, 0.00000, 5.84582, 1.31833, 5.84743, 1.31822, 5.84712, 1.31783, 0, 0
82, 0.00000, 5.84582, 1.31833, 5.84743, 1.31822, 5.84712, 1.31783, 0, 0
83, 0.00000, 5.84582, 1.31833, 5.84743, 1.31822, 5.84712, 1.31783, 0, 0
84, 0.00000, 5.84582, 1.31833, 5.84743, 1.31822, 5.84712, 1.31783, 0, 0
85, 0.00000, 5.84582, 1.31833, 5.84743, 1.31822, 5.84712, 1.31783, 0, 0
86, 0.00000, 5.84582, 1.31833, 5.84743, 1.31822, 5.84712, 1.31783, 0, 0
87, 0.00000, 5.84582, 1.31833, 5.84743, 1.31822, 5.84712, 1.31783, 0, 0
88, 0.00000, 5.84582, 1.31833, 5.84743, 1.31822, 5.84712, 1.31783, 0, 0
89, 0.00000, 5.84582, 1.31833, 5.84743, 1.31822, 5.84712, 1.31783, 0, 0
90, 0.00000, 5.84582, 1.31833, 5.84743, 1.31822, 5.84712, 1.31783, 0, 0
91, 0.00000, 5.84582, 1.31833, 5.84743, 1.31822, 5.84712, 1.31783, 0, 0
92, 0.00000, 5.84582, 1.31833, 5.84743, 1.31822, 5.84712, 1.31783, 0, 0
93, 0.00000, 5.84582, 1.31833, 5.84743, 1.31822, 5.84712, 1.31783, 0, 0
94, 0.00000, 5.84582, 1.31833, 5.84743, 1.31822, 5.84712, 1.31783, 0, 0
95, 0.00000, 5.84582, 1.31833, 5.84743, 1.31822, 5.84712, 1.31783, 0, 0
96, 0.00000, 5.84582, 1.31833, 5.84743, 1.31822, 5.84712, 1.31783, 0, 0
