hour, t(sec), P1 (kW), Q1 (kvar), P2 (kW), Q2 (kvar), P3 (kW), Q3 (kvar), P4 (kW), Q4 (kvar)
1, 0.00000, 15.2963, 6.42157, 15.3028, 6.42288, 15.3013, 6.42047, 0, 0
2, 0.00000, 15.2963, 6.42157, 15.3028, 6.42288, 15.3013, 6.42047, 0, 0
3, 0.00000, 15.2963, 6.42157, 15.3028, 6.42288, 15.3013, 6.42047, 0, 0
4, 0.00000, 15.2963, 6.42157, 15.3028, 6.42288, 15.3013, 6.42047, 0, 0
5, 0.00000, 15.2963, 6.42157, 15.3028, 6.42288, 15.3013, 6.42047, 0, 0
6, 0.00000, 15.2963, 6.42157, 15.3028, 6.42288, 15.3013, 6.42047, 0, 0
7, 0.00000, 15.2963, 6.42157, 15.3028, 6.42288, 15.3013, 6.42047, 0, 0
8, 0.00000, 15.2963, 6.42157, 15.3028, 6.42288, 15.3013, 6.42047, 0, 0
9, 0.00000, 15.2963, 6.42157, 15.3028, 6.42288, 15.3013, 6.42047, 0, 0
10, 0.00000, 15.2963, 6.42157, 15.3028, 6.42288, 15.3013, 6.42047, 0, 0
11, 0.00000, 15.2963, 6.42157, 15.3028, 6.42288, 15.3013, 6.42047, 0, 0
12, 0.00000, 15.2963, 6.42157, 15.3028, 6.42288, 15.3013, 6.42047, 0, 0
13, 0.00000, 15.2963, 6.42157, 15.3028, 6.42288, 15.3013, 6.42047, 0, 0
14, 0.00000, 15.2963, 6.42157, 15.3028, 6.42288, 15.3013, 6.42047, 0, 0
15, 0.00000, 15.2963, 6.42157, 15.3028, 6.42288, 15.3013, 6.42047, 0, 0
16, 0.00000, 15.2963, 6.42157, 15.3028, 6.42288, 15.3013, 6.42047, 0, 0
17, 0.00000, 15.2963, 6.42157, 15.3028, 6.42288, 15.3013, 6.42047, 0, 0
18, 0.00000, 15.2963, 6.42157, 15.3028, 6.42288, 15.3013, 6.42047, 0, 0
19, 0.00000, 15.2963, 6.42157, 15.3028, 6.42288, 15.3013, 6.42047, 0, 0
20, 0.00000, 15.2963, 6.42157, 15.3028, 6.42288, 15.3013, 6.42047, 0, 0
21, 0.00000, 15.2963, 6.42157, 15.3028, 6.42288, 15.3013, 6.42047, 0, 0
22, 0.00000, 15.2963, 6.42157, 15.3028, 6.42288, 15.3013, 6.42047, 0, 0
23, 0.00000, 13.5865, 5.66736, 13.5923, 5.66831, 13.5911, 5.66632, 0, 0
24, 0.00000, 11.8823, 4.91397, 11.8869, 4.91458, 11.8862, 4.91307, 0, 0
25, 0.00000, 8.48985, 3.41396, 8.49266, 3.41398, 8.49257, 3.41324, 0, 0
26, 0.00000, 7.64504, 3.03898, 7.64741, 3.03888, 7.64746, 3.03831, 0, 0
27, 0.00000, 7.64537, 3.03059, 7.64734, 3.03058, 7.64742, 3.03005, 0, 0
28, 0.00000, 7.64545, 3.02866, 7.64732, 3.02867, 7.64742, 3.02815, 0, 0
29, 0.00000, 7.64546, 3.02817, 7.64732, 3.02818, 7.64742, 3.02767, 0, 0
30, 0.00000, 7.64546, 3.02801, 7.64732, 3.02802, 7.64741, 3.02751, 0, 0
31, 0.00000, 7.64546, 3.02793, 7.64732, 3.02795, 7.64741, 3.02743, 0, 0
32, 0.00000, 7.64547, 3.0278, 7.64732, 3.02782, 7.64741, 3.02731, 0, 0
33, 0.00000, 7.64547, 3.02784, 7.64731, 3.02786, 7.64741, 3.02735, 0, 0
34, 0.00000, 7.64547, 3.02781, 7.64732, 3.02782, 7.64741, 3.02731, 0, 0
35, 0.00000, 7.64546, 3.02802, 7.64732, 3.02804, 7.64741, 3.02752, 0, 0
36, 0.00000, 7.64546, 3.02796, 7.64732, 3.02798, 7.64741, 3.02746, 0, 0
37, 0.00000, 7.64547, 3.0278, 7.64731, 3.02782, 7.64741, 3.02731, 0, 0
38, 0.00000, 7.64547, 3.0278, 7.64731, 3.02782, 7.64741, 3.02731, 0, 0
39, 0.00000, 7.64547, 3.0278, 7.64731, 3.02782, 7.64741, 3.02731, 0, 0
40, 0.00000, 7.64547, 3.0278, 7.64731, 3.02782, 7.64741, 3.02731, 0, 0
41, 0.00000, 7.64547, 3.0278, 7.64731, 3.02782, 7.64741, 3.02731, 0, 0
42, 0.00000, 7.64547, 3.0278, 7.64731, 3.02782, 7.64741, 3.02731, 0, 0
43, 0.00000, 7.64547, 3.0278, 7.64731, 3.02782, 7.64741, 3.02731, 0, 0
44, 0.00000, 7.64547, 3.0278, 7.64731, 3.02782, 7.64741, 3.02731, 0, 0
45, 0.00000, 7.64547, 3.0278, 7.64731, 3.02782, 7.64741, 3.02731, 0, 0
46, 0.00000, 7.64547, 3.0278, 7.64731, 3.02782, 7.64741, 3.02731, 0, 0
47, 0.00000, 7.64547, 3.0278, 7.64731, 3.02782, 7.64741, 3.02731, 0, 0
48, 0.00000, 7.64547, 3.0278, 7.64731, 3.02782, 7.64741, 3.02731, 0, 0
49, 0.00000, 7.64529, 3.03233, 7.64736, 3.0323, 7.64744, 3.03176, 0, 0
50, 0.00000, 7.64529, 3.03233, 7.64735, 3.0323, 7.64743, 3.03176, 0, 0
51, 0.00000, 7.64529, 3.03233, 7.64735, 3.0323, 7.64743, 3.03176, 0, 0
52, 0.00000, 7.64529, 3.03233, 7.64735, 3.0323, 7.64743, 3.03176, 0, 0
53, 0.00000, 7.64529, 3.03233, 7.64735, 3.0323, 7.64743, 3.03176, 0, 0
54, 0.00000, 7.64529, 3.03233, 7.64735, 3.0323, 7.64743, 3.03176, 0, 0
55, 0.00000, 7.64529, 3.03233, 7.64735, 3.0323, 7.64743, 3.03176, 0, 0
56, 0.00000, 7.64529, 3.03233, 7.64735, 3.0323, 7.64743, 3.03176, 0, 0
57, 0.00000, 7.64529, 3.03233, 7.64735, 3.0323, 7.64743, 3.03176, 0, 0
58, 0.00000, 7.64529, 3.03233, 7.64735, 3.0323, 7.64743, 3.03176, 0, 0
59, 0.00000, 7.64529, 3.03233, 7.64735, 3.0323, 7.64743, 3.03176, 0, 0
60, 0.00000, 7.64529, 3.03233, 7.64735, 3.0323, 7.64743, 3.03176, 0, 0
61, 0.00000, 7.64529, 3.03233, 7.64735, 3.0323, 7.64743, 3.03176, 0, 0
62, 0.00000, 7.64529, 3.03233, 7.64735, 3.0323, 7.64743, 3.03176, 0, 0
63, 0.00000, 7.64529, 3.03233, 7.64735, 3.0323, 7.64743, 3.03176, 0, 0
64, 0.00000, 7.64529, 3.03233, 7.64735, 3.0323, 7.64743, 3.03176, 0, 0
65, 0.00000, 7.64529, 3.03233, 7.64735, 3.0323, 7.64743, 3.03176, 0, 0
66, 0.00000, 7.64529, 3.03235, 7.64735, 3.03231, 7.64743, 3.03177, 0, 0
67, 0.00000, 7.64528, 3.03249, 7.64735, 3.03245, 7.64743, 3.03191, 0, 0
68, 0.00000, 7.64527, 3.03293, 7.64736, 3.03289, 7.64744, 3.03235, 0, 0
69, 0.00000, 7.64503, 3.03789, 7.64739, 3.03788, 7.6475, 3.03725, 0, 0
70, 0.00000, 13.5701, 3.26346, 13.5757, 3.26348, 13.5751, 3.26183, 0, 0
71, 0.00000, 15.2737, 3.34414, 15.2801, 3.34414, 15.2793, 3.34224, 0, 0
72, 0.00000, 15.2738, 3.34421, 15.2802, 3.3442, 15.2793, 3.3423, 0, 0
73, 0.00000, 15.2732, 3.37, 15.2816, 3.36933, 15.2803, 3.36718, 0, 0
74, 0.00000, 15.2733, 3.37005, 15.2817, 3.36937, 15.2804, 3.36723, 0, 0
75, 0.00000, 15.2733, 3.37005, 15.2817, 3.36937, 15.2804, 3.36723, 0, 0
76, 0.00000, 15.2733, 3.37005, 15.2817, 3.36937, 15.2804, 3.36723, 0, 0
77, 0.00000, 15.2733, 3.37005, 15.2817, 3.36937, 15.2804, 3.36723, 0, 0
78, 0.00000, 15.2733, 3.37005, 15.2817, 3.36937, 15.2804, 3.36723, 0, 0
79, 0.00000, 15.2733, 3.37005, 15.2817, 3.36937, 15.2804, 3.36723, 0, 0
80, 0.00000, 15.2733, 3.37005, 15.2817, 3.36937, 15.2804, 3.36723, 0, 0
81, 0.00000, 15.2733, 3.37005, 15.2817, 3.36937, 15.2804, 3.36723, 0, 0
82, 0.00000, 15.2733, 3.37005, 15.2817, 3.36937, 15.2804, 3.36723, 0, 0
83, 0.00000, 15.2733, 3.37005, 15.2817, 3.36937, 15.2804, 3.36723, 0, 0
84, 0.00000, 15.2733, 3.37005, 15.2817, 3.36937, 15.2804, 3.36723, 0, 0
85, 0.00000, 15.2733, 3.37005, 15.2817, 3.36937, 15.2804, 3.36723, 0, 0
86, 0.00000, 15.2733, 3.37005, 15.2817, 3.36937, 15.2804, 3.36723, 0, 0
87, 0.00000, 15.2733, 3.37005, 15.2817, 3.36937, 15.2804, 3.36723, 0, 0
88, 0.00000, 15.2733, 3.37005, 15.2817, 3.36937, 15.2804, 3.36723, 0, 0
89, 0.00000, 15.2733, 3.37005, 15.2817, 3.36937, 15.2804, 3.36723, 0, 0
90, 0.00000, 15.2733, 3.37005, 15.2817, 3.36937, 15.2804, 3.36723, 0, 0
91, 0.00000, 15.2733, 3.37005, 15.2817, 3.36937, 15.2804, 3.36723, 0, 0
92, 0.00000, 15.2733, 3.37005, 15.2817, 3.36937, 15.2804, 3.36723, 0, 0
93, 0.00000, 15.2733, 3.37005, 15.2817, 3.36937, 15.2804, 3.36723, 0, 0
94, 0.00000, 15.2733, 3.37005, 15.2817, 3.36937, 15.2804, 3.36723, 0, 0
95, 0.00000, 15.2733, 3.37005, 15.2817, 3.36937, 15.2804, 3.36723, 0, 0
96, 0.00000, 15.2733, 3.37005, 15.2817, 3.36937, 15.2804, 3.36723, 0, 0
