hour, t(sec), P1 (kW), Q1 (kvar), P2 (kW), Q2 (kvar), P3 (kW), Q3 (kvar), P4 (kW), Q4 (kvar)
1, 0.00000, 0.0976616, 0.668733, 0.0977676, 0.669177, 0.0976468, 0.668991, 0, 0
2, 0.00000, 0.0976616, 0.668733, 0.0977676, 0.669177, 0.0976468, 0.668991, 0, 0
3, 0.00000, 0.0976616, 0.668733, 0.0977676, 0.669177, 0.0976468, 0.668991, 0, 0
4, 0.00000, 0.0976616, 0.668733, 0.0977676, 0.669177, 0.0976468, 0.668991, 0, 0
5, 0.00000, 0.0976616, 0.668733, 0.0977676, 0.669177, 0.0976468, 0.668991, 0, 0
6, 0.00000, 0.0976616, 0.668733, 0.0977676, 0.669177, 0.0976468, 0.668991, 0, 0
7, 0.00000, 0.0976616, 0.668733, 0.0977676, 0.669177, 0.0976468, 0.668991, 0, 0
8, 0.00000, 0.0976616, 0.668733, 0.0977676, 0.669177, 0.0976468, 0.668991, 0, 0
9, 0.00000, 0.0976616, 0.668733, 0.0977676, 0.669177, 0.0976468, 0.668991, 0, 0
10, 0.00000, 0.0976616, 0.668733, 0.0977676, 0.669177, 0.0976468, 0.668991, 0, 0
11, 0.00000, 0.0976616, 0.668733, 0.0977676, 0.669177, 0.0976468, 0.668991, 0, 0
12, 0.00000, 0.0976616, 0.668733, 0.0977676, 0.669177, 0.0976468, 0.668991, 0, 0
13, 0.00000, 0.0976616, 0.668733, 0.0977676, 0.669177, 0.0976468, 0.668991, 0, 0
14, 0.00000, 0.0976616, 0.668733, 0.0977676, 0.669177, 0.0976468, 0.668991, 0, 0
15, 0.00000, 0.0976616, 0.668733, 0.0977676, 0.669177, 0.0976468, 0.668991, 0, 0
16, 0.00000, 0.0976616, 0.668733, 0.0977676, 0.669177, 0.0976468, 0.668991, 0, 0
17, 0.00000, 0.0976616, 0.668733, 0.0977676, 0.669177, 0.0976468, 0.668991, 0, 0
18, 0.00000, 0.0976616, 0.668733, 0.0977676, 0.669177, 0.0976468, 0.668991, 0, 0
19, 0.00000, 0.0976616, 0.668733, 0.0977676, 0.669177, 0.0976468, 0.668991, 0, 0
20, 0.00000, 0.0976616, 0.668733, 0.0977676, 0.669177, 0.0976468, 0.668991, 0, 0
21, 0.00000, 0.0976616, 0.668733, 0.0977676, 0.669177, 0.0976468, 0.668991, 0, 0
22, 0.00000, 0.0976616, 0.668733, 0.0977676, 0.669177, 0.0976468, 0.668991, 0, 0
23, 0.00000, 0.0977005, 0.668998, 0.0978044, 0.669436, 0.0976858, 0.669253, 0, 0
24, 0.00000, 0.0978577, 0.670072, 0.0979527, 0.670477, 0.0978437, 0.670311, 0, 0
25, 0.00000, 0.0981106, 0.671799, 0.0981912, 0.672152, 0.0980976, 0.672013, 0, 0
26, 0.00000, 0.0982039, 0.672437, 0.0982791, 0.672769, 0.0981913, 0.67264, 0, 0
27, 0.00000, 0.0984299, 0.673981, 0.0984922, 0.674265, 0.0984184, 0.674161, 0, 0
28, 0.00000, 0.0984823, 0.674339, 0.0985415, 0.674612, 0.098471, 0.674513, 0, 0
29, 0.00000, 0.0984952, 0.674427, 0.0985538, 0.674698, 0.098484, 0.674601, 0, 0
30, 0.00000, 0.0984996, 0.674457, 0.098558, 0.674727, 0.0984883, 0.67463, 0, 0
31, 0.00000, 0.0985016, 0.674471, 0.0985599, 0.674741, 0.0984903, 0.674644, 0, 0
32, 0.00000, 0.098505, 0.674494, 0.0985632, 0.674764, 0.0984938, 0.674667, 0, 0
33, 0.00000, 0.0985039, 0.674487, 0.0985622, 0.674757, 0.0984927, 0.67466, 0, 0
34, 0.00000, 0.098505, 0.674494, 0.0985632, 0.674764, 0.0984938, 0.674667, 0, 0
35, 0.00000, 0.0984992, 0.674454, 0.0985576, 0.674725, 0.0984879, 0.674627, 0, 0
36, 0.00000, 0.0985009, 0.674466, 0.0985592, 0.674736, 0.0984896, 0.674639, 0, 0
37, 0.00000, 0.098505, 0.674494, 0.0985632, 0.674764, 0.0984938, 0.674667, 0, 0
38, 0.00000, 0.098505, 0.674494, 0.0985632, 0.674764, 0.0984938, 0.674667, 0, 0
39, 0.00000, 0.098505, 0.674494, 0.0985632, 0.674764, 0.0984938, 0.674667, 0, 0
40, 0.00000, 0.098505, 0.674494, 0.0985632, 0.674764, 0.0984938, 0.674667, 0, 0
41, 0.00000, 0.098505, 0.674494, 0.0985632, 0.674764, 0.0984938, 0.674667, 0, 0
42, 0.00000, 0.098505, 0.674494, 0.0985632, 0.674764, 0.0984938, 0.674667, 0, 0
43, 0.00000, 0.098505, 0.674494, 0.0985632, 0.674764, 0.0984938, 0.674667, 0, 0
44, 0.00000, 0.098505, 0.674494, 0.0985632, 0.674764, 0.0984938, 0.674667, 0, 0
45, 0.00000, 0.098505, 0.674494, 0.0985632, 0.674764, 0.0984938, 0.674667, 0, 0
46, 0.00000, 0.098505, 0.674494, 0.0985632, 0.674764, 0.0984938, 0.674667, 0, 0
47, 0.00000, 0.098505, 0.674494, 0.0985632, 0.674764, 0.0984938, 0.674667, 0, 0
48, 0.00000, 0.098505, 0.674494, 0.0985632, 0.674764, 0.0984938, 0.674667, 0, 0
49, 0.00000, 0.0983831, 0.673662, 0.0984485, 0.673957, 0.0983714, 0.673847, 0, 0
50, 0.00000, 0.0983831, 0.673662, 0.0984485, 0.673957, 0.0983714, 0.673847, 0, 0
51, 0.00000, 0.0983831, 0.673662, 0.0984485, 0.673957, 0.0983714, 0.673847, 0, 0
52, 0.00000, 0.0983831, 0.673662, 0.0984485, 0.673957, 0.0983714, 0.673847, 0, 0
53, 0.00000, 0.0983831, 0.673662, 0.0984485, 0.673957, 0.0983714, 0.673847, 0, 0
54, 0.00000, 0.0983831, 0.673662, 0.0984485, 0.673957, 0.0983714, 0.673847, 0, 0
55, 0.00000, 0.0983831, 0.673662, 0.0984485, 0.673957, 0.0983714, 0.673847, 0, 0
56, 0.00000, 0.0983831, 0.673662, 0.0984485, 0.673957, 0.0983714, 0.673847, 0, 0
57, 0.00000, 0.0983831, 0.673662, 0.0984485, 0.673957, 0.0983714, 0.673847, 0, 0
58, 0.00000, 0.0983831, 0.673662, 0.0984485, 0.673957, 0.0983714, 0.673847, 0, 0
59, 0.00000, 0.0983831, 0.673662, 0.0984485, 0.673957, 0.0983714, 0.673847, 0, 0
60, 0.00000, 0.0983831, 0.673662, 0.0984485, 0.673957, 0.0983714, 0.673847, 0, 0
61, 0.00000, 0.0983831, 0.673662, 0.0984485, 0.673957, 0.0983714, 0.673847, 0, 0
62, 0.00000, 0.0983831, 0.673662, 0.0984485, 0.673957, 0.0983714, 0.673847, 0, 0
63, 0.00000, 0.0983831, 0.673662, 0.0984485, 0.673957, 0.0983714, 0.673847, 0, 0
64, 0.00000, 0.0983831, 0.673662, 0.0984485, 0.673957, 0.0983714, 0.673847, 0, 0
65, 0.00000, 0.0983831, 0.673662, 0.0984485, 0.673957, 0.0983714, 0.673847, 0, 0
66, 0.00000, 0.0983827, 0.673659, 0.0984482, 0.673955, 0.098371, 0.673845, 0, 0
67, 0.00000, 0.0983789, 0.673633, 0.0984445, 0.67393, 0.0983672, 0.673819, 0, 0
68, 0.00000, 0.0983671, 0.673551, 0.0984333, 0.673851, 0.0983552, 0.673739, 0, 0
69, 0.00000, 0.0982327, 0.672622, 0.0983071, 0.672963, 0.0982188, 0.672838, 0, 0
70, 0.00000, 0.0978422, 0.669922, 0.0979406, 0.670383, 0.0978226, 0.670221, 0, 0
71, 0.00000, 0.0978177, 0.669753, 0.0979175, 0.670221, 0.0977977, 0.670056, 0, 0
72, 0.00000, 0.0978177, 0.669753, 0.0979175, 0.670221, 0.0977977, 0.670056, 0, 0
73, 0.00000, 0.0971771, 0.665385, 0.0973139, 0.665981, 0.0971553, 0.665745, 0, 0
74, 0.00000, 0.0971771, 0.665385, 0.0973139, 0.665981, 0.0971552, 0.665745, 0, 0
75, 0.00000, 0.0971771, 0.665385, 0.0973139, 0.665981, 0.0971552, 0.665745, 0, 0
76, 0.00000, 0.0971771, 0.665385, 0.0973139, 0.665981, 0.0971552, 0.665745, 0, 0
77, 0.00000, 0.0971771, 0.665385, 0.0973139, 0.665981, 0.0971552, 0.665745, 0, 0
78, 0.00000, 0.0971771, 0.665385, 0.0973139, 0.665981, 0.0971552, 0.665745, 0, 0
79, 0.00000, 0.0971771, 0.665385, 0.0973139, 0.665981, 0.0971552, 0.665745, 0, 0
80, 0.00000, 0.0971771, 0.665385, 0.0973139, 0.665981, 0.0971552, 0.665745, 0, 0
81, 0.00000, 0.0971771, 0.665385, 0.0973139, 0.665981, 0.0971552, 0.665745, 0, 0
82, 0.00000, 0.0971771, 0.665385, 0.0973139, 0.665981, 0.0971552, 0.665745, 0, 0
83, 0.00000, 0.0971771, 0.665385, 0.0973139, 0.665981, 0.0971552, 0.665745, 0, 0
84, 0.00000, 0.0971771, 0.665385, 0.0973139, 0.665981, 0.0971552, 0.665745, 0, 0
85, 0.00000, 0.0971771, 0.665385, 0.0973139, 0.665981, 0.0971552, 0.665745, 0, 0
86, 0.00000, 0.0971771, 0.665385, 0.0973139, 0.665981, 0.0971552, 0.665745, 0, 0
87, 0.00000, 0.0971771, 0.665385, 0.0973139, 0.665981, 0.0971552, 0.665745, 0, 0
88, 0.00000, 0.0971771, 0.665385, 0.0973139, 0.665981, 0.0971552, 0.665745, 0, 0
89, 0.00000, 0.0971771, 0.665385, 0.0973139, 0.665981, 0.0971552, 0.665745, 0, 0
90, 0.00000, 0.0971771, 0.665385, 0.0973139, 0.665981, 0.0971552, 0.665745, 0, 0
91, 0.00000, 0.0971771, 0.665385, 0.0973139, 0.665981, 0.0971552, 0.665745, 0, 0
92, 0.00000, 0.0971771, 0.665385, 0.0973139, 0.665981, 0.0971552, 0.665745, 0, 0
93, 0.00000, 0.0971771, 0.665385, 0.0973139, 0.665981, 0.0971552, 0.665745, 0, 0
94, 0.00000, 0.0971771, 0.665385, 0.0973139, 0.665981, 0.0971552, 0.665745, 0, 0
95, 0.00000, 0.0971771, 0.665385, 0.0973139, 0.665981, 0.0971552, 0.665745, 0, 0
96, 0.00000, 0.0971771, 0.665385, 0.0973139, 0.665981, 0.0971552, 0.665745, 0, 0
