hour, t(sec), P1 (kW), Q1 (kvar), P2 (kW), Q2 (kvar), P3 (kW), Q3 (kvar), P4 (kW), Q4 (kvar)
1, 0.00000, 11.5934, 4.8088, 11.5979, 4.80943, 11.5967, 4.80789, 0, 0
2, 0.00000, 11.5934, 4.8088, 11.5979, 4.80943, 11.5967, 4.80789, 0, 0
3, 0.00000, 11.5934, 4.8088, 11.5979, 4.80943, 11.5967, 4.80789, 0, 0
4, 0.00000, 11.5934, 4.8088, 11.5979, 4.80943, 11.5967, 4.80789, 0, 0
5, 0.00000, 11.5934, 4.8088, 11.5979, 4.80943, 11.5967, 4.80789, 0, 0
6, 0.00000, 11.5934, 4.8088, 11.5979, 4.80943, 11.5967, 4.80789, 0, 0
7, 0.00000, 11.5934, 4.8088, 11.5979, 4.80943, 11.5967, 4.80789, 0, 0
8, 0.00000, 11.5934, 4.8088, 11.5979, 4.80943, 11.5967, 4.80789, 0, 0
9, 0.00000, 11.5934, 4.8088, 11.5979, 4.80943, 11.5967, 4.80789, 0, 0
10, 0.00000, 11.5934, 4.8088, 11.5979, 4.80943, 11.5967, 4.80789, 0, 0
11, 0.00000, 11.5934, 4.8088, 11.5979, 4.80943, 11.5967, 4.80789, 0, 0
12, 0.00000, 11.5934, 4.8088, 11.5979, 4.80943, 11.5967, 4.80789, 0, 0
13, 0.00000, 11.5934, 4.8088, 11.5979, 4.80943, 11.5967, 4.80789, 0, 0
14, 0.00000, 11.5934, 4.8088, 11.5979, 4.80943, 11.5967, 4.80789, 0, 0
15, 0.00000, 11.5934, 4.8088, 11.5979, 4.80943, 11.5967, 4.80789, 0, 0
16, 0.00000, 11.5934, 4.8088, 11.5979, 4.80943, 11.5967, 4.80789, 0, 0
17, 0.00000, 11.5934, 4.8088, 11.5979, 4.80943, 11.5967, 4.80789, 0, 0
18, 0.00000, 11.5934, 4.8088, 11.5979, 4.80943, 11.5967, 4.80789, 0, 0
19, 0.00000, 11.5934, 4.8088, 11.5979, 4.80943, 11.5967, 4.80789, 0, 0
20, 0.00000, 11.5934, 4.8088, 11.5979, 4.80943, 11.5967, 4.80789, 0, 0
21, 0.00000, 11.5934, 4.8088, 11.5979, 4.80943, 11.5967, 4.80789, 0, 0
22, 0.00000, 11.5934, 4.8088, 11.5979, 4.80943, 11.5967, 4.80789, 0, 0
23, 0.00000, 11.5935, 4.80838, 11.5978, 4.809, 11.5967, 4.80751, 0, 0
24, 0.00000, 8.20301, 3.46624, 8.20587, 3.46641, 8.20538, 3.46559, 0, 0
25, 0.00000, 5.57297, 2.14762, 5.57457, 2.14733, 5.57461, 2.14708, 0, 0
26, 0.00000, 3.89339, 1.48103, 3.89446, 1.48057, 3.89471, 1.48056, 0, 0
27, 0.00000, 3.04233, 1.13948, 3.04301, 1.13903, 3.04333, 1.13909, 0, 0
28, 0.00000, 3.04242, 1.13672, 3.04307, 1.1363, 3.04337, 1.13636, 0, 0
29, 0.00000, 3.04247, 1.13522, 3.04308, 1.13482, 3.04339, 1.13487, 0, 0
30, 0.00000, 3.04251, 1.13384, 3.04311, 1.13345, 3.0434, 1.1335, 0, 0
31, 0.00000, 3.04254, 1.13316, 3.04312, 1.13278, 3.04341, 1.13282, 0, 0
32, 0.00000, 3.04258, 1.13179, 3.04314, 1.13143, 3.04343, 1.13146, 0, 0
33, 0.00000, 3.04256, 1.1323, 3.04313, 1.13193, 3.04342, 1.13197, 0, 0
34, 0.00000, 3.04258, 1.1318, 3.04314, 1.13143, 3.04343, 1.13147, 0, 0
35, 0.00000, 3.04249, 1.13435, 3.04309, 1.13396, 3.0434, 1.13399, 0, 0
36, 0.00000, 3.04252, 1.13374, 3.04311, 1.13335, 3.04341, 1.13339, 0, 0
37, 0.00000, 3.04257, 1.13178, 3.04314, 1.13142, 3.04342, 1.13145, 0, 0
38, 0.00000, 3.04258, 1.13179, 3.04314, 1.13142, 3.04343, 1.13146, 0, 0
39, 0.00000, 3.04258, 1.13179, 3.04314, 1.13142, 3.04343, 1.13146, 0, 0
40, 0.00000, 3.04258, 1.13179, 3.04314, 1.13142, 3.04343, 1.13146, 0, 0
41, 0.00000, 3.04258, 1.13179, 3.04314, 1.13142, 3.04343, 1.13146, 0, 0
42, 0.00000, 3.04258, 1.13179, 3.04314, 1.13142, 3.04343, 1.13146, 0, 0
43, 0.00000, 3.04258, 1.13179, 3.04314, 1.13142, 3.04343, 1.13146, 0, 0
44, 0.00000, 3.04258, 1.13179, 3.04314, 1.13142, 3.04343, 1.13146, 0, 0
45, 0.00000, 3.04258, 1.13179, 3.04314, 1.13142, 3.04343, 1.13146, 0, 0
46, 0.00000, 3.04258, 1.13179, 3.04314, 1.13142, 3.04343, 1.13146, 0, 0
47, 0.00000, 3.04258, 1.13179, 3.04314, 1.13142, 3.04343, 1.13146, 0, 0
48, 0.00000, 3.04258, 1.13179, 3.04314, 1.13142, 3.04343, 1.13146, 0, 0
49, 0.00000, 4.15056, 1.63084, 4.15142, 1.63049, 4.15167, 1.63046, 0, 0
50, 0.00000, 4.15056, 1.63084, 4.15142, 1.63049, 4.15167, 1.63046, 0, 0
51, 0.00000, 4.15056, 1.63084, 4.15142, 1.63049, 4.15167, 1.63046, 0, 0
52, 0.00000, 4.15056, 1.63084, 4.15142, 1.63049, 4.15167, 1.63046, 0, 0
53, 0.00000, 4.15056, 1.63084, 4.15142, 1.63049, 4.15167, 1.63046, 0, 0
54, 0.00000, 4.15056, 1.63084, 4.15142, 1.63049, 4.15167, 1.63046, 0, 0
55, 0.00000, 4.15056, 1.63084, 4.15142, 1.63049, 4.15167, 1.63046, 0, 0
56, 0.00000, 4.15056, 1.63084, 4.15142, 1.63049, 4.15167, 1.63046, 0, 0
57, 0.00000, 4.15056, 1.63084, 4.15142, 1.63049, 4.15167, 1.63046, 0, 0
58, 0.00000, 4.15056, 1.63084, 4.15142, 1.63049, 4.15167, 1.63046, 0, 0
59, 0.00000, 4.15056, 1.63084, 4.15142, 1.63049, 4.15167, 1.63046, 0, 0
60, 0.00000, 4.15056, 1.63084, 4.15142, 1.63049, 4.15167, 1.63046, 0, 0
61, 0.00000, 4.15056, 1.63084, 4.15142, 1.63049, 4.15167, 1.63046, 0, 0
62, 0.00000, 4.15056, 1.63084, 4.15142, 1.63049, 4.15167, 1.63046, 0, 0
63, 0.00000, 4.15056, 1.63084, 4.15142, 1.63049, 4.15167, 1.63046, 0, 0
64, 0.00000, 4.15056, 1.63084, 4.15142, 1.63049, 4.15167, 1.63046, 0, 0
65, 0.00000, 4.15056, 1.63084, 4.15142, 1.63049, 4.15167, 1.63046, 0, 0
66, 0.00000, 4.15056, 1.63101, 4.15141, 1.63066, 4.15166, 1.63062, 0, 0
67, 0.00000, 4.15049, 1.63279, 4.15138, 1.63242, 4.15165, 1.63238, 0, 0
68, 0.00000, 4.15042, 1.63507, 4.15136, 1.63469, 4.15164, 1.63464, 0, 0
69, 0.00000, 4.15014, 1.64339, 4.15124, 1.64296, 4.15158, 1.64289, 0, 0
70, 0.00000, 13.4496, 1.95182, 13.4542, 1.95109, 13.4536, 1.95004, 0, 0
71, 0.00000, 13.4499, 1.95473, 13.4547, 1.954, 13.4541, 1.9529, 0, 0
72, 0.00000, 13.4499, 1.95474, 13.4547, 1.95401, 13.4541, 1.95291, 0, 0
73, 0.00000, 18.7279, 4.49682, 18.7366, 4.49613, 18.7352, 4.49394, 0, 0
74, 0.00000, 18.728, 4.49687, 18.7367, 4.49618, 18.7352, 4.49399, 0, 0
75, 0.00000, 18.728, 4.49687, 18.7367, 4.49618, 18.7352, 4.49399, 0, 0
76, 0.00000, 18.728, 4.49687, 18.7367, 4.49618, 18.7352, 4.49399, 0, 0
77, 0.00000, 18.728, 4.49687, 18.7367, 4.49618, 18.7352, 4.49399, 0, 0
78, 0.00000, 18.728, 4.49687, 18.7367, 4.49618, 18.7352, 4.49399, 0, 0
79, 0.00000, 18.728, 4.49687, 18.7367, 4.49618, 18.7352, 4.49399, 0, 0
80, 0.00000, 18.728, 4.49687, 18.7367, 4.49618, 18.7352, 4.49399, 0, 0
81, 0.00000, 18.728, 4.49687, 18.7367, 4.49618, 18.7352, 4.49399, 0, 0
82, 0.00000, 18.728, 4.49687, 18.7367, 4.49618, 18.7352, 4.49399, 0, 0
83, 0.00000, 18.728, 4.49687, 18.7367, 4.49618, 18.7352, 4.49399, 0, 0
84, 0.00000, 18.728, 4.49687, 18.7367, 4.49618, 18.7352, 4.49399, 0, 0
85, 0.00000, 18.728, 4.49687, 18.7367, 4.49618, 18.7352, 4.49399, 0, 0
86, 0.00000, 18.728, 4.49687, 18.7367, 4.49618, 18.7352, 4.49399, 0, 0
87, 0.00000, 18.728, 4.49687, 18.7367, 4.49618, 18.7352, 4.49399, 0, 0
88, 0.00000, 18.728, 4.49687, 18.7367, 4.49618, 18.7352, 4.49399, 0, 0
89, 0.00000, 18.728, 4.49687, 18.7367, 4.49618, 18.7352, 4.49399, 0, 0
90, 0.00000, 18.728, 4.49687, 18.7367, 4.49618, 18.7352, 4.49399, 0, 0
91, 0.00000, 18.728, 4.49687, 18.7367, 4.49618, 18.7352, 4.49399, 0, 0
92, 0.00000, 18.728, 4.49687, 18.7367, 4.49618, 18.7352, 4.49399, 0, 0
93, 0.00000, 18.728, 4.49687, 18.7367, 4.49618, 18.7352, 4.49399, 0, 0
94, 0.00000, 18.728, 4.49687, 18.7367, 4.49618, 18.7352, 4.49399, 0, 0
95, 0.00000, 18.728, 4.49687, 18.7367, 4.49618, 18.7352, 4.49399, 0, 0
96, 0.00000, 18.728, 4.49687, 18.7367, 4.49618, 18.7352, 4.49399, 0, 0
