hour, t(sec), P1 (kW), Q1 (kvar), P2 (kW), Q2 (kvar), P3 (kW), Q3 (kvar), P4 (kW), Q4 (kvar)
1, 0.00000, 17.0592, 7.03526, 17.0659, 7.03597, 17.0643, 7.03378, 0, 0
2, 0.00000, 17.0592, 7.03526, 17.0659, 7.03597, 17.0643, 7.03378, 0, 0
3, 0.00000, 17.0592, 7.03526, 17.0659, 7.03597, 17.0643, 7.03378, 0, 0
4, 0.00000, 17.0592, 7.03526, 17.0659, 7.03597, 17.0643, 7.03378, 0, 0
5, 0.00000, 17.0592, 7.03526, 17.0659, 7.03597, 17.0643, 7.03378, 0, 0
6, 0.00000, 17.0592, 7.03526, 17.0659, 7.03597, 17.0643, 7.03378, 0, 0
7, 0.00000, 17.0592, 7.03526, 17.0659, 7.03597, 17.0643, 7.03378, 0, 0
8, 0.00000, 17.0592, 7.03526, 17.0659, 7.03597, 17.0643, 7.03378, 0, 0
9, 0.00000, 17.0592, 7.03526, 17.0659, 7.03597, 17.0643, 7.03378, 0, 0
10, 0.00000, 17.0592, 7.03526, 17.0659, 7.03597, 17.0643, 7.03378, 0, 0
11, 0.00000, 17.0592, 7.03526, 17.0659, 7.03597, 17.0643, 7.03378, 0, 0
12, 0.00000, 17.0592, 7.03526, 17.0659, 7.03597, 17.0643, 7.03378, 0, 0
13, 0.00000, 17.0592, 7.03526, 17.0659, 7.03597, 17.0643, 7.03378, 0, 0
14, 0.00000, 17.0592, 7.03526, 17.0659, 7.03597, 17.0643, 7.03378, 0, 0
15, 0.00000, 17.0592, 7.03526, 17.0659, 7.03597, 17.0643, 7.03378, 0, 0
16, 0.00000, 17.0592, 7.03526, 17.0659, 7.03597, 17.0643, 7.03378, 0, 0
17, 0.00000, 17.0592, 7.03526, 17.0659, 7.03597, 17.0643, 7.03378, 0, 0
18, 0.00000, 17.0592, 7.03526, 17.0659, 7.03597, 17.0643, 7.03378, 0, 0
19, 0.00000, 17.0592, 7.03526, 17.0659, 7.03597, 17.0643, 7.03378, 0, 0
20, 0.00000, 17.0592, 7.03526, 17.0659, 7.03597, 17.0643, 7.03378, 0, 0
21, 0.00000, 17.0592, 7.03526, 17.0659, 7.03597, 17.0643, 7.03378, 0, 0
22, 0.00000, 17.0592, 7.03526, 17.0659, 7.03597, 17.0643, 7.03378, 0, 0
23, 0.00000, 17.0592, 7.03391, 17.0656, 7.03461, 17.0641, 7.03249, 0, 0
24, 0.00000, 13.6344, 5.55572, 13.6392, 5.55593, 13.6384, 5.55456, 0, 0
25, 0.00000, 9.42157, 3.6841, 9.42429, 3.68388, 9.42416, 3.6833, 0, 0
26, 0.00000, 7.73138, 3.18117, 7.7335, 3.18085, 7.73358, 3.18049, 0, 0
27, 0.00000, 2.75604, 0.791496, 2.75667, 0.790616, 2.75731, 0.790906, 0, 0
28, 0.00000, 2.75614, 0.786965, 2.75673, 0.786134, 2.75734, 0.786403, 0, 0
29, 0.00000, 2.75619, 0.784555, 2.75675, 0.783752, 2.75735, 0.784007, 0, 0
30, 0.00000, 2.75624, 0.782329, 2.75678, 0.781552, 2.75736, 0.781795, 0, 0
31, 0.00000, 2.75626, 0.781238, 2.75679, 0.780473, 2.75737, 0.780708, 0, 0
32, 0.00000, 2.75631, 0.779039, 2.75681, 0.7783, 2.75738, 0.778524, 0, 0
33, 0.00000, 2.75629, 0.779857, 2.7568, 0.779109, 2.75737, 0.779334, 0, 0
34, 0.00000, 2.75631, 0.779043, 2.75682, 0.778304, 2.75738, 0.778527, 0, 0
35, 0.00000, 2.75622, 0.783147, 2.75675, 0.782361, 2.75736, 0.782597, 0, 0
36, 0.00000, 2.75624, 0.782167, 2.75677, 0.781393, 2.75737, 0.781625, 0, 0
37, 0.00000, 2.7563, 0.779025, 2.75681, 0.778286, 2.75737, 0.77851, 0, 0
38, 0.00000, 2.75631, 0.779031, 2.75681, 0.778292, 2.75738, 0.778515, 0, 0
39, 0.00000, 2.75631, 0.779031, 2.75681, 0.778292, 2.75738, 0.778515, 0, 0
40, 0.00000, 2.75631, 0.779031, 2.75681, 0.778292, 2.75738, 0.778515, 0, 0
41, 0.00000, 2.75631, 0.779031, 2.75681, 0.778292, 2.75738, 0.778515, 0, 0
42, 0.00000, 2.75631, 0.779031, 2.75681, 0.778292, 2.75738, 0.778515, 0, 0
43, 0.00000, 2.75631, 0.779031, 2.75681, 0.778292, 2.75738, 0.778515, 0, 0
44, 0.00000, 2.75631, 0.779031, 2.75681, 0.778292, 2.75738, 0.778515, 0, 0
45, 0.00000, 2.75631, 0.779031, 2.75681, 0.778292, 2.75738, 0.778515, 0, 0
46, 0.00000, 2.75631, 0.779031, 2.75681, 0.778292, 2.75738, 0.778515, 0, 0
47, 0.00000, 2.75631, 0.779031, 2.75681, 0.778292, 2.75738, 0.778515, 0, 0
48, 0.00000, 2.75631, 0.779031, 2.75681, 0.778292, 2.75738, 0.778515, 0, 0
49, 0.00000, 4.35715, 1.55942, 4.35805, 1.55871, 4.35858, 1.55884, 0, 0
50, 0.00000, 4.35715, 1.55942, 4.35805, 1.55871, 4.35858, 1.55884, 0, 0
51, 0.00000, 4.35715, 1.55942, 4.35805, 1.55871, 4.35858, 1.55884, 0, 0
52, 0.00000, 4.35715, 1.55942, 4.35805, 1.55871, 4.35858, 1.55884, 0, 0
53, 0.00000, 4.35715, 1.55942, 4.35805, 1.55871, 4.35858, 1.55884, 0, 0
54, 0.00000, 4.35715, 1.55942, 4.35805, 1.55871, 4.35858, 1.55884, 0, 0
55, 0.00000, 4.35715, 1.55942, 4.35805, 1.55871, 4.35858, 1.55884, 0, 0
56, 0.00000, 4.35715, 1.55942, 4.35805, 1.55871, 4.35858, 1.55884, 0, 0
57, 0.00000, 4.35715, 1.55942, 4.35805, 1.55871, 4.35858, 1.55884, 0, 0
58, 0.00000, 4.35715, 1.55942, 4.35805, 1.55871, 4.35858, 1.55884, 0, 0
59, 0.00000, 4.35715, 1.55942, 4.35805, 1.55871, 4.35858, 1.55884, 0, 0
60, 0.00000, 4.35715, 1.55942, 4.35805, 1.55871, 4.35858, 1.55884, 0, 0
61, 0.00000, 4.35715, 1.55942, 4.35805, 1.55871, 4.35858, 1.55884, 0, 0
62, 0.00000, 4.35715, 1.55942, 4.35805, 1.55871, 4.35858, 1.55884, 0, 0
63, 0.00000, 4.35715, 1.55942, 4.35805, 1.55871, 4.35858, 1.55884, 0, 0
64, 0.00000, 4.35715, 1.55942, 4.35805, 1.55871, 4.35858, 1.55884, 0, 0
65, 0.00000, 4.35715, 1.55942, 4.35805, 1.55871, 4.35858, 1.55884, 0, 0
66, 0.00000, 4.35714, 1.5597, 4.35805, 1.55898, 4.35858, 1.55911, 0, 0
67, 0.00000, 4.35708, 1.56256, 4.35802, 1.56181, 4.35857, 1.56194, 0, 0
68, 0.00000, 4.357, 1.56623, 4.35799, 1.56545, 4.35858, 1.56558, 0, 0
69, 0.00000, 7.65051, 1.66899, 7.65251, 1.668, 7.65292, 1.66791, 0, 0
70, 0.00000, 17.8419, 2.17064, 17.848, 2.16923, 17.8475, 2.16798, 0, 0
71, 0.00000, 17.8427, 2.17567, 17.849, 2.17423, 17.8485, 2.17293, 0, 0
72, 0.00000, 17.8427, 2.1757, 17.849, 2.17426, 17.8485, 2.17296, 0, 0
73, 0.00000, 27.2116, 7.17257, 27.2243, 7.1715, 27.2226, 7.16827, 0, 0
74, 0.00000, 27.2118, 7.17278, 27.2245, 7.1717, 27.2228, 7.16848, 0, 0
75, 0.00000, 27.2118, 7.17278, 27.2245, 7.1717, 27.2228, 7.16848, 0, 0
76, 0.00000, 27.2118, 7.17278, 27.2245, 7.1717, 27.2228, 7.16848, 0, 0
77, 0.00000, 27.2118, 7.17278, 27.2245, 7.1717, 27.2228, 7.16848, 0, 0
78, 0.00000, 27.2118, 7.17278, 27.2245, 7.1717, 27.2228, 7.16848, 0, 0
79, 0.00000, 27.2118, 7.17278, 27.2245, 7.1717, 27.2228, 7.16848, 0, 0
80, 0.00000, 27.2118, 7.17278, 27.2245, 7.1717, 27.2228, 7.16848, 0, 0
81, 0.00000, 27.2118, 7.17278, 27.2245, 7.1717, 27.2228, 7.16848, 0, 0
82, 0.00000, 27.2118, 7.17278, 27.2245, 7.1717, 27.2228, 7.16848, 0, 0
83, 0.00000, 27.2118, 7.17278, 27.2245, 7.1717, 27.2228, 7.16848, 0, 0
84, 0.00000, 27.2118, 7.17278, 27.2245, 7.1717, 27.2228, 7.16848, 0, 0
85, 0.00000, 27.2118, 7.17278, 27.2245, 7.1717, 27.2228, 7.16848, 0, 0
86, 0.00000, 27.2118, 7.17278, 27.2245, 7.1717, 27.2228, 7.16848, 0, 0
87, 0.00000, 27.2118, 7.17278, 27.2245, 7.1717, 27.2228, 7.16848, 0, 0
88, 0.00000, 27.2118, 7.17278, 27.2245, 7.1717, 27.2228, 7.16848, 0, 0
89, 0.00000, 27.2118, 7.17278, 27.2245, 7.1717, 27.2228, 7.16848, 0, 0
90, 0.00000, 27.2118, 7.17278, 27.2245, 7.1717, 27.2228, 7.16848, 0, 0
91, 0.00000, 27.2118, 7.17278, 27.2245, 7.1717, 27.2228, 7.16848, 0, 0
92, 0.00000, 27.2118, 7.17278, 27.2245, 7.1717, 27.2228, 7.16848, 0, 0
93, 0.00000, 27.2118, 7.17278, 27.2245, 7.1717, 27.2228, 7.16848, 0, 0
94, 0.00000, 27.2118, 7.17278, 27.2245, 7.1717, 27.2228, 7.16848, 0, 0
95, 0.00000, 27.2118, 7.17278, 27.2245, 7.1717, 27.2228, 7.16848, 0, 0
96, 0.00000, 27.2118, 7.17278, 27.2245, 7.1717, 27.2228, 7.16848, 0, 0
