hour, t(sec), P1 (kW), Q1 (kvar), P2 (kW), Q2 (kvar), P3 (kW), Q3 (kvar), P4 (kW), Q4 (kvar)
1, 0.00000, 39.0133, -4.58155, 39.0318, -4.59434, 39.0308, -4.59428, 0, 0
2, 0.00000, 39.0133, -4.58155, 39.0318, -4.59434, 39.0308, -4.59428, 0, 0
3, 0.00000, 39.0133, -4.58155, 39.0318, -4.59434, 39.0308, -4.59428, 0, 0
4, 0.00000, 39.0133, -4.58155, 39.0318, -4.59434, 39.0308, -4.59428, 0, 0
5, 0.00000, 39.0133, -4.58155, 39.0318, -4.59434, 39.0308, -4.59428, 0, 0
6, 0.00000, 39.0133, -4.58155, 39.0318, -4.59434, 39.0308, -4.59428, 0, 0
7, 0.00000, 39.0133, -4.58155, 39.0318, -4.59434, 39.0308, -4.59428, 0, 0
8, 0.00000, 39.0133, -4.58155, 39.0318, -4.59434, 39.0308, -4.59428, 0, 0
9, 0.00000, 39.0133, -4.58155, 39.0318, -4.59434, 39.0308, -4.59428, 0, 0
10, 0.00000, 39.0133, -4.58155, 39.0318, -4.59434, 39.0308, -4.59428, 0, 0
11, 0.00000, 39.0133, -4.58155, 39.0318, -4.59434, 39.0308, -4.59428, 0, 0
12, 0.00000, 39.0133, -4.58155, 39.0318, -4.59434, 39.0308, -4.59428, 0, 0
13, 0.00000, 39.0133, -4.58155, 39.0318, -4.59434, 39.0308, -4.59428, 0, 0
14, 0.00000, 39.0133, -4.58155, 39.0318, -4.59434, 39.0308, -4.59428, 0, 0
15, 0.00000, 39.0133, -4.58155, 39.0318, -4.59434, 39.0308, -4.59428, 0, 0
16, 0.00000, 39.0133, -4.58155, 39.0318, -4.59434, 39.0308, -4.59428, 0, 0
17, 0.00000, 39.0133, -4.58155, 39.0318, -4.59434, 39.0308, -4.59428, 0, 0
18, 0.00000, 39.0133, -4.58155, 39.0318, -4.59434, 39.0308, -4.59428, 0, 0
19, 0.00000, 39.0133, -4.58155, 39.0318, -4.59434, 39.0308, -4.59428, 0, 0
20, 0.00000, 39.0133, -4.58155, 39.0318, -4.59434, 39.0308, -4.59428, 0, 0
21, 0.00000, 39.0133, -4.58155, 39.0318, -4.59434, 39.0308, -4.59428, 0, 0
22, 0.00000, 39.0133, -4.58155, 39.0318, -4.59434, 39.0308, -4.59428, 0, 0
23, 0.00000, 39.0135, -4.59151, 39.0317, -4.60406, 39.0307, -4.60404, 0, 0
24, 0.00000, 39.0142, -4.63564, 39.0311, -4.64707, 39.0303, -4.64722, 0, 0
25, 0.00000, 44.3175, -2.10692, 44.3345, -2.11597, 44.3336, -2.1173, 0, 0
26, 0.00000, 44.318, -2.13404, 44.334, -2.14242, 44.3332, -2.14381, 0, 0
27, 0.00000, 44.319, -2.20059, 44.3327, -2.20731, 44.3323, -2.20888, 0, 0
28, 0.00000, 44.3193, -2.21636, 44.3324, -2.22268, 44.3321, -2.2243, 0, 0
29, 0.00000, 44.3193, -2.22031, 44.3323, -2.22655, 44.332, -2.22817, 0, 0
30, 0.00000, 44.3193, -2.22139, 44.3323, -2.2276, 44.332, -2.22923, 0, 0
31, 0.00000, 44.3193, -2.22188, 44.3323, -2.22808, 44.332, -2.22971, 0, 0
32, 0.00000, 44.3193, -2.22273, 44.3323, -2.22892, 44.332, -2.23055, 0, 0
33, 0.00000, 44.3193, -2.22246, 44.3323, -2.22866, 44.332, -2.23029, 0, 0
34, 0.00000, 44.3193, -2.22272, 44.3323, -2.22892, 44.332, -2.23055, 0, 0
35, 0.00000, 44.3193, -2.22128, 44.3323, -2.2275, 44.332, -2.22913, 0, 0
36, 0.00000, 44.3193, -2.2217, 44.3323, -2.22791, 44.332, -2.22954, 0, 0
37, 0.00000, 44.3193, -2.22273, 44.3323, -2.22892, 44.332, -2.23055, 0, 0
38, 0.00000, 44.3193, -2.22273, 44.3323, -2.22892, 44.332, -2.23055, 0, 0
39, 0.00000, 44.3193, -2.22273, 44.3323, -2.22892, 44.332, -2.23055, 0, 0
40, 0.00000, 44.3193, -2.22273, 44.3323, -2.22892, 44.332, -2.23055, 0, 0
41, 0.00000, 44.3193, -2.22273, 44.3323, -2.22892, 44.332, -2.23055, 0, 0
42, 0.00000, 44.3193, -2.22273, 44.3323, -2.22892, 44.332, -2.23055, 0, 0
43, 0.00000, 44.3193, -2.22273, 44.3323, -2.22892, 44.332, -2.23055, 0, 0
44, 0.00000, 44.3193, -2.22273, 44.3323, -2.22892, 44.332, -2.23055, 0, 0
45, 0.00000, 44.3193, -2.22273, 44.3323, -2.22892, 44.332, -2.23055, 0, 0
46, 0.00000, 44.3193, -2.22273, 44.3323, -2.22892, 44.332, -2.23055, 0, 0
47, 0.00000, 44.3193, -2.22273, 44.3323, -2.22892, 44.332, -2.23055, 0, 0
48, 0.00000, 44.3193, -2.22273, 44.3323, -2.22892, 44.332, -2.23055, 0, 0
49, 0.00000, 48.9693, 0.122321, 48.9852, 0.115688, 48.9844, 0.113484, 0, 0
50, 0.00000, 48.9693, 0.122311, 48.9852, 0.115678, 48.9844, 0.113474, 0, 0
51, 0.00000, 48.9693, 0.122311, 48.9852, 0.115678, 48.9844, 0.113474, 0, 0
52, 0.00000, 48.9693, 0.122311, 48.9852, 0.115678, 48.9844, 0.113474, 0, 0
53, 0.00000, 48.9693, 0.122311, 48.9852, 0.115678, 48.9844, 0.113474, 0, 0
54, 0.00000, 48.9693, 0.122311, 48.9852, 0.115678, 48.9844, 0.113474, 0, 0
55, 0.00000, 48.9693, 0.122311, 48.9852, 0.115678, 48.9844, 0.113474, 0, 0
56, 0.00000, 48.9693, 0.122311, 48.9852, 0.115678, 48.9844, 0.113474, 0, 0
57, 0.00000, 48.9693, 0.122311, 48.9852, 0.115678, 48.9844, 0.113474, 0, 0
58, 0.00000, 48.9693, 0.122311, 48.9852, 0.115678, 48.9844, 0.113474, 0, 0
59, 0.00000, 48.9693, 0.122311, 48.9852, 0.115678, 48.9844, 0.113474, 0, 0
60, 0.00000, 48.9693, 0.122311, 48.9852, 0.115678, 48.9844, 0.113474, 0, 0
61, 0.00000, 48.9693, 0.122311, 48.9852, 0.115678, 48.9844, 0.113474, 0, 0
62, 0.00000, 48.9693, 0.122311, 48.9852, 0.115678, 48.9844, 0.113474, 0, 0
63, 0.00000, 48.9693, 0.122311, 48.9852, 0.115678, 48.9844, 0.113474, 0, 0
64, 0.00000, 48.9693, 0.122311, 48.9852, 0.115678, 48.9844, 0.113474, 0, 0
65, 0.00000, 48.9693, 0.122311, 48.9852, 0.115678, 48.9844, 0.113474, 0, 0
66, 0.00000, 48.9692, 0.1224, 48.9852, 0.115766, 48.9844, 0.113562, 0, 0
67, 0.00000, 48.9692, 0.123349, 48.9852, 0.116701, 48.9844, 0.114494, 0, 0
68, 0.00000, 48.9692, 0.126903, 48.9853, 0.120204, 48.9845, 0.117969, 0, 0
69, 0.00000, 48.9682, 0.168441, 48.9864, 0.16112, 48.9855, 0.158462, 0, 0
70, 0.00000, 48.9636, 0.284937, 48.9875, 0.275862, 48.9865, 0.272007, 0, 0
71, 0.00000, 48.9655, 0.29258, 48.9896, 0.283386, 48.9887, 0.279452, 0, 0
72, 0.00000, 48.9656, 0.292638, 48.9897, 0.283444, 48.9888, 0.279508, 0, 0
73, 0.00000, 66.335, 9.38108, 66.3789, 9.37039, 66.3745, 9.36199, 0, 0
74, 0.00000, 66.3358, 9.38163, 66.3797, 9.37093, 66.3753, 9.36253, 0, 0
75, 0.00000, 66.3358, 9.38163, 66.3797, 9.37093, 66.3753, 9.36253, 0, 0
76, 0.00000, 66.3358, 9.38163, 66.3797, 9.37093, 66.3753, 9.36253, 0, 0
77, 0.00000, 66.3358, 9.38163, 66.3797, 9.37093, 66.3753, 9.36253, 0, 0
78, 0.00000, 66.3358, 9.38163, 66.3797, 9.37093, 66.3753, 9.36253, 0, 0
79, 0.00000, 66.3358, 9.38163, 66.3797, 9.37093, 66.3753, 9.36253, 0, 0
80, 0.00000, 66.3358, 9.38163, 66.3797, 9.37093, 66.3753, 9.36253, 0, 0
81, 0.00000, 66.3358, 9.38163, 66.3797, 9.37093, 66.3753, 9.36253, 0, 0
82, 0.00000, 66.3358, 9.38163, 66.3797, 9.37093, 66.3753, 9.36253, 0, 0
83, 0.00000, 66.3358, 9.38163, 66.3797, 9.37093, 66.3753, 9.36253, 0, 0
84, 0.00000, 66.3358, 9.38163, 66.3797, 9.37093, 66.3753, 9.36253, 0, 0
85, 0.00000, 66.3358, 9.38163, 66.3797, 9.37093, 66.3753, 9.36253, 0, 0
86, 0.00000, 66.3358, 9.38163, 66.3797, 9.37093, 66.3753, 9.36253, 0, 0
87, 0.00000, 66.3358, 9.38163, 66.3797, 9.37093, 66.3753, 9.36253, 0, 0
88, 0.00000, 66.3358, 9.38163, 66.3797, 9.37093, 66.3753, 9.36253, 0, 0
89, 0.00000, 66.3358, 9.38163, 66.3797, 9.37093, 66.3753, 9.36253, 0, 0
90, 0.00000, 66.3358, 9.38163, 66.3797, 9.37093, 66.3753, 9.36253, 0, 0
91, 0.00000, 66.3358, 9.38163, 66.3797, 9.37093, 66.3753, 9.36253, 0, 0
92, 0.00000, 66.3358, 9.38163, 66.3797, 9.37093, 66.3753, 9.36253, 0, 0
93, 0.00000, 66.3358, 9.38163, 66.3797, 9.37093, 66.3753, 9.36253, 0, 0
94, 0.00000, 66.3358, 9.38163, 66.3797, 9.37093, 66.3753, 9.36253, 0, 0
95, 0.00000, 66.3358, 9.38163, 66.3797, 9.37093, 66.3753, 9.36253, 0, 0
96, 0.00000, 66.3358, 9.38163, 66.3797, 9.37093, 66.3753, 9.36253, 0, 0
