hour, t(sec), P1 (kW), Q1 (kvar), P2 (kW), Q2 (kvar), P3 (kW), Q3 (kvar), P4 (kW), Q4 (kvar)
1, 0.00000, 3.05704, 1.2095, 3.05772, 1.20959, 3.05752, 1.20938, 0, 0
2, 0.00000, 3.05704, 1.2095, 3.05772, 1.20959, 3.05752, 1.20938, 0, 0
3, 0.00000, 3.05704, 1.2095, 3.05772, 1.20959, 3.05752, 1.20938, 0, 0
4, 0.00000, 3.05704, 1.2095, 3.05772, 1.20959, 3.05752, 1.20938, 0, 0
5, 0.00000, 3.05704, 1.2095, 3.05772, 1.20959, 3.05752, 1.20938, 0, 0
6, 0.00000, 3.05704, 1.2095, 3.05772, 1.20959, 3.05752, 1.20938, 0, 0
7, 0.00000, 3.05704, 1.2095, 3.05772, 1.20959, 3.05752, 1.20938, 0, 0
8, 0.00000, 3.05704, 1.2095, 3.05772, 1.20959, 3.05752, 1.20938, 0, 0
9, 0.00000, 3.05704, 1.2095, 3.05772, 1.20959, 3.05752, 1.20938, 0, 0
10, 0.00000, 3.05704, 1.2095, 3.05772, 1.20959, 3.05752, 1.20938, 0, 0
11, 0.00000, 3.05704, 1.2095, 3.05772, 1.20959, 3.05752, 1.20938, 0, 0
12, 0.00000, 3.05704, 1.2095, 3.05772, 1.20959, 3.05752, 1.20938, 0, 0
13, 0.00000, 3.05704, 1.2095, 3.05772, 1.20959, 3.05752, 1.20938, 0, 0
14, 0.00000, 3.05704, 1.2095, 3.05772, 1.20959, 3.05752, 1.20938, 0, 0
15, 0.00000, 3.05704, 1.2095, 3.05772, 1.20959, 3.05752, 1.20938, 0, 0
16, 0.00000, 3.05704, 1.2095, 3.05772, 1.20959, 3.05752, 1.20938, 0, 0
17, 0.00000, 3.05704, 1.2095, 3.05772, 1.20959, 3.05752, 1.20938, 0, 0
18, 0.00000, 3.05704, 1.2095, 3.05772, 1.20959, 3.05752, 1.20938, 0, 0
19, 0.00000, 3.05704, 1.2095, 3.05772, 1.20959, 3.05752, 1.20938, 0, 0
20, 0.00000, 3.05704, 1.2095, 3.05772, 1.20959, 3.05752, 1.20938, 0, 0
21, 0.00000, 3.05704, 1.2095, 3.05772, 1.20959, 3.05752, 1.20938, 0, 0
22, 0.00000, 3.05704, 1.2095, 3.05772, 1.20959, 3.05752, 1.20938, 0, 0
23, 0.00000, 1.38831, 0.515399, 1.38863, 0.515343, 1.38861, 0.515317, 0, 0
24, 0.00000, 0.958281, 0.415049, 0.958488, 0.414988, 0.958507, 0.414993, 0, 0
25, 0.00000, -0.00588184, 0.000610068, -0.00586258, 0.000530444, -0.0058031, 0.000587924, 0, 0
26, 0.00000, -0.00578505, 0.00012883, -0.00576755, 5.39581E-005, -0.0057114, 0.000107466, 0, 0
27, 0.00000, -0.00552685, -0.00115484, -0.00551421, -0.00121738, -0.00546651, -0.00117444, 0, 0
28, 0.00000, -0.00546046, -0.00148491, -0.00544903, -0.00154411, -0.00540365, -0.00150393, 0, 0
29, 0.00000, -0.00542429, -0.00166431, -0.00541365, -0.0017217, -0.00536948, -0.00168314, 0, 0
30, 0.00000, -0.0053952, -0.00180892, -0.00538503, -0.00186464, -0.00534207, -0.00182735, 0, 0
31, 0.00000, -0.00538224, -0.00187306, -0.00537245, -0.00192826, -0.00532977, -0.00189156, 0, 0
32, 0.00000, -0.00535666, -0.00200018, -0.00534734, -0.00205405, -0.00530558, -0.00201844, 0, 0
33, 0.00000, -0.00536597, -0.00195372, -0.00535658, -0.00200818, -0.00531434, -0.00197221, 0, 0
34, 0.00000, -0.0053567, -0.00199998, -0.00534738, -0.00205385, -0.00530562, -0.00201824, 0, 0
35, 0.00000, -0.00540499, -0.00175916, -0.00539526, -0.0018161, -0.00535104, -0.00177857, 0, 0
36, 0.00000, -0.0053924, -0.00182191, -0.00538278, -0.00187802, -0.00533922, -0.00184101, 0, 0
37, 0.00000, -0.00535648, -0.00200105, -0.00534716, -0.00205491, -0.00530542, -0.00201931, 0, 0
38, 0.00000, -0.00535655, -0.00200071, -0.00534723, -0.00205457, -0.00530548, -0.00201897, 0, 0
39, 0.00000, -0.00535655, -0.0020007, -0.00534723, -0.00205456, -0.00530548, -0.00201896, 0, 0
40, 0.00000, -0.00535655, -0.0020007, -0.00534723, -0.00205456, -0.00530548, -0.00201896, 0, 0
41, 0.00000, -0.00535655, -0.0020007, -0.00534723, -0.00205456, -0.00530548, -0.00201896, 0, 0
42, 0.00000, -0.00535655, -0.0020007, -0.00534723, -0.00205456, -0.00530548, -0.00201896, 0, 0
43, 0.00000, -0.00535655, -0.0020007, -0.00534723, -0.00205456, -0.00530548, -0.00201896, 0, 0
44, 0.00000, -0.00535655, -0.0020007, -0.00534723, -0.00205456, -0.00530548, -0.00201896, 0, 0
45, 0.00000, -0.00535655, -0.0020007, -0.00534723, -0.00205456, -0.00530548, -0.00201896, 0, 0
46, 0.00000, -0.00535655, -0.0020007, -0.00534723, -0.00205456, -0.00530548, -0.00201896, 0, 0
47, 0.00000, -0.00535655, -0.0020007, -0.00534723, -0.00205456, -0.00530548, -0.00201896, 0, 0
48, 0.00000, -0.00535655, -0.0020007, -0.00534723, -0.00205456, -0.00530548, -0.00201896, 0, 0
49, 0.00000, 0.204155, 0.0881375, 0.20419, 0.0880845, 0.204229, 0.0881157, 0, 0
50, 0.00000, 0.204155, 0.0881375, 0.20419, 0.0880845, 0.204229, 0.0881157, 0, 0
51, 0.00000, 0.204155, 0.0881375, 0.20419, 0.0880845, 0.204229, 0.0881157, 0, 0
52, 0.00000, 0.204155, 0.0881375, 0.20419, 0.0880845, 0.204229, 0.0881157, 0, 0
53, 0.00000, 0.204155, 0.0881375, 0.20419, 0.0880845, 0.204229, 0.0881157, 0, 0
54, 0.00000, 0.204155, 0.0881375, 0.20419, 0.0880845, 0.204229, 0.0881157, 0, 0
55, 0.00000, 0.204155, 0.0881375, 0.20419, 0.0880845, 0.204229, 0.0881157, 0, 0
56, 0.00000, 0.204155, 0.0881375, 0.20419, 0.0880845, 0.204229, 0.0881157, 0, 0
57, 0.00000, 0.204155, 0.0881375, 0.20419, 0.0880845, 0.204229, 0.0881157, 0, 0
58, 0.00000, 0.204155, 0.0881375, 0.20419, 0.0880845, 0.204229, 0.0881157, 0, 0
59, 0.00000, 0.204155, 0.0881375, 0.20419, 0.0880845, 0.204229, 0.0881157, 0, 0
60, 0.00000, 0.204155, 0.0881375, 0.20419, 0.0880845, 0.204229, 0.0881157, 0, 0
61, 0.00000, 0.204155, 0.0881375, 0.20419, 0.0880845, 0.204229, 0.0881157, 0, 0
62, 0.00000, 0.204155, 0.0881375, 0.20419, 0.0880845, 0.204229, 0.0881157, 0, 0
63, 0.00000, 0.204155, 0.0881375, 0.20419, 0.0880845, 0.204229, 0.0881157, 0, 0
64, 0.00000, 0.204155, 0.0881375, 0.20419, 0.0880845, 0.204229, 0.0881157, 0, 0
65, 0.00000, 0.204155, 0.0881375, 0.20419, 0.0880845, 0.204229, 0.0881157, 0, 0
66, 0.00000, 0.204152, 0.088153, 0.204187, 0.0880998, 0.204227, 0.0881311, 0, 0
67, 0.00000, 0.204119, 0.0883151, 0.204155, 0.0882602, 0.204196, 0.0882925, 0, 0
68, 0.00000, 0.204068, 0.0885656, 0.204106, 0.0885077, 0.204149, 0.0885415, 0, 0
69, 0.00000, 0.203882, 0.0894791, 0.203926, 0.0894105, 0.203978, 0.0894494, 0, 0
70, 0.00000, 0.633475, 0.0921066, 0.633611, 0.0920068, 0.633658, 0.092034, 0, 0
71, 0.00000, 2.30125, 0.0972753, 2.30172, 0.0971471, 2.30165, 0.0970831, 0, 0
72, 0.00000, 2.30125, 0.097276, 2.30172, 0.0971478, 2.30165, 0.0970838, 0, 0
73, 0.00000, 4.3591, 0.989886, 4.36027, 0.989825, 4.36002, 0.989551, 0, 0
74, 0.00000, 4.3591, 0.989889, 4.36027, 0.989827, 4.36002, 0.989554, 0, 0
75, 0.00000, 4.3591, 0.989889, 4.36027, 0.989827, 4.36002, 0.989554, 0, 0
76, 0.00000, 4.3591, 0.989889, 4.36027, 0.989827, 4.36002, 0.989554, 0, 0
77, 0.00000, 4.3591, 0.989889, 4.36027, 0.989827, 4.36002, 0.989554, 0, 0
78, 0.00000, 4.3591, 0.989889, 4.36027, 0.989827, 4.36002, 0.989554, 0, 0
79, 0.00000, 4.3591, 0.989889, 4.36027, 0.989827, 4.36002, 0.989554, 0, 0
80, 0.00000, 4.3591, 0.989889, 4.36027, 0.989827, 4.36002, 0.989554, 0, 0
81, 0.00000, 4.3591, 0.989889, 4.36027, 0.989827, 4.36002, 0.989554, 0, 0
82, 0.00000, 4.3591, 0.989889, 4.36027, 0.989827, 4.36002, 0.989554, 0, 0
83, 0.00000, 4.3591, 0.989889, 4.36027, 0.989827, 4.36002, 0.989554, 0, 0
84, 0.00000, 4.3591, 0.989889, 4.36027, 0.989827, 4.36002, 0.989554, 0, 0
85, 0.00000, 4.3591, 0.989889, 4.36027, 0.989827, 4.36002, 0.989554, 0, 0
86, 0.00000, 4.3591, 0.989889, 4.36027, 0.989827, 4.36002, 0.989554, 0, 0
87, 0.00000, 4.3591, 0.989889, 4.36027, 0.989827, 4.36002, 0.989554, 0, 0
88, 0.00000, 4.3591, 0.989889, 4.36027, 0.989827, 4.36002, 0.989554, 0, 0
89, 0.00000, 4.3591, 0.989889, 4.36027, 0.989827, 4.36002, 0.989554, 0, 0
90, 0.00000, 4.3591, 0.989889, 4.36027, 0.989827, 4.36002, 0.989554, 0, 0
91, 0.00000, 4.3591, 0.989889, 4.36027, 0.989827, 4.36002, 0.989554, 0, 0
92, 0.00000, 4.3591, 0.989889, 4.36027, 0.989827, 4.36002, 0.989554, 0, 0
93, 0.00000, 4.3591, 0.989889, 4.36027, 0.989827, 4.36002, 0.989554, 0, 0
94, 0.00000, 4.3591, 0.989889, 4.36027, 0.989827, 4.36002, 0.989554, 0, 0
95, 0.00000, 4.3591, 0.989889, 4.36027, 0.989827, 4.36002, 0.989554, 0, 0
96, 0.00000, 4.3591, 0.989889, 4.36027, 0.989827, 4.36002, 0.989554, 0, 0
