hour, t(sec), P1 (kW), Q1 (kvar), P2 (kW), Q2 (kvar), P3 (kW), Q3 (kvar), P4 (kW), Q4 (kvar)
1, 0.00000, 0.320906, -0.0547113, 0.321026, -0.0547839, 0.320997, -0.0547622, 0, 0
2, 0.00000, 0.320906, -0.0547113, 0.321026, -0.0547839, 0.320997, -0.0547622, 0, 0
3, 0.00000, 0.320906, -0.0547113, 0.321026, -0.0547839, 0.320997, -0.0547622, 0, 0
4, 0.00000, 0.320906, -0.0547113, 0.321026, -0.0547839, 0.320997, -0.0547622, 0, 0
5, 0.00000, 0.320906, -0.0547113, 0.321026, -0.0547839, 0.320997, -0.0547622, 0, 0
6, 0.00000, 0.320906, -0.0547113, 0.321026, -0.0547839, 0.320997, -0.0547622, 0, 0
7, 0.00000, 0.320906, -0.0547113, 0.321026, -0.0547839, 0.320997, -0.0547622, 0, 0
8, 0.00000, 0.320906, -0.0547113, 0.321026, -0.0547839, 0.320997, -0.0547622, 0, 0
9, 0.00000, 0.320906, -0.0547113, 0.321026, -0.0547839, 0.320997, -0.0547622, 0, 0
10, 0.00000, 0.320906, -0.0547113, 0.321026, -0.0547839, 0.320997, -0.0547622, 0, 0
11, 0.00000, 0.320906, -0.0547113, 0.321026, -0.0547839, 0.320997, -0.0547622, 0, 0
12, 0.00000, 0.320906, -0.0547113, 0.321026, -0.0547839, 0.320997, -0.0547622, 0, 0
13, 0.00000, 0.320906, -0.0547113, 0.321026, -0.0547839, 0.320997, -0.0547622, 0, 0
14, 0.00000, 0.320906, -0.0547113, 0.321026, -0.0547839, 0.320997, -0.0547622, 0, 0
15, 0.00000, 0.320906, -0.0547113, 0.321026, -0.0547839, 0.320997, -0.0547622, 0, 0
16, 0.00000, 0.320906, -0.0547113, 0.321026, -0.0547839, 0.320997, -0.0547622, 0, 0
17, 0.00000, 0.320906, -0.0547113, 0.321026, -0.0547839, 0.320997, -0.0547622, 0, 0
18, 0.00000, 0.320906, -0.0547113, 0.321026, -0.0547839, 0.320997, -0.0547622, 0, 0
19, 0.00000, 0.320906, -0.0547113, 0.321026, -0.0547839, 0.320997, -0.0547622, 0, 0
20, 0.00000, 0.320906, -0.0547113, 0.321026, -0.0547839, 0.320997, -0.0547622, 0, 0
21, 0.00000, 0.320906, -0.0547113, 0.321026, -0.0547839, 0.320997, -0.0547622, 0, 0
22, 0.00000, 0.320906, -0.0547113, 0.321026, -0.0547839, 0.320997, -0.0547622, 0, 0
23, 0.00000, 0.320986, -0.0548378, 0.321102, -0.0549074, 0.321074, -0.0548867, 0, 0
24, 0.00000, 0.321157, -0.0551083, 0.321263, -0.0551715, 0.321239, -0.055153, 0, 0
25, 0.00000, 0.329189, -0.0520976, 0.329279, -0.052148, 0.329259, -0.0521345, 0, 0
26, 0.00000, 0.329276, -0.0522335, 0.32936, -0.0522807, 0.329342, -0.0522683, 0, 0
27, 0.00000, 0.329525, -0.0526271, 0.329595, -0.052665, 0.329581, -0.0526557, 0, 0
28, 0.00000, 0.329588, -0.0527262, 0.329655, -0.0527617, 0.329641, -0.0527532, 0, 0
29, 0.00000, 0.329621, -0.0527789, 0.329686, -0.0528131, 0.329673, -0.052805, 0, 0
30, 0.00000, 0.329652, -0.052827, 0.329714, -0.05286, 0.329702, -0.0528523, 0, 0
31, 0.00000, 0.329667, -0.0528501, 0.329728, -0.0528825, 0.329716, -0.0528751, 0, 0
32, 0.00000, 0.329697, -0.0528971, 0.329756, -0.0529283, 0.329745, -0.0529213, 0, 0
33, 0.00000, 0.329684, -0.0528794, 0.329745, -0.052911, 0.329733, -0.0529038, 0, 0
34, 0.00000, 0.329697, -0.052897, 0.329756, -0.0529283, 0.329745, -0.0529212, 0, 0
35, 0.00000, 0.329639, -0.0528085, 0.329703, -0.0528417, 0.329691, -0.0528342, 0, 0
36, 0.00000, 0.329653, -0.0528298, 0.329716, -0.0528625, 0.329704, -0.0528552, 0, 0
37, 0.00000, 0.329696, -0.0528973, 0.329756, -0.0529285, 0.329744, -0.0529215, 0, 0
38, 0.00000, 0.329696, -0.0528972, 0.329756, -0.0529284, 0.329745, -0.0529214, 0, 0
39, 0.00000, 0.329696, -0.0528972, 0.329756, -0.0529284, 0.329745, -0.0529214, 0, 0
40, 0.00000, 0.329696, -0.0528972, 0.329756, -0.0529284, 0.329745, -0.0529214, 0, 0
41, 0.00000, 0.329696, -0.0528972, 0.329756, -0.0529284, 0.329745, -0.0529214, 0, 0
42, 0.00000, 0.329696, -0.0528972, 0.329756, -0.0529284, 0.329745, -0.0529214, 0, 0
43, 0.00000, 0.329696, -0.0528972, 0.329756, -0.0529284, 0.329745, -0.0529214, 0, 0
44, 0.00000, 0.329696, -0.0528972, 0.329756, -0.0529284, 0.329745, -0.0529214, 0, 0
45, 0.00000, 0.329696, -0.0528972, 0.329756, -0.0529284, 0.329745, -0.0529214, 0, 0
46, 0.00000, 0.329696, -0.0528972, 0.329756, -0.0529284, 0.329745, -0.0529214, 0, 0
47, 0.00000, 0.329696, -0.0528972, 0.329756, -0.0529284, 0.329745, -0.0529214, 0, 0
48, 0.00000, 0.329696, -0.0528972, 0.329756, -0.0529284, 0.329745, -0.0529214, 0, 0
49, 0.00000, 0.356577, -0.0404099, 0.356648, -0.0404436, 0.356633, -0.0404371, 0, 0
50, 0.00000, 0.356577, -0.0404099, 0.356648, -0.0404436, 0.356633, -0.0404371, 0, 0
51, 0.00000, 0.356577, -0.0404099, 0.356648, -0.0404436, 0.356633, -0.0404371, 0, 0
52, 0.00000, 0.356577, -0.0404099, 0.356648, -0.0404436, 0.356633, -0.0404371, 0, 0
53, 0.00000, 0.356577, -0.0404099, 0.356648, -0.0404436, 0.356633, -0.0404371, 0, 0
54, 0.00000, 0.356577, -0.0404099, 0.356648, -0.0404436, 0.356633, -0.0404371, 0, 0
55, 0.00000, 0.356577, -0.0404099, 0.356648, -0.0404436, 0.356633, -0.0404371, 0, 0
56, 0.00000, 0.356577, -0.0404099, 0.356648, -0.0404436, 0.356633, -0.0404371, 0, 0
57, 0.00000, 0.356577, -0.0404099, 0.356648, -0.0404436, 0.356633, -0.0404371, 0, 0
58, 0.00000, 0.356577, -0.0404099, 0.356648, -0.0404436, 0.356633, -0.0404371, 0, 0
59, 0.00000, 0.356577, -0.0404099, 0.356648, -0.0404436, 0.356633, -0.0404371, 0, 0
60, 0.00000, 0.356577, -0.0404099, 0.356648, -0.0404436, 0.356633, -0.0404371, 0, 0
61, 0.00000, 0.356577, -0.0404099, 0.356648, -0.0404436, 0.356633, -0.0404371, 0, 0
62, 0.00000, 0.356577, -0.0404099, 0.356648, -0.0404436, 0.356633, -0.0404371, 0, 0
63, 0.00000, 0.356577, -0.0404099, 0.356648, -0.0404436, 0.356633, -0.0404371, 0, 0
64, 0.00000, 0.356577, -0.0404099, 0.356648, -0.0404436, 0.356633, -0.0404371, 0, 0
65, 0.00000, 0.356577, -0.0404099, 0.356648, -0.0404436, 0.356633, -0.0404371, 0, 0
66, 0.00000, 0.356573, -0.040404, 0.356644, -0.0404378, 0.356629, -0.0404313, 0, 0
67, 0.00000, 0.356534, -0.0403429, 0.356607, -0.0403779, 0.356592, -0.0403712, 0, 0
68, 0.00000, 0.356483, -0.040263, 0.35656, -0.0402997, 0.356545, -0.0402928, 0, 0
69, 0.00000, 0.356291, -0.0399649, 0.356383, -0.0400073, 0.356365, -0.04, 0, 0
70, 0.00000, 0.355877, -0.039328, 0.356001, -0.039382, 0.355979, -0.0393745, 0, 0
71, 0.00000, 0.355821, -0.0392362, 0.35595, -0.0392918, 0.355928, -0.0392844, 0, 0
72, 0.00000, 0.355821, -0.0392361, 0.35595, -0.0392917, 0.355928, -0.0392843, 0, 0
73, 0.00000, 0.482416, 0.0198713, 0.482635, 0.019808, 0.482587, 0.0198018, 0, 0
74, 0.00000, 0.482416, 0.0198715, 0.482635, 0.0198082, 0.482587, 0.0198021, 0, 0
75, 0.00000, 0.482416, 0.0198715, 0.482635, 0.0198082, 0.482587, 0.0198021, 0, 0
76, 0.00000, 0.482416, 0.0198715, 0.482635, 0.0198082, 0.482587, 0.0198021, 0, 0
77, 0.00000, 0.482416, 0.0198715, 0.482635, 0.0198082, 0.482587, 0.0198021, 0, 0
78, 0.00000, 0.482416, 0.0198715, 0.482635, 0.0198082, 0.482587, 0.0198021, 0, 0
79, 0.00000, 0.482416, 0.0198715, 0.482635, 0.0198082, 0.482587, 0.0198021, 0, 0
80, 0.00000, 0.482416, 0.0198715, 0.482635, 0.0198082, 0.482587, 0.0198021, 0, 0
81, 0.00000, 0.482416, 0.0198715, 0.482635, 0.0198082, 0.482587, 0.0198021, 0, 0
82, 0.00000, 0.482416, 0.0198715, 0.482635, 0.0198082, 0.482587, 0.0198021, 0, 0
83, 0.00000, 0.482416, 0.0198715, 0.482635, 0.0198082, 0.482587, 0.0198021, 0, 0
84, 0.00000, 0.482416, 0.0198715, 0.482635, 0.0198082, 0.482587, 0.0198021, 0, 0
85, 0.00000, 0.482416, 0.0198715, 0.482635, 0.0198082, 0.482587, 0.0198021, 0, 0
86, 0.00000, 0.482416, 0.0198715, 0.482635, 0.0198082, 0.482587, 0.0198021, 0, 0
87, 0.00000, 0.482416, 0.0198715, 0.482635, 0.0198082, 0.482587, 0.0198021, 0, 0
88, 0.00000, 0.482416, 0.0198715, 0.482635, 0.0198082, 0.482587, 0.0198021, 0, 0
89, 0.00000, 0.482416, 0.0198715, 0.482635, 0.0198082, 0.482587, 0.0198021, 0, 0
90, 0.00000, 0.482416, 0.0198715, 0.482635, 0.0198082, 0.482587, 0.0198021, 0, 0
91, 0.00000, 0.482416, 0.0198715, 0.482635, 0.0198082, 0.482587, 0.0198021, 0, 0
92, 0.00000, 0.482416, 0.0198715, 0.482635, 0.0198082, 0.482587, 0.0198021, 0, 0
93, 0.00000, 0.482416, 0.0198715, 0.482635, 0.0198082, 0.482587, 0.0198021, 0, 0
94, 0.00000, 0.482416, 0.0198715, 0.482635, 0.0198082, 0.482587, 0.0198021, 0, 0
95, 0.00000, 0.482416, 0.0198715, 0.482635, 0.0198082, 0.482587, 0.0198021, 0, 0
96, 0.00000, 0.482416, 0.0198715, 0.482635, 0.0198082, 0.482587, 0.0198021, 0, 0
