hour, t(sec), P1 (kW), Q1 (kvar), P2 (kW), Q2 (kvar), P3 (kW), Q3 (kvar), P4 (kW), Q4 (kvar)
1, 0.00000, 29.8816, -2.96834, 29.8958, -2.97752, 29.8948, -2.97771, 0, 0
2, 0.00000, 29.8816, -2.96835, 29.8958, -2.97752, 29.8948, -2.97771, 0, 0
3, 0.00000, 29.8816, -2.96835, 29.8958, -2.97752, 29.8948, -2.97771, 0, 0
4, 0.00000, 29.8816, -2.96835, 29.8958, -2.97752, 29.8948, -2.97771, 0, 0
5, 0.00000, 29.8816, -2.96835, 29.8958, -2.97752, 29.8948, -2.97771, 0, 0
6, 0.00000, 29.8816, -2.96835, 29.8958, -2.97752, 29.8948, -2.97771, 0, 0
7, 0.00000, 29.8816, -2.96835, 29.8958, -2.97752, 29.8948, -2.97771, 0, 0
8, 0.00000, 29.8816, -2.96835, 29.8958, -2.97752, 29.8948, -2.97771, 0, 0
9, 0.00000, 29.8816, -2.96835, 29.8958, -2.97752, 29.8948, -2.97771, 0, 0
10, 0.00000, 29.8816, -2.96835, 29.8958, -2.97752, 29.8948, -2.97771, 0, 0
11, 0.00000, 29.8816, -2.96835, 29.8958, -2.97752, 29.8948, -2.97771, 0, 0
12, 0.00000, 29.8816, -2.96835, 29.8958, -2.97752, 29.8948, -2.97771, 0, 0
13, 0.00000, 29.8816, -2.96835, 29.8958, -2.97752, 29.8948, -2.97771, 0, 0
14, 0.00000, 29.8816, -2.96835, 29.8958, -2.97752, 29.8948, -2.97771, 0, 0
15, 0.00000, 29.8816, -2.96835, 29.8958, -2.97752, 29.8948, -2.97771, 0, 0
16, 0.00000, 29.8816, -2.96835, 29.8958, -2.97752, 29.8948, -2.97771, 0, 0
17, 0.00000, 29.8816, -2.96835, 29.8958, -2.97752, 29.8948, -2.97771, 0, 0
18, 0.00000, 29.8816, -2.96835, 29.8958, -2.97752, 29.8948, -2.97771, 0, 0
19, 0.00000, 29.8816, -2.96835, 29.8958, -2.97752, 29.8948, -2.97771, 0, 0
20, 0.00000, 29.8816, -2.96835, 29.8958, -2.97752, 29.8948, -2.97771, 0, 0
21, 0.00000, 29.8816, -2.96835, 29.8958, -2.97752, 29.8948, -2.97771, 0, 0
22, 0.00000, 29.8816, -2.96835, 29.8958, -2.97752, 29.8948, -2.97771, 0, 0
23, 0.00000, 29.8818, -2.97554, 29.8957, -2.98455, 29.8948, -2.98475, 0, 0
24, 0.00000, 29.8826, -3.00743, 29.8955, -3.01562, 29.8946, -3.01594, 0, 0
25, 0.00000, 33.3655, -1.40636, 33.3783, -1.41287, 33.3774, -1.41395, 0, 0
26, 0.00000, 33.366, -1.42588, 33.378, -1.43189, 33.3772, -1.43301, 0, 0
27, 0.00000, 33.3671, -1.47376, 33.3774, -1.47856, 33.3769, -1.47979, 0, 0
28, 0.00000, 33.3674, -1.48511, 33.3772, -1.48962, 33.3768, -1.49089, 0, 0
29, 0.00000, 33.3674, -1.48795, 33.3772, -1.4924, 33.3768, -1.49367, 0, 0
30, 0.00000, 33.3674, -1.48872, 33.3772, -1.49316, 33.3768, -1.49443, 0, 0
31, 0.00000, 33.3674, -1.48907, 33.3772, -1.49351, 33.3768, -1.49477, 0, 0
32, 0.00000, 33.3674, -1.48968, 33.3772, -1.4941, 33.3768, -1.49538, 0, 0
33, 0.00000, 33.3674, -1.48949, 33.3771, -1.49392, 33.3768, -1.49519, 0, 0
34, 0.00000, 33.3674, -1.48968, 33.3772, -1.4941, 33.3768, -1.49537, 0, 0
35, 0.00000, 33.3674, -1.48864, 33.3772, -1.49308, 33.3768, -1.49436, 0, 0
36, 0.00000, 33.3674, -1.48895, 33.3772, -1.49338, 33.3768, -1.49465, 0, 0
37, 0.00000, 33.3674, -1.48969, 33.3771, -1.49411, 33.3768, -1.49538, 0, 0
38, 0.00000, 33.3674, -1.48969, 33.3772, -1.49411, 33.3768, -1.49538, 0, 0
39, 0.00000, 33.3674, -1.48969, 33.3772, -1.49411, 33.3768, -1.49538, 0, 0
40, 0.00000, 33.3674, -1.48969, 33.3772, -1.49411, 33.3768, -1.49538, 0, 0
41, 0.00000, 33.3674, -1.48969, 33.3772, -1.49411, 33.3768, -1.49538, 0, 0
42, 0.00000, 33.3674, -1.48969, 33.3772, -1.49411, 33.3768, -1.49538, 0, 0
43, 0.00000, 33.3674, -1.48969, 33.3772, -1.49411, 33.3768, -1.49538, 0, 0
44, 0.00000, 33.3674, -1.48969, 33.3772, -1.49411, 33.3768, -1.49538, 0, 0
45, 0.00000, 33.3674, -1.48969, 33.3772, -1.49411, 33.3768, -1.49538, 0, 0
46, 0.00000, 33.3674, -1.48969, 33.3772, -1.49411, 33.3768, -1.49538, 0, 0
47, 0.00000, 33.3674, -1.48969, 33.3772, -1.49411, 33.3768, -1.49538, 0, 0
48, 0.00000, 33.3674, -1.48969, 33.3772, -1.49411, 33.3768, -1.49538, 0, 0
49, 0.00000, 36.8544, 0.205555, 36.8664, 0.200821, 36.8656, 0.199116, 0, 0
50, 0.00000, 36.8544, 0.205549, 36.8663, 0.200815, 36.8656, 0.19911, 0, 0
51, 0.00000, 36.8544, 0.205549, 36.8663, 0.200815, 36.8656, 0.19911, 0, 0
52, 0.00000, 36.8544, 0.205549, 36.8663, 0.200815, 36.8656, 0.19911, 0, 0
53, 0.00000, 36.8544, 0.205549, 36.8663, 0.200815, 36.8656, 0.19911, 0, 0
54, 0.00000, 36.8544, 0.205549, 36.8663, 0.200815, 36.8656, 0.19911, 0, 0
55, 0.00000, 36.8544, 0.205549, 36.8663, 0.200815, 36.8656, 0.19911, 0, 0
56, 0.00000, 36.8544, 0.205549, 36.8663, 0.200815, 36.8656, 0.19911, 0, 0
57, 0.00000, 36.8544, 0.205549, 36.8663, 0.200815, 36.8656, 0.19911, 0, 0
58, 0.00000, 36.8544, 0.205549, 36.8663, 0.200815, 36.8656, 0.19911, 0, 0
59, 0.00000, 36.8544, 0.205549, 36.8663, 0.200815, 36.8656, 0.19911, 0, 0
60, 0.00000, 36.8544, 0.205549, 36.8663, 0.200815, 36.8656, 0.19911, 0, 0
61, 0.00000, 36.8544, 0.205549, 36.8663, 0.200815, 36.8656, 0.19911, 0, 0
62, 0.00000, 36.8544, 0.205549, 36.8663, 0.200815, 36.8656, 0.19911, 0, 0
63, 0.00000, 36.8544, 0.205549, 36.8663, 0.200815, 36.8656, 0.19911, 0, 0
64, 0.00000, 36.8544, 0.205549, 36.8663, 0.200815, 36.8656, 0.19911, 0, 0
65, 0.00000, 36.8544, 0.205549, 36.8663, 0.200815, 36.8656, 0.19911, 0, 0
66, 0.00000, 36.8544, 0.205613, 36.8663, 0.200878, 36.8656, 0.199173, 0, 0
67, 0.00000, 36.8544, 0.206294, 36.8664, 0.201549, 36.8656, 0.199841, 0, 0
68, 0.00000, 36.8543, 0.208842, 36.8664, 0.204061, 36.8656, 0.202332, 0, 0
69, 0.00000, 36.8534, 0.238626, 36.867, 0.233405, 36.8661, 0.231351, 0, 0
70, 0.00000, 36.8495, 0.322273, 36.8674, 0.31581, 36.8665, 0.312835, 0, 0
71, 0.00000, 36.8506, 0.327621, 36.8687, 0.321076, 36.8678, 0.318042, 0, 0
72, 0.00000, 36.8506, 0.327655, 36.8688, 0.321109, 36.8678, 0.318075, 0, 0
73, 0.00000, 49.855, 6.83979, 49.8879, 6.83218, 49.8841, 6.8258, 0, 0
74, 0.00000, 49.8554, 6.84003, 49.8883, 6.83241, 49.8845, 6.82604, 0, 0
75, 0.00000, 49.8554, 6.84003, 49.8883, 6.83241, 49.8845, 6.82604, 0, 0
76, 0.00000, 49.8554, 6.84003, 49.8883, 6.83241, 49.8845, 6.82604, 0, 0
77, 0.00000, 49.8554, 6.84003, 49.8883, 6.83241, 49.8845, 6.82604, 0, 0
78, 0.00000, 49.8554, 6.84003, 49.8883, 6.83241, 49.8845, 6.82604, 0, 0
79, 0.00000, 49.8554, 6.84003, 49.8883, 6.83241, 49.8845, 6.82604, 0, 0
80, 0.00000, 49.8554, 6.84003, 49.8883, 6.83241, 49.8845, 6.82604, 0, 0
81, 0.00000, 49.8554, 6.84003, 49.8883, 6.83241, 49.8845, 6.82604, 0, 0
82, 0.00000, 49.8554, 6.84003, 49.8883, 6.83241, 49.8845, 6.82604, 0, 0
83, 0.00000, 49.8554, 6.84003, 49.8883, 6.83241, 49.8845, 6.82604, 0, 0
84, 0.00000, 49.8554, 6.84003, 49.8883, 6.83241, 49.8845, 6.82604, 0, 0
85, 0.00000, 49.8554, 6.84003, 49.8883, 6.83241, 49.8845, 6.82604, 0, 0
86, 0.00000, 49.8554, 6.84003, 49.8883, 6.83241, 49.8845, 6.82604, 0, 0
87, 0.00000, 49.8554, 6.84003, 49.8883, 6.83241, 49.8845, 6.82604, 0, 0
88, 0.00000, 49.8554, 6.84003, 49.8883, 6.83241, 49.8845, 6.82604, 0, 0
89, 0.00000, 49.8554, 6.84003, 49.8883, 6.83241, 49.8845, 6.82604, 0, 0
90, 0.00000, 49.8554, 6.84003, 49.8883, 6.83241, 49.8845, 6.82604, 0, 0
91, 0.00000, 49.8554, 6.84003, 49.8883, 6.83241, 49.8845, 6.82604, 0, 0
92, 0.00000, 49.8554, 6.84003, 49.8883, 6.83241, 49.8845, 6.82604, 0, 0
93, 0.00000, 49.8554, 6.84003, 49.8883, 6.83241, 49.8845, 6.82604, 0, 0
94, 0.00000, 49.8554, 6.84003, 49.8883, 6.83241, 49.8845, 6.82604, 0, 0
95, 0.00000, 49.8554, 6.84003, 49.8883, 6.83241, 49.8845, 6.82604, 0, 0
96, 0.00000, 49.8554, 6.84003, 49.8883, 6.83241, 49.8845, 6.82604, 0, 0
