hour, t(sec), P1 (kW), Q1 (kvar), P2 (kW), Q2 (kvar), P3 (kW), Q3 (kvar), P4 (kW), Q4 (kvar)
1, 0.00000, 100.065, 40.5328, 100.128, 40.5521, 100.093, 40.5533, 0, 0
2, 0.00000, 100.065, 40.5328, 100.128, 40.5521, 100.093, 40.5533, 0, 0
3, 0.00000, 100.065, 40.5328, 100.128, 40.5521, 100.093, 40.5533, 0, 0
4, 0.00000, 100.065, 40.5328, 100.128, 40.5521, 100.093, 40.5533, 0, 0
5, 0.00000, 100.065, 40.5328, 100.128, 40.5521, 100.093, 40.5533, 0, 0
6, 0.00000, 100.065, 40.5328, 100.128, 40.5521, 100.093, 40.5533, 0, 0
7, 0.00000, 100.065, 40.5328, 100.128, 40.5521, 100.093, 40.5533, 0, 0
8, 0.00000, 100.065, 40.5328, 100.128, 40.5521, 100.093, 40.5533, 0, 0
9, 0.00000, 100.065, 40.5328, 100.128, 40.5521, 100.093, 40.5533, 0, 0
10, 0.00000, 100.065, 40.5328, 100.128, 40.5521, 100.093, 40.5533, 0, 0
11, 0.00000, 100.065, 40.5328, 100.128, 40.5521, 100.093, 40.5533, 0, 0
12, 0.00000, 100.065, 40.5328, 100.128, 40.5521, 100.093, 40.5533, 0, 0
13, 0.00000, 100.065, 40.5328, 100.128, 40.5521, 100.093, 40.5533, 0, 0
14, 0.00000, 100.065, 40.5328, 100.128, 40.5521, 100.093, 40.5533, 0, 0
15, 0.00000, 100.065, 40.5328, 100.128, 40.5521, 100.093, 40.5533, 0, 0
16, 0.00000, 100.065, 40.5328, 100.128, 40.5521, 100.093, 40.5533, 0, 0
17, 0.00000, 100.065, 40.5328, 100.128, 40.5521, 100.093, 40.5533, 0, 0
18, 0.00000, 100.065, 40.5328, 100.128, 40.5521, 100.093, 40.5533, 0, 0
19, 0.00000, 100.065, 40.5328, 100.128, 40.5521, 100.093, 40.5533, 0, 0
20, 0.00000, 100.065, 40.5328, 100.128, 40.5521, 100.093, 40.5533, 0, 0
21, 0.00000, 100.065, 40.5328, 100.128, 40.5521, 100.093, 40.5533, 0, 0
22, 0.00000, 100.065, 40.5328, 100.128, 40.5521, 100.093, 40.5533, 0, 0
23, 0.00000, 100.15, 40.5689, 100.212, 40.5876, 100.178, 40.5888, 0, 0
24, 0.00000, 100.337, 40.6478, 100.393, 40.6651, 100.363, 40.6663, 0, 0
25, 0.00000, 100.699, 40.8009, 100.746, 40.8156, 100.721, 40.8169, 0, 0
26, 0.00000, 100.794, 40.841, 100.839, 40.855, 100.815, 40.8562, 0, 0
27, 0.00000, 87.7409, 35.7237, 87.7736, 35.7342, 87.7567, 35.7353, 0, 0
28, 0.00000, 83.0531, 34.7628, 83.0824, 34.7725, 83.0673, 34.7734, 0, 0
29, 0.00000, 75.6691, 31.2008, 75.6984, 31.21, 75.6829, 31.2135, 0, 0
30, 0.00000, 67.1197, 27.5595, 67.1464, 27.5675, 67.1322, 27.5718, 0, 0
31, 0.00000, 63.2057, 24.7223, 63.2313, 24.7295, 63.2178, 24.7344, 0, 0
32, 0.00000, 53.3599, 21.1128, 53.3828, 21.1189, 53.3707, 21.1246, 0, 0
33, 0.00000, 57.8503, 21.6906, 57.8743, 21.6968, 57.8617, 21.7023, 0, 0
34, 0.00000, 53.3575, 21.1124, 53.3804, 21.1185, 53.3683, 21.1242, 0, 0
35, 0.00000, 74.4564, 24.3455, 74.4852, 24.3525, 74.4705, 24.3573, 0, 0
36, 0.00000, 69.8923, 23.539, 69.9197, 23.5457, 69.9056, 23.5507, 0, 0
37, 0.00000, 53.3708, 21.1147, 53.3936, 21.1207, 53.3816, 21.1264, 0, 0
38, 0.00000, 53.3665, 21.114, 53.3893, 21.12, 53.3772, 21.1257, 0, 0
39, 0.00000, 53.3664, 21.1139, 53.3893, 21.12, 53.3772, 21.1257, 0, 0
40, 0.00000, 53.3664, 21.1139, 53.3893, 21.12, 53.3772, 21.1257, 0, 0
41, 0.00000, 53.3664, 21.1139, 53.3893, 21.12, 53.3772, 21.1257, 0, 0
42, 0.00000, 53.3664, 21.1139, 53.3893, 21.12, 53.3772, 21.1257, 0, 0
43, 0.00000, 53.3664, 21.1139, 53.3893, 21.12, 53.3772, 21.1257, 0, 0
44, 0.00000, 53.3664, 21.1139, 53.3893, 21.12, 53.3772, 21.1257, 0, 0
45, 0.00000, 53.3664, 21.1139, 53.3893, 21.12, 53.3772, 21.1257, 0, 0
46, 0.00000, 53.3664, 21.1139, 53.3893, 21.12, 53.3772, 21.1257, 0, 0
47, 0.00000, 53.3664, 21.1139, 53.3893, 21.12, 53.3772, 21.1257, 0, 0
48, 0.00000, 53.3664, 21.1139, 53.3893, 21.12, 53.3772, 21.1257, 0, 0
49, 0.00000, 53.2541, 21.0818, 53.279, 21.0885, 53.2655, 21.0945, 0, 0
50, 0.00000, 53.2541, 21.0818, 53.279, 21.0885, 53.2655, 21.0945, 0, 0
51, 0.00000, 53.2541, 21.0818, 53.279, 21.0885, 53.2655, 21.0945, 0, 0
52, 0.00000, 53.2541, 21.0818, 53.279, 21.0885, 53.2655, 21.0945, 0, 0
53, 0.00000, 53.2541, 21.0818, 53.279, 21.0885, 53.2655, 21.0945, 0, 0
54, 0.00000, 53.2541, 21.0818, 53.279, 21.0885, 53.2655, 21.0945, 0, 0
55, 0.00000, 53.2541, 21.0818, 53.279, 21.0885, 53.2655, 21.0945, 0, 0
56, 0.00000, 53.2541, 21.0818, 53.279, 21.0885, 53.2655, 21.0945, 0, 0
57, 0.00000, 53.2541, 21.0818, 53.279, 21.0885, 53.2655, 21.0945, 0, 0
58, 0.00000, 53.2541, 21.0818, 53.279, 21.0885, 53.2655, 21.0945, 0, 0
59, 0.00000, 53.2541, 21.0818, 53.279, 21.0885, 53.2655, 21.0945, 0, 0
60, 0.00000, 53.2541, 21.0818, 53.279, 21.0885, 53.2655, 21.0945, 0, 0
61, 0.00000, 53.2541, 21.0818, 53.279, 21.0885, 53.2655, 21.0945, 0, 0
62, 0.00000, 53.2541, 21.0818, 53.279, 21.0885, 53.2655, 21.0945, 0, 0
63, 0.00000, 53.2541, 21.0818, 53.279, 21.0885, 53.2655, 21.0945, 0, 0
64, 0.00000, 53.2541, 21.0818, 53.279, 21.0885, 53.2655, 21.0945, 0, 0
65, 0.00000, 53.2541, 21.0818, 53.279, 21.0885, 53.2655, 21.0945, 0, 0
66, 0.00000, 54.7466, 21.267, 54.7719, 21.2737, 54.7582, 21.2797, 0, 0
67, 0.00000, 69.7872, 23.5006, 69.817, 23.5079, 69.8014, 23.5132, 0, 0
68, 0.00000, 85.076, 26.4829, 85.1109, 26.491, 85.0932, 26.4956, 0, 0
69, 0.00000, 103.672, 31.0874, 103.718, 31.0978, 103.696, 31.1016, 0, 0
70, 0.00000, 103.21, 30.9385, 103.272, 30.9529, 103.243, 30.9582, 0, 0
71, 0.00000, 103.148, 30.9191, 103.212, 30.9339, 103.183, 30.9394, 0, 0
72, 0.00000, 103.148, 30.9192, 103.212, 30.9341, 103.183, 30.9396, 0, 0
73, 0.00000, 102.455, 30.6956, 102.536, 30.7132, 102.496, 30.7194, 0, 0
74, 0.00000, 102.455, 30.6956, 102.535, 30.7132, 102.495, 30.7194, 0, 0
75, 0.00000, 102.455, 30.6956, 102.535, 30.7132, 102.495, 30.7194, 0, 0
76, 0.00000, 102.455, 30.6956, 102.535, 30.7132, 102.495, 30.7194, 0, 0
77, 0.00000, 102.455, 30.6956, 102.535, 30.7132, 102.495, 30.7194, 0, 0
78, 0.00000, 102.455, 30.6956, 102.535, 30.7132, 102.495, 30.7194, 0, 0
79, 0.00000, 102.455, 30.6956, 102.535, 30.7132, 102.495, 30.7194, 0, 0
80, 0.00000, 102.455, 30.6956, 102.535, 30.7132, 102.495, 30.7194, 0, 0
81, 0.00000, 102.455, 30.6956, 102.535, 30.7132, 102.495, 30.7194, 0, 0
82, 0.00000, 102.455, 30.6956, 102.535, 30.7132, 102.495, 30.7194, 0, 0
83, 0.00000, 102.455, 30.6956, 102.535, 30.7132, 102.495, 30.7194, 0, 0
84, 0.00000, 102.455, 30.6956, 102.535, 30.7132, 102.495, 30.7194, 0, 0
85, 0.00000, 102.455, 30.6956, 102.535, 30.7132, 102.495, 30.7194, 0, 0
86, 0.00000, 102.455, 30.6956, 102.535, 30.7132, 102.495, 30.7194, 0, 0
87, 0.00000, 102.455, 30.6956, 102.535, 30.7132, 102.495, 30.7194, 0, 0
88, 0.00000, 102.455, 30.6956, 102.535, 30.7132, 102.495, 30.7194, 0, 0
89, 0.00000, 102.455, 30.6956, 102.535, 30.7132, 102.495, 30.7194, 0, 0
90, 0.00000, 102.455, 30.6956, 102.535, 30.7132, 102.495, 30.7194, 0, 0
91, 0.00000, 102.455, 30.6956, 102.535, 30.7132, 102.495, 30.7194, 0, 0
92, 0.00000, 102.455, 30.6956, 102.535, 30.7132, 102.495, 30.7194, 0, 0
93, 0.00000, 102.455, 30.6956, 102.535, 30.7132, 102.495, 30.7194, 0, 0
94, 0.00000, 102.455, 30.6956, 102.535, 30.7132, 102.495, 30.7194, 0, 0
95, 0.00000, 102.455, 30.6956, 102.535, 30.7132, 102.495, 30.7194, 0, 0
96, 0.00000, 102.455, 30.6956, 102.535, 30.7132, 102.495, 30.7194, 0, 0
