hour, t(sec), P1 (kW), Q1 (kvar), P2 (kW), Q2 (kvar), P3 (kW), Q3 (kvar), P4 (kW), Q4 (kvar)
1, 0.00000, 15.7654, 6.30026, 15.7734, 6.30186, 15.7714, 6.29902, 0, 0
2, 0.00000, 15.7654, 6.30026, 15.7734, 6.30186, 15.7714, 6.29902, 0, 0
3, 0.00000, 15.7654, 6.30026, 15.7734, 6.30186, 15.7714, 6.29902, 0, 0
4, 0.00000, 15.7654, 6.30026, 15.7734, 6.30186, 15.7714, 6.29902, 0, 0
5, 0.00000, 15.7654, 6.30026, 15.7734, 6.30186, 15.7714, 6.29902, 0, 0
6, 0.00000, 15.7654, 6.30026, 15.7734, 6.30186, 15.7714, 6.29902, 0, 0
7, 0.00000, 15.7654, 6.30026, 15.7734, 6.30186, 15.7714, 6.29902, 0, 0
8, 0.00000, 15.7654, 6.30026, 15.7734, 6.30186, 15.7714, 6.29902, 0, 0
9, 0.00000, 15.7654, 6.30026, 15.7734, 6.30186, 15.7714, 6.29902, 0, 0
10, 0.00000, 15.7654, 6.30026, 15.7734, 6.30186, 15.7714, 6.29902, 0, 0
11, 0.00000, 15.7654, 6.30026, 15.7734, 6.30186, 15.7714, 6.29902, 0, 0
12, 0.00000, 15.7654, 6.30026, 15.7734, 6.30186, 15.7714, 6.29902, 0, 0
13, 0.00000, 15.7654, 6.30026, 15.7734, 6.30186, 15.7714, 6.29902, 0, 0
14, 0.00000, 15.7654, 6.30026, 15.7734, 6.30186, 15.7714, 6.29902, 0, 0
15, 0.00000, 15.7654, 6.30026, 15.7734, 6.30186, 15.7714, 6.29902, 0, 0
16, 0.00000, 15.7654, 6.30026, 15.7734, 6.30186, 15.7714, 6.29902, 0, 0
17, 0.00000, 15.7654, 6.30026, 15.7734, 6.30186, 15.7714, 6.29902, 0, 0
18, 0.00000, 15.7654, 6.30026, 15.7734, 6.30186, 15.7714, 6.29902, 0, 0
19, 0.00000, 15.7654, 6.30026, 15.7734, 6.30186, 15.7714, 6.29902, 0, 0
20, 0.00000, 15.7654, 6.30026, 15.7734, 6.30186, 15.7714, 6.29902, 0, 0
21, 0.00000, 15.7654, 6.30026, 15.7734, 6.30186, 15.7714, 6.29902, 0, 0
22, 0.00000, 15.7654, 6.30026, 15.7734, 6.30186, 15.7714, 6.29902, 0, 0
23, 0.00000, 15.7656, 6.29998, 15.7734, 6.30157, 15.7715, 6.29877, 0, 0
24, 0.00000, 12.4133, 5.22117, 12.419, 5.22219, 12.418, 5.22027, 0, 0
25, 0.00000, 11.5678, 4.73853, 11.5724, 4.73901, 11.572, 4.73762, 0, 0
26, 0.00000, 9.89422, 4.19758, 9.89793, 4.19783, 9.89781, 4.19679, 0, 0
27, 0.00000, 4.37061, 1.54711, 4.37193, 1.54619, 4.37275, 1.54625, 0, 0
28, 0.00000, 4.3708, 1.54307, 4.37205, 1.54221, 4.37285, 1.54224, 0, 0
29, 0.00000, 4.37084, 1.54206, 4.37208, 1.54121, 4.37287, 1.54124, 0, 0
30, 0.00000, 4.37085, 1.54179, 4.37208, 1.54093, 4.37288, 1.54097, 0, 0
31, 0.00000, 4.37086, 1.54166, 4.37209, 1.54081, 4.37288, 1.54084, 0, 0
32, 0.00000, 4.37087, 1.54144, 4.37209, 1.54059, 4.37289, 1.54063, 0, 0
33, 0.00000, 4.37086, 1.54151, 4.37209, 1.54066, 4.37289, 1.54069, 0, 0
34, 0.00000, 4.37087, 1.54145, 4.37209, 1.54059, 4.37289, 1.54063, 0, 0
35, 0.00000, 4.37085, 1.54182, 4.37208, 1.54096, 4.37288, 1.54099, 0, 0
36, 0.00000, 4.37085, 1.54171, 4.37209, 1.54085, 4.37288, 1.54089, 0, 0
37, 0.00000, 4.37086, 1.54144, 4.37209, 1.54059, 4.37289, 1.54063, 0, 0
38, 0.00000, 4.37086, 1.54144, 4.37209, 1.54059, 4.37289, 1.54063, 0, 0
39, 0.00000, 4.37086, 1.54144, 4.37209, 1.54059, 4.37289, 1.54063, 0, 0
40, 0.00000, 4.37086, 1.54144, 4.37209, 1.54059, 4.37289, 1.54063, 0, 0
41, 0.00000, 4.37086, 1.54144, 4.37209, 1.54059, 4.37289, 1.54063, 0, 0
42, 0.00000, 4.37086, 1.54144, 4.37209, 1.54059, 4.37289, 1.54063, 0, 0
43, 0.00000, 4.37086, 1.54144, 4.37209, 1.54059, 4.37289, 1.54063, 0, 0
44, 0.00000, 4.37086, 1.54144, 4.37209, 1.54059, 4.37289, 1.54063, 0, 0
45, 0.00000, 4.37086, 1.54144, 4.37209, 1.54059, 4.37289, 1.54063, 0, 0
46, 0.00000, 4.37086, 1.54144, 4.37209, 1.54059, 4.37289, 1.54063, 0, 0
47, 0.00000, 4.37086, 1.54144, 4.37209, 1.54059, 4.37289, 1.54063, 0, 0
48, 0.00000, 4.37086, 1.54144, 4.37209, 1.54059, 4.37289, 1.54063, 0, 0
49, 0.00000, 6.58969, 2.52421, 6.59183, 2.52349, 6.5925, 2.52326, 0, 0
50, 0.00000, 6.58969, 2.5242, 6.59182, 2.52349, 6.5925, 2.52325, 0, 0
51, 0.00000, 6.58969, 2.5242, 6.59182, 2.52349, 6.5925, 2.52325, 0, 0
52, 0.00000, 6.58969, 2.5242, 6.59182, 2.52349, 6.5925, 2.52325, 0, 0
53, 0.00000, 6.58969, 2.5242, 6.59182, 2.52349, 6.5925, 2.52325, 0, 0
54, 0.00000, 6.58969, 2.5242, 6.59182, 2.52349, 6.5925, 2.52325, 0, 0
55, 0.00000, 6.58969, 2.5242, 6.59182, 2.52349, 6.5925, 2.52325, 0, 0
56, 0.00000, 6.58969, 2.5242, 6.59182, 2.52349, 6.5925, 2.52325, 0, 0
57, 0.00000, 6.58969, 2.5242, 6.59182, 2.52349, 6.5925, 2.52325, 0, 0
58, 0.00000, 6.58969, 2.5242, 6.59182, 2.52349, 6.5925, 2.52325, 0, 0
59, 0.00000, 6.58969, 2.5242, 6.59182, 2.52349, 6.5925, 2.52325, 0, 0
60, 0.00000, 6.58969, 2.5242, 6.59182, 2.52349, 6.5925, 2.52325, 0, 0
61, 0.00000, 6.58969, 2.5242, 6.59182, 2.52349, 6.5925, 2.52325, 0, 0
62, 0.00000, 6.58969, 2.5242, 6.59182, 2.52349, 6.5925, 2.52325, 0, 0
63, 0.00000, 6.58969, 2.5242, 6.59182, 2.52349, 6.5925, 2.52325, 0, 0
64, 0.00000, 6.58969, 2.5242, 6.59182, 2.52349, 6.5925, 2.52325, 0, 0
65, 0.00000, 6.58969, 2.5242, 6.59182, 2.52349, 6.5925, 2.52325, 0, 0
66, 0.00000, 6.58969, 2.52423, 6.59182, 2.52351, 6.5925, 2.52328, 0, 0
67, 0.00000, 6.58967, 2.52447, 6.59182, 2.52375, 6.59249, 2.52352, 0, 0
68, 0.00000, 6.58963, 2.52537, 6.59179, 2.52464, 6.59248, 2.52441, 0, 0
69, 0.00000, 10.4424, 2.58531, 10.4463, 2.58445, 10.4466, 2.58375, 0, 0
70, 0.00000, 20.4977, 2.83002, 20.5077, 2.82886, 20.5065, 2.82638, 0, 0
71, 0.00000, 20.4979, 2.83211, 20.5081, 2.83093, 20.5069, 2.82842, 0, 0
72, 0.00000, 20.498, 2.83212, 20.5081, 2.83095, 20.5069, 2.82844, 0, 0
73, 0.00000, 28.0435, 6.35502, 28.0619, 6.35396, 28.0588, 6.34919, 0, 0
74, 0.00000, 28.0436, 6.3551, 28.062, 6.35404, 28.0589, 6.34927, 0, 0
75, 0.00000, 28.0436, 6.3551, 28.062, 6.35404, 28.0589, 6.34927, 0, 0
76, 0.00000, 28.0436, 6.3551, 28.062, 6.35404, 28.0589, 6.34927, 0, 0
77, 0.00000, 28.0436, 6.3551, 28.062, 6.35404, 28.0589, 6.34927, 0, 0
78, 0.00000, 28.0436, 6.3551, 28.062, 6.35404, 28.0589, 6.34927, 0, 0
79, 0.00000, 28.0436, 6.3551, 28.062, 6.35404, 28.0589, 6.34927, 0, 0
80, 0.00000, 28.0436, 6.3551, 28.062, 6.35404, 28.0589, 6.34927, 0, 0
81, 0.00000, 28.0436, 6.3551, 28.062, 6.35404, 28.0589, 6.34927, 0, 0
82, 0.00000, 28.0436, 6.3551, 28.062, 6.35404, 28.0589, 6.34927, 0, 0
83, 0.00000, 28.0436, 6.3551, 28.062, 6.35404, 28.0589, 6.34927, 0, 0
84, 0.00000, 28.0436, 6.3551, 28.062, 6.35404, 28.0589, 6.34927, 0, 0
85, 0.00000, 28.0436, 6.3551, 28.062, 6.35404, 28.0589, 6.34927, 0, 0
86, 0.00000, 28.0436, 6.3551, 28.062, 6.35404, 28.0589, 6.34927, 0, 0
87, 0.00000, 28.0436, 6.3551, 28.062, 6.35404, 28.0589, 6.34927, 0, 0
88, 0.00000, 28.0436, 6.3551, 28.062, 6.35404, 28.0589, 6.34927, 0, 0
89, 0.00000, 28.0436, 6.3551, 28.062, 6.35404, 28.0589, 6.34927, 0, 0
90, 0.00000, 28.0436, 6.3551, 28.062, 6.35404, 28.0589, 6.34927, 0, 0
91, 0.00000, 28.0436, 6.3551, 28.062, 6.35404, 28.0589, 6.34927, 0, 0
92, 0.00000, 28.0436, 6.3551, 28.062, 6.35404, 28.0589, 6.34927, 0, 0
93, 0.00000, 28.0436, 6.3551, 28.062, 6.35404, 28.0589, 6.34927, 0, 0
94, 0.00000, 28.0436, 6.3551, 28.062, 6.35404, 28.0589, 6.34927, 0, 0
95, 0.00000, 28.0436, 6.3551, 28.062, 6.35404, 28.0589, 6.34927, 0, 0
96, 0.00000, 28.0436, 6.3551, 28.062, 6.35404, 28.0589, 6.34927, 0, 0
