hour, t(sec), P1 (kW), Q1 (kvar), P2 (kW), Q2 (kvar), P3 (kW), Q3 (kvar), P4 (kW), Q4 (kvar)
1, 0.00000, 15.2663, 0.268753, 15.2725, 0.265869, 15.2718, 0.265341, 0, 0
2, 0.00000, 15.2663, 0.268753, 15.2725, 0.265869, 15.2718, 0.265341, 0, 0
3, 0.00000, 15.2663, 0.268753, 15.2725, 0.265869, 15.2718, 0.265341, 0, 0
4, 0.00000, 15.2663, 0.268753, 15.2725, 0.265869, 15.2718, 0.265341, 0, 0
5, 0.00000, 15.2663, 0.268753, 15.2725, 0.265869, 15.2718, 0.265341, 0, 0
6, 0.00000, 15.2663, 0.268753, 15.2725, 0.265869, 15.2718, 0.265341, 0, 0
7, 0.00000, 15.2663, 0.268753, 15.2725, 0.265869, 15.2718, 0.265341, 0, 0
8, 0.00000, 15.2663, 0.268753, 15.2725, 0.265869, 15.2718, 0.265341, 0, 0
9, 0.00000, 15.2663, 0.268753, 15.2725, 0.265869, 15.2718, 0.265341, 0, 0
10, 0.00000, 15.2663, 0.268753, 15.2725, 0.265869, 15.2718, 0.265341, 0, 0
11, 0.00000, 15.2663, 0.268753, 15.2725, 0.265869, 15.2718, 0.265341, 0, 0
12, 0.00000, 15.2663, 0.268753, 15.2725, 0.265869, 15.2718, 0.265341, 0, 0
13, 0.00000, 15.2663, 0.268753, 15.2725, 0.265869, 15.2718, 0.265341, 0, 0
14, 0.00000, 15.2663, 0.268753, 15.2725, 0.265869, 15.2718, 0.265341, 0, 0
15, 0.00000, 15.2663, 0.268753, 15.2725, 0.265869, 15.2718, 0.265341, 0, 0
16, 0.00000, 15.2663, 0.268753, 15.2725, 0.265869, 15.2718, 0.265341, 0, 0
17, 0.00000, 15.2663, 0.268753, 15.2725, 0.265869, 15.2718, 0.265341, 0, 0
18, 0.00000, 15.2663, 0.268753, 15.2725, 0.265869, 15.2718, 0.265341, 0, 0
19, 0.00000, 15.2663, 0.268753, 15.2725, 0.265869, 15.2718, 0.265341, 0, 0
20, 0.00000, 15.2663, 0.268753, 15.2725, 0.265869, 15.2718, 0.265341, 0, 0
21, 0.00000, 15.2663, 0.268753, 15.2725, 0.265869, 15.2718, 0.265341, 0, 0
22, 0.00000, 15.2663, 0.268753, 15.2725, 0.265869, 15.2718, 0.265341, 0, 0
23, 0.00000, 15.2664, 0.265908, 15.2724, 0.263089, 15.2718, 0.26256, 0, 0
24, 0.00000, 15.2665, 0.254499, 15.2721, 0.251971, 15.2716, 0.251435, 0, 0
25, 0.00000, 15.2668, 0.23607, 15.2716, 0.234007, 15.2712, 0.233461, 0, 0
26, 0.00000, 15.2669, 0.229307, 15.2714, 0.227418, 15.271, 0.22687, 0, 0
27, 0.00000, 15.2672, 0.212967, 15.271, 0.211501, 15.2707, 0.210939, 0, 0
28, 0.00000, 15.2673, 0.209187, 15.2709, 0.207821, 15.2707, 0.207255, 0, 0
29, 0.00000, 15.2673, 0.208245, 15.2709, 0.206899, 15.2706, 0.206334, 0, 0
30, 0.00000, 15.2673, 0.207929, 15.2708, 0.206588, 15.2706, 0.206023, 0, 0
31, 0.00000, 15.2673, 0.207784, 15.2708, 0.206447, 15.2706, 0.205881, 0, 0
32, 0.00000, 15.2673, 0.207535, 15.2708, 0.206201, 15.2706, 0.205636, 0, 0
33, 0.00000, 15.2672, 0.207613, 15.2708, 0.206278, 15.2706, 0.205712, 0, 0
34, 0.00000, 15.2673, 0.207536, 15.2708, 0.206202, 15.2706, 0.205636, 0, 0
35, 0.00000, 15.2672, 0.20796, 15.2708, 0.20662, 15.2706, 0.206052, 0, 0
36, 0.00000, 15.2672, 0.207837, 15.2708, 0.206498, 15.2706, 0.205931, 0, 0
37, 0.00000, 15.2673, 0.207534, 15.2708, 0.2062, 15.2706, 0.205635, 0, 0
38, 0.00000, 15.2673, 0.207535, 15.2708, 0.206201, 15.2706, 0.205635, 0, 0
39, 0.00000, 15.2673, 0.207535, 15.2708, 0.206201, 15.2706, 0.205635, 0, 0
40, 0.00000, 15.2673, 0.207535, 15.2708, 0.206201, 15.2706, 0.205635, 0, 0
41, 0.00000, 15.2673, 0.207535, 15.2708, 0.206201, 15.2706, 0.205635, 0, 0
42, 0.00000, 15.2673, 0.207535, 15.2708, 0.206201, 15.2706, 0.205635, 0, 0
43, 0.00000, 15.2673, 0.207535, 15.2708, 0.206201, 15.2706, 0.205635, 0, 0
44, 0.00000, 15.2673, 0.207535, 15.2708, 0.206201, 15.2706, 0.205635, 0, 0
45, 0.00000, 15.2673, 0.207535, 15.2708, 0.206201, 15.2706, 0.205635, 0, 0
46, 0.00000, 15.2673, 0.207535, 15.2708, 0.206201, 15.2706, 0.205635, 0, 0
47, 0.00000, 15.2673, 0.207535, 15.2708, 0.206201, 15.2706, 0.205635, 0, 0
48, 0.00000, 15.2673, 0.207535, 15.2708, 0.206201, 15.2706, 0.205635, 0, 0
49, 0.00000, 15.2671, 0.21636, 15.2711, 0.21479, 15.2708, 0.214233, 0, 0
50, 0.00000, 15.2671, 0.216357, 15.2711, 0.214787, 15.2708, 0.214231, 0, 0
51, 0.00000, 15.2671, 0.216357, 15.2711, 0.214787, 15.2708, 0.214231, 0, 0
52, 0.00000, 15.2671, 0.216357, 15.2711, 0.214787, 15.2708, 0.214231, 0, 0
53, 0.00000, 15.2671, 0.216357, 15.2711, 0.214787, 15.2708, 0.214231, 0, 0
54, 0.00000, 15.2671, 0.216357, 15.2711, 0.214787, 15.2708, 0.214231, 0, 0
55, 0.00000, 15.2671, 0.216357, 15.2711, 0.214787, 15.2708, 0.214231, 0, 0
56, 0.00000, 15.2671, 0.216357, 15.2711, 0.214787, 15.2708, 0.214231, 0, 0
57, 0.00000, 15.2671, 0.216357, 15.2711, 0.214787, 15.2708, 0.214231, 0, 0
58, 0.00000, 15.2671, 0.216357, 15.2711, 0.214787, 15.2708, 0.214231, 0, 0
59, 0.00000, 15.2671, 0.216357, 15.2711, 0.214787, 15.2708, 0.214231, 0, 0
60, 0.00000, 15.2671, 0.216357, 15.2711, 0.214787, 15.2708, 0.214231, 0, 0
61, 0.00000, 15.2671, 0.216357, 15.2711, 0.214787, 15.2708, 0.214231, 0, 0
62, 0.00000, 15.2671, 0.216357, 15.2711, 0.214787, 15.2708, 0.214231, 0, 0
63, 0.00000, 15.2671, 0.216357, 15.2711, 0.214787, 15.2708, 0.214231, 0, 0
64, 0.00000, 15.2671, 0.216357, 15.2711, 0.214787, 15.2708, 0.214231, 0, 0
65, 0.00000, 15.2671, 0.216357, 15.2711, 0.214787, 15.2708, 0.214231, 0, 0
66, 0.00000, 15.2671, 0.216383, 15.2711, 0.214813, 15.2708, 0.214256, 0, 0
67, 0.00000, 15.2671, 0.216659, 15.2711, 0.215084, 15.2708, 0.214526, 0, 0
68, 0.00000, 15.2671, 0.217514, 15.2711, 0.215928, 15.2708, 0.215362, 0, 0
69, 0.00000, 15.2668, 0.227224, 15.2714, 0.225486, 15.2711, 0.224801, 0, 0
70, 0.00000, 15.2656, 0.255316, 15.2718, 0.253141, 15.2714, 0.25211, 0, 0
71, 0.00000, 15.266, 0.257352, 15.2723, 0.255146, 15.2719, 0.254091, 0, 0
72, 0.00000, 15.2661, 0.257366, 15.2723, 0.255159, 15.2719, 0.254104, 0, 0
73, 0.00000, 15.2653, 0.303786, 15.2735, 0.300298, 15.2728, 0.299352, 0, 0
74, 0.00000, 15.2654, 0.303829, 15.2736, 0.30034, 15.2729, 0.299394, 0, 0
75, 0.00000, 15.2654, 0.303829, 15.2736, 0.30034, 15.2729, 0.299394, 0, 0
76, 0.00000, 15.2654, 0.303829, 15.2736, 0.30034, 15.2729, 0.299394, 0, 0
77, 0.00000, 15.2654, 0.303829, 15.2736, 0.30034, 15.2729, 0.299394, 0, 0
78, 0.00000, 15.2654, 0.303829, 15.2736, 0.30034, 15.2729, 0.299394, 0, 0
79, 0.00000, 15.2654, 0.303829, 15.2736, 0.30034, 15.2729, 0.299394, 0, 0
80, 0.00000, 15.2654, 0.303829, 15.2736, 0.30034, 15.2729, 0.299394, 0, 0
81, 0.00000, 15.2654, 0.303829, 15.2736, 0.30034, 15.2729, 0.299394, 0, 0
82, 0.00000, 15.2654, 0.303829, 15.2736, 0.30034, 15.2729, 0.299394, 0, 0
83, 0.00000, 15.2654, 0.303829, 15.2736, 0.30034, 15.2729, 0.299394, 0, 0
84, 0.00000, 15.2654, 0.303829, 15.2736, 0.30034, 15.2729, 0.299394, 0, 0
85, 0.00000, 15.2654, 0.303829, 15.2736, 0.30034, 15.2729, 0.299394, 0, 0
86, 0.00000, 15.2654, 0.303829, 15.2736, 0.30034, 15.2729, 0.299394, 0, 0
87, 0.00000, 15.2654, 0.303829, 15.2736, 0.30034, 15.2729, 0.299394, 0, 0
88, 0.00000, 15.2654, 0.303829, 15.2736, 0.30034, 15.2729, 0.299394, 0, 0
89, 0.00000, 15.2654, 0.303829, 15.2736, 0.30034, 15.2729, 0.299394, 0, 0
90, 0.00000, 15.2654, 0.303829, 15.2736, 0.30034, 15.2729, 0.299394, 0, 0
91, 0.00000, 15.2654, 0.303829, 15.2736, 0.30034, 15.2729, 0.299394, 0, 0
92, 0.00000, 15.2654, 0.303829, 15.2736, 0.30034, 15.2729, 0.299394, 0, 0
93, 0.00000, 15.2654, 0.303829, 15.2736, 0.30034, 15.2729, 0.299394, 0, 0
94, 0.00000, 15.2654, 0.303829, 15.2736, 0.30034, 15.2729, 0.299394, 0, 0
95, 0.00000, 15.2654, 0.303829, 15.2736, 0.30034, 15.2729, 0.299394, 0, 0
96, 0.00000, 15.2654, 0.303829, 15.2736, 0.30034, 15.2729, 0.299394, 0, 0
