hour, t(sec), P1 (kW), Q1 (kvar), P2 (kW), Q2 (kvar), P3 (kW), Q3 (kvar), P4 (kW), Q4 (kvar)
1, 0.00000, 4.41633, 1.72678, 4.41719, 1.72689, 4.41694, 1.72663, 0, 0
2, 0.00000, 4.41633, 1.72678, 4.41719, 1.72689, 4.41694, 1.72663, 0, 0
3, 0.00000, 4.41633, 1.72678, 4.41719, 1.72689, 4.41694, 1.72663, 0, 0
4, 0.00000, 4.41633, 1.72678, 4.41719, 1.72689, 4.41694, 1.72663, 0, 0
5, 0.00000, 4.41633, 1.72678, 4.41719, 1.72689, 4.41694, 1.72663, 0, 0
6, 0.00000, 4.41633, 1.72678, 4.41719, 1.72689, 4.41694, 1.72663, 0, 0
7, 0.00000, 4.41633, 1.72678, 4.41719, 1.72689, 4.41694, 1.72663, 0, 0
8, 0.00000, 4.41633, 1.72678, 4.41719, 1.72689, 4.41694, 1.72663, 0, 0
9, 0.00000, 4.41633, 1.72678, 4.41719, 1.72689, 4.41694, 1.72663, 0, 0
10, 0.00000, 4.41633, 1.72678, 4.41719, 1.72689, 4.41694, 1.72663, 0, 0
11, 0.00000, 4.41633, 1.72678, 4.41719, 1.72689, 4.41694, 1.72663, 0, 0
12, 0.00000, 4.41633, 1.72678, 4.41719, 1.72689, 4.41694, 1.72663, 0, 0
13, 0.00000, 4.41633, 1.72678, 4.41719, 1.72689, 4.41694, 1.72663, 0, 0
14, 0.00000, 4.41633, 1.72678, 4.41719, 1.72689, 4.41694, 1.72663, 0, 0
15, 0.00000, 4.41633, 1.72678, 4.41719, 1.72689, 4.41694, 1.72663, 0, 0
16, 0.00000, 4.41633, 1.72678, 4.41719, 1.72689, 4.41694, 1.72663, 0, 0
17, 0.00000, 4.41633, 1.72678, 4.41719, 1.72689, 4.41694, 1.72663, 0, 0
18, 0.00000, 4.41633, 1.72678, 4.41719, 1.72689, 4.41694, 1.72663, 0, 0
19, 0.00000, 4.41633, 1.72678, 4.41719, 1.72689, 4.41694, 1.72663, 0, 0
20, 0.00000, 4.41633, 1.72678, 4.41719, 1.72689, 4.41694, 1.72663, 0, 0
21, 0.00000, 4.41633, 1.72678, 4.41719, 1.72689, 4.41694, 1.72663, 0, 0
22, 0.00000, 4.41633, 1.72678, 4.41719, 1.72689, 4.41694, 1.72663, 0, 0
23, 0.00000, 2.74761, 1.17003, 2.74813, 1.17004, 2.74804, 1.16993, 0, 0
24, 0.00000, 1.08019, 0.430753, 1.0804, 0.430641, 1.08045, 0.430678, 0, 0
25, 0.00000, 0.99953, 0.304883, 0.999688, 0.304764, 0.999749, 0.304808, 0, 0
26, 0.00000, 0.999654, 0.304059, 0.9998, 0.303949, 0.999859, 0.303989, 0, 0
27, 0.00000, 0.999976, 0.301907, 1.00009, 0.301818, 1.00014, 0.301848, 0, 0
28, 0.00000, 1.00006, 0.301351, 1.00017, 0.301268, 1.00022, 0.301295, 0, 0
29, 0.00000, 1.00011, 0.301044, 1.00021, 0.300964, 1.00026, 0.30099, 0, 0
30, 0.00000, 1.00014, 0.300807, 1.00024, 0.300729, 1.00029, 0.300754, 0, 0
31, 0.00000, 1.00016, 0.300704, 1.00026, 0.300628, 1.0003, 0.300652, 0, 0
32, 0.00000, 1.00019, 0.300504, 1.00028, 0.30043, 1.00033, 0.300453, 0, 0
33, 0.00000, 1.00017, 0.300576, 1.00027, 0.300501, 1.00032, 0.300525, 0, 0
34, 0.00000, 1.00019, 0.300504, 1.00028, 0.30043, 1.00033, 0.300453, 0, 0
35, 0.00000, 1.00013, 0.300884, 1.00023, 0.300806, 1.00028, 0.30083, 0, 0
36, 0.00000, 1.00014, 0.300782, 1.00025, 0.300705, 1.00029, 0.300729, 0, 0
37, 0.00000, 1.00019, 0.300502, 1.00028, 0.300428, 1.00033, 0.300452, 0, 0
38, 0.00000, 1.00019, 0.300503, 1.00028, 0.300429, 1.00033, 0.300452, 0, 0
39, 0.00000, 1.00019, 0.300503, 1.00028, 0.300429, 1.00033, 0.300452, 0, 0
40, 0.00000, 1.00019, 0.300503, 1.00028, 0.300429, 1.00033, 0.300452, 0, 0
41, 0.00000, 1.00019, 0.300503, 1.00028, 0.300429, 1.00033, 0.300452, 0, 0
42, 0.00000, 1.00019, 0.300503, 1.00028, 0.300429, 1.00033, 0.300452, 0, 0
43, 0.00000, 1.00019, 0.300503, 1.00028, 0.300429, 1.00033, 0.300452, 0, 0
44, 0.00000, 1.00019, 0.300503, 1.00028, 0.300429, 1.00033, 0.300452, 0, 0
45, 0.00000, 1.00019, 0.300503, 1.00028, 0.300429, 1.00033, 0.300452, 0, 0
46, 0.00000, 1.00019, 0.300503, 1.00028, 0.300429, 1.00033, 0.300452, 0, 0
47, 0.00000, 1.00019, 0.300503, 1.00028, 0.300429, 1.00033, 0.300452, 0, 0
48, 0.00000, 1.00019, 0.300503, 1.00028, 0.300429, 1.00033, 0.300452, 0, 0
49, 0.00000, 1.42697, 0.484549, 1.42712, 0.484476, 1.42716, 0.484488, 0, 0
50, 0.00000, 1.42697, 0.484549, 1.42712, 0.484476, 1.42716, 0.484488, 0, 0
51, 0.00000, 1.42697, 0.484549, 1.42712, 0.484476, 1.42716, 0.484488, 0, 0
52, 0.00000, 1.42697, 0.484549, 1.42712, 0.484476, 1.42716, 0.484488, 0, 0
53, 0.00000, 1.42697, 0.484549, 1.42712, 0.484476, 1.42716, 0.484488, 0, 0
54, 0.00000, 1.42697, 0.484549, 1.42712, 0.484476, 1.42716, 0.484488, 0, 0
55, 0.00000, 1.42697, 0.484549, 1.42712, 0.484476, 1.42716, 0.484488, 0, 0
56, 0.00000, 1.42697, 0.484549, 1.42712, 0.484476, 1.42716, 0.484488, 0, 0
57, 0.00000, 1.42697, 0.484549, 1.42712, 0.484476, 1.42716, 0.484488, 0, 0
58, 0.00000, 1.42697, 0.484549, 1.42712, 0.484476, 1.42716, 0.484488, 0, 0
59, 0.00000, 1.42697, 0.484549, 1.42712, 0.484476, 1.42716, 0.484488, 0, 0
60, 0.00000, 1.42697, 0.484549, 1.42712, 0.484476, 1.42716, 0.484488, 0, 0
61, 0.00000, 1.42697, 0.484549, 1.42712, 0.484476, 1.42716, 0.484488, 0, 0
62, 0.00000, 1.42697, 0.484549, 1.42712, 0.484476, 1.42716, 0.484488, 0, 0
63, 0.00000, 1.42697, 0.484549, 1.42712, 0.484476, 1.42716, 0.484488, 0, 0
64, 0.00000, 1.42697, 0.484549, 1.42712, 0.484476, 1.42716, 0.484488, 0, 0
65, 0.00000, 1.42697, 0.484549, 1.42712, 0.484476, 1.42716, 0.484488, 0, 0
66, 0.00000, 1.42696, 0.484573, 1.42711, 0.4845, 1.42715, 0.484512, 0, 0
67, 0.00000, 1.42692, 0.484826, 1.42708, 0.484751, 1.42712, 0.484762, 0, 0
68, 0.00000, 1.42686, 0.485242, 1.42702, 0.485163, 1.42707, 0.485175, 0, 0
69, 0.00000, 1.42663, 0.486734, 1.42682, 0.486643, 1.42688, 0.486654, 0, 0
70, 0.00000, 3.31748, 0.496742, 3.31805, 0.496602, 3.31802, 0.496522, 0, 0
71, 0.00000, 4.98644, 0.50666, 4.98734, 0.506496, 4.9872, 0.506329, 0, 0
72, 0.00000, 4.98645, 0.506662, 4.98734, 0.506497, 4.9872, 0.50633, 0, 0
73, 0.00000, 7.33818, 1.53416, 7.3399, 1.53401, 7.33955, 1.53362, 0, 0
74, 0.00000, 7.33819, 1.53416, 7.3399, 1.53401, 7.33955, 1.53362, 0, 0
75, 0.00000, 7.33819, 1.53416, 7.3399, 1.53401, 7.33955, 1.53362, 0, 0
76, 0.00000, 7.33819, 1.53416, 7.3399, 1.53401, 7.33955, 1.53362, 0, 0
77, 0.00000, 7.33819, 1.53416, 7.3399, 1.53401, 7.33955, 1.53362, 0, 0
78, 0.00000, 7.33819, 1.53416, 7.3399, 1.53401, 7.33955, 1.53362, 0, 0
79, 0.00000, 7.33819, 1.53416, 7.3399, 1.53401, 7.33955, 1.53362, 0, 0
80, 0.00000, 7.33819, 1.53416, 7.3399, 1.53401, 7.33955, 1.53362, 0, 0
81, 0.00000, 7.33819, 1.53416, 7.3399, 1.53401, 7.33955, 1.53362, 0, 0
82, 0.00000, 7.33819, 1.53416, 7.3399, 1.53401, 7.33955, 1.53362, 0, 0
83, 0.00000, 7.33819, 1.53416, 7.3399, 1.53401, 7.33955, 1.53362, 0, 0
84, 0.00000, 7.33819, 1.53416, 7.3399, 1.53401, 7.33955, 1.53362, 0, 0
85, 0.00000, 7.33819, 1.53416, 7.3399, 1.53401, 7.33955, 1.53362, 0, 0
86, 0.00000, 7.33819, 1.53416, 7.3399, 1.53401, 7.33955, 1.53362, 0, 0
87, 0.00000, 7.33819, 1.53416, 7.3399, 1.53401, 7.33955, 1.53362, 0, 0
88, 0.00000, 7.33819, 1.53416, 7.3399, 1.53401, 7.33955, 1.53362, 0, 0
89, 0.00000, 7.33819, 1.53416, 7.3399, 1.53401, 7.33955, 1.53362, 0, 0
90, 0.00000, 7.33819, 1.53416, 7.3399, 1.53401, 7.33955, 1.53362, 0, 0
91, 0.00000, 7.33819, 1.53416, 7.3399, 1.53401, 7.33955, 1.53362, 0, 0
92, 0.00000, 7.33819, 1.53416, 7.3399, 1.53401, 7.33955, 1.53362, 0, 0
93, 0.00000, 7.33819, 1.53416, 7.3399, 1.53401, 7.33955, 1.53362, 0, 0
94, 0.00000, 7.33819, 1.53416, 7.3399, 1.53401, 7.33955, 1.53362, 0, 0
95, 0.00000, 7.33819, 1.53416, 7.3399, 1.53401, 7.33955, 1.53362, 0, 0
96, 0.00000, 7.33819, 1.53416, 7.3399, 1.53401, 7.33955, 1.53362, 0, 0
