hour, t(sec), P1 (kW), Q1 (kvar), P2 (kW), Q2 (kvar), P3 (kW), Q3 (kvar), P4 (kW), Q4 (kvar)
1, 0.00000, 5.11431, 2.09897, 5.11584, 2.09916, 5.11543, 2.09867, 0, 0
2, 0.00000, 5.11431, 2.09897, 5.11584, 2.09916, 5.11543, 2.09867, 0, 0
3, 0.00000, 5.11431, 2.09897, 5.11584, 2.09916, 5.11543, 2.09867, 0, 0
4, 0.00000, 5.11431, 2.09897, 5.11584, 2.09916, 5.11543, 2.09867, 0, 0
5, 0.00000, 5.11431, 2.09897, 5.11584, 2.09916, 5.11543, 2.09867, 0, 0
6, 0.00000, 5.11431, 2.09897, 5.11584, 2.09916, 5.11543, 2.09867, 0, 0
7, 0.00000, 5.11431, 2.09897, 5.11584, 2.09916, 5.11543, 2.09867, 0, 0
8, 0.00000, 5.11431, 2.09897, 5.11584, 2.09916, 5.11543, 2.09867, 0, 0
9, 0.00000, 5.11431, 2.09897, 5.11584, 2.09916, 5.11543, 2.09867, 0, 0
10, 0.00000, 5.11431, 2.09897, 5.11584, 2.09916, 5.11543, 2.09867, 0, 0
11, 0.00000, 5.11431, 2.09897, 5.11584, 2.09916, 5.11543, 2.09867, 0, 0
12, 0.00000, 5.11431, 2.09897, 5.11584, 2.09916, 5.11543, 2.09867, 0, 0
13, 0.00000, 5.11431, 2.09897, 5.11584, 2.09916, 5.11543, 2.09867, 0, 0
14, 0.00000, 5.11431, 2.09897, 5.11584, 2.09916, 5.11543, 2.09867, 0, 0
15, 0.00000, 5.11431, 2.09897, 5.11584, 2.09916, 5.11543, 2.09867, 0, 0
16, 0.00000, 5.11431, 2.09897, 5.11584, 2.09916, 5.11543, 2.09867, 0, 0
17, 0.00000, 5.11431, 2.09897, 5.11584, 2.09916, 5.11543, 2.09867, 0, 0
18, 0.00000, 5.11431, 2.09897, 5.11584, 2.09916, 5.11543, 2.09867, 0, 0
19, 0.00000, 5.11431, 2.09897, 5.11584, 2.09916, 5.11543, 2.09867, 0, 0
20, 0.00000, 5.11431, 2.09897, 5.11584, 2.09916, 5.11543, 2.09867, 0, 0
21, 0.00000, 5.11431, 2.09897, 5.11584, 2.09916, 5.11543, 2.09867, 0, 0
22, 0.00000, 5.11431, 2.09897, 5.11584, 2.09916, 5.11543, 2.09867, 0, 0
23, 0.00000, 3.43547, 1.18641, 3.43646, 1.18631, 3.43633, 1.18612, 0, 0
24, 0.00000, 1.7623, 0.571519, 1.76278, 0.571281, 1.76287, 0.571306, 0, 0
25, 0.00000, 0.993339, 0.39076, 0.993571, 0.390567, 0.993702, 0.390629, 0, 0
26, 0.00000, 0.993425, 0.389451, 0.993641, 0.38927, 0.993766, 0.389327, 0, 0
27, 0.00000, 0.993666, 0.385742, 0.993839, 0.385596, 0.993946, 0.385637, 0, 0
28, 0.00000, 0.993728, 0.384802, 0.99389, 0.384664, 0.993993, 0.384703, 0, 0
29, 0.00000, 0.99376, 0.384305, 0.993915, 0.384173, 0.994016, 0.384209, 0, 0
30, 0.00000, 0.993789, 0.38387, 0.993938, 0.383742, 0.994037, 0.383776, 0, 0
31, 0.00000, 0.993802, 0.383666, 0.993949, 0.38354, 0.994047, 0.383573, 0, 0
32, 0.00000, 0.993829, 0.383252, 0.993971, 0.383131, 0.994067, 0.383162, 0, 0
33, 0.00000, 0.993817, 0.383406, 0.993961, 0.383283, 0.994058, 0.383314, 0, 0
34, 0.00000, 0.99383, 0.383253, 0.993972, 0.383131, 0.994068, 0.383163, 0, 0
35, 0.00000, 0.993776, 0.384033, 0.993927, 0.383905, 0.994029, 0.383937, 0, 0
36, 0.00000, 0.99379, 0.383842, 0.993939, 0.383715, 0.994039, 0.383747, 0, 0
37, 0.00000, 0.993828, 0.383249, 0.99397, 0.383127, 0.994066, 0.383158, 0, 0
38, 0.00000, 0.993829, 0.38325, 0.993971, 0.383129, 0.994066, 0.38316, 0, 0
39, 0.00000, 0.993829, 0.38325, 0.993971, 0.383129, 0.994066, 0.38316, 0, 0
40, 0.00000, 0.993829, 0.38325, 0.993971, 0.383129, 0.994066, 0.38316, 0, 0
41, 0.00000, 0.993829, 0.38325, 0.993971, 0.383129, 0.994066, 0.38316, 0, 0
42, 0.00000, 0.993829, 0.38325, 0.993971, 0.383129, 0.994066, 0.38316, 0, 0
43, 0.00000, 0.993829, 0.38325, 0.993971, 0.383129, 0.994066, 0.38316, 0, 0
44, 0.00000, 0.993829, 0.38325, 0.993971, 0.383129, 0.994066, 0.38316, 0, 0
45, 0.00000, 0.993829, 0.38325, 0.993971, 0.383129, 0.994066, 0.38316, 0, 0
46, 0.00000, 0.993829, 0.38325, 0.993971, 0.383129, 0.994066, 0.38316, 0, 0
47, 0.00000, 0.993829, 0.38325, 0.993971, 0.383129, 0.994066, 0.38316, 0, 0
48, 0.00000, 0.993829, 0.38325, 0.993971, 0.383129, 0.994066, 0.38316, 0, 0
49, 0.00000, 1.44193, 0.592597, 1.44216, 0.59248, 1.44224, 0.592491, 0, 0
50, 0.00000, 1.44193, 0.592597, 1.44216, 0.59248, 1.44224, 0.592491, 0, 0
51, 0.00000, 1.44193, 0.592597, 1.44216, 0.59248, 1.44224, 0.592491, 0, 0
52, 0.00000, 1.44193, 0.592597, 1.44216, 0.59248, 1.44224, 0.592491, 0, 0
53, 0.00000, 1.44193, 0.592597, 1.44216, 0.59248, 1.44224, 0.592491, 0, 0
54, 0.00000, 1.44193, 0.592597, 1.44216, 0.59248, 1.44224, 0.592491, 0, 0
55, 0.00000, 1.44193, 0.592597, 1.44216, 0.59248, 1.44224, 0.592491, 0, 0
56, 0.00000, 1.44193, 0.592597, 1.44216, 0.59248, 1.44224, 0.592491, 0, 0
57, 0.00000, 1.44193, 0.592597, 1.44216, 0.59248, 1.44224, 0.592491, 0, 0
58, 0.00000, 1.44193, 0.592597, 1.44216, 0.59248, 1.44224, 0.592491, 0, 0
59, 0.00000, 1.44193, 0.592597, 1.44216, 0.59248, 1.44224, 0.592491, 0, 0
60, 0.00000, 1.44193, 0.592597, 1.44216, 0.59248, 1.44224, 0.592491, 0, 0
61, 0.00000, 1.44193, 0.592597, 1.44216, 0.59248, 1.44224, 0.592491, 0, 0
62, 0.00000, 1.44193, 0.592597, 1.44216, 0.59248, 1.44224, 0.592491, 0, 0
63, 0.00000, 1.44193, 0.592597, 1.44216, 0.59248, 1.44224, 0.592491, 0, 0
64, 0.00000, 1.44193, 0.592597, 1.44216, 0.59248, 1.44224, 0.592491, 0, 0
65, 0.00000, 1.44193, 0.592597, 1.44216, 0.59248, 1.44224, 0.592491, 0, 0
66, 0.00000, 1.44192, 0.592648, 1.44215, 0.592531, 1.44224, 0.592542, 0, 0
67, 0.00000, 1.44189, 0.593185, 1.44212, 0.593064, 1.44221, 0.593075, 0, 0
68, 0.00000, 1.44184, 0.59392, 1.44209, 0.593794, 1.44218, 0.593804, 0, 0
69, 0.00000, 1.44165, 0.596697, 1.44194, 0.596552, 1.44206, 0.596559, 0, 0
70, 0.00000, 3.50995, 0.622692, 3.51087, 0.622471, 3.51085, 0.622316, 0, 0
71, 0.00000, 5.187, 0.648685, 5.18841, 0.648428, 5.18824, 0.648136, 0, 0
72, 0.00000, 5.187, 0.648689, 5.18841, 0.648433, 5.18824, 0.648141, 0, 0
73, 0.00000, 7.59658, 1.80445, 7.5993, 1.80425, 7.59882, 1.80359, 0, 0
74, 0.00000, 7.59659, 1.80446, 7.59931, 1.80426, 7.59883, 1.8036, 0, 0
75, 0.00000, 7.59659, 1.80446, 7.59931, 1.80426, 7.59883, 1.8036, 0, 0
76, 0.00000, 7.59659, 1.80446, 7.59931, 1.80426, 7.59883, 1.8036, 0, 0
77, 0.00000, 7.59659, 1.80446, 7.59931, 1.80426, 7.59883, 1.8036, 0, 0
78, 0.00000, 7.59659, 1.80446, 7.59931, 1.80426, 7.59883, 1.8036, 0, 0
79, 0.00000, 7.59659, 1.80446, 7.59931, 1.80426, 7.59883, 1.8036, 0, 0
80, 0.00000, 7.59659, 1.80446, 7.59931, 1.80426, 7.59883, 1.8036, 0, 0
81, 0.00000, 7.59659, 1.80446, 7.59931, 1.80426, 7.59883, 1.8036, 0, 0
82, 0.00000, 7.59659, 1.80446, 7.59931, 1.80426, 7.59883, 1.8036, 0, 0
83, 0.00000, 7.59659, 1.80446, 7.59931, 1.80426, 7.59883, 1.8036, 0, 0
84, 0.00000, 7.59659, 1.80446, 7.59931, 1.80426, 7.59883, 1.8036, 0, 0
85, 0.00000, 7.59659, 1.80446, 7.59931, 1.80426, 7.59883, 1.8036, 0, 0
86, 0.00000, 7.59659, 1.80446, 7.59931, 1.80426, 7.59883, 1.8036, 0, 0
87, 0.00000, 7.59659, 1.80446, 7.59931, 1.80426, 7.59883, 1.8036, 0, 0
88, 0.00000, 7.59659, 1.80446, 7.59931, 1.80426, 7.59883, 1.8036, 0, 0
89, 0.00000, 7.59659, 1.80446, 7.59931, 1.80426, 7.59883, 1.8036, 0, 0
90, 0.00000, 7.59659, 1.80446, 7.59931, 1.80426, 7.59883, 1.8036, 0, 0
91, 0.00000, 7.59659, 1.80446, 7.59931, 1.80426, 7.59883, 1.8036, 0, 0
92, 0.00000, 7.59659, 1.80446, 7.59931, 1.80426, 7.59883, 1.8036, 0, 0
93, 0.00000, 7.59659, 1.80446, 7.59931, 1.80426, 7.59883, 1.8036, 0, 0
94, 0.00000, 7.59659, 1.80446, 7.59931, 1.80426, 7.59883, 1.8036, 0, 0
95, 0.00000, 7.59659, 1.80446, 7.59931, 1.80426, 7.59883, 1.8036, 0, 0
96, 0.00000, 7.59659, 1.80446, 7.59931, 1.80426, 7.59883, 1.8036, 0, 0
