hour, t(sec), P1 (kW), Q1 (kvar), P2 (kW), Q2 (kvar), P3 (kW), Q3 (kvar), P4 (kW), Q4 (kvar)
1, 0.00000, 29.365, 14.4942, 29.3821, 14.4954, 29.3764, 14.4897, 0, 0
2, 0.00000, 29.3653, 14.4944, 29.3824, 14.4955, 29.3767, 14.4899, 0, 0
3, 0.00000, 29.3653, 14.4944, 29.3824, 14.4955, 29.3767, 14.4899, 0, 0
4, 0.00000, 29.3653, 14.4944, 29.3824, 14.4955, 29.3767, 14.4899, 0, 0
5, 0.00000, 29.3653, 14.4944, 29.3824, 14.4955, 29.3767, 14.4899, 0, 0
6, 0.00000, 29.3653, 14.4944, 29.3824, 14.4955, 29.3767, 14.4899, 0, 0
7, 0.00000, 29.3653, 14.4944, 29.3824, 14.4955, 29.3767, 14.4899, 0, 0
8, 0.00000, 29.3653, 14.4944, 29.3824, 14.4955, 29.3767, 14.4899, 0, 0
9, 0.00000, 29.3653, 14.4944, 29.3824, 14.4955, 29.3767, 14.4899, 0, 0
10, 0.00000, 29.3653, 14.4944, 29.3824, 14.4955, 29.3767, 14.4899, 0, 0
11, 0.00000, 29.3653, 14.4944, 29.3824, 14.4955, 29.3767, 14.4899, 0, 0
12, 0.00000, 29.3653, 14.4944, 29.3824, 14.4955, 29.3767, 14.4899, 0, 0
13, 0.00000, 29.3653, 14.4944, 29.3824, 14.4955, 29.3767, 14.4899, 0, 0
14, 0.00000, 29.3653, 14.4944, 29.3824, 14.4955, 29.3767, 14.4899, 0, 0
15, 0.00000, 29.3653, 14.4944, 29.3824, 14.4955, 29.3767, 14.4899, 0, 0
16, 0.00000, 29.3653, 14.4944, 29.3824, 14.4955, 29.3767, 14.4899, 0, 0
17, 0.00000, 29.3653, 14.4944, 29.3824, 14.4955, 29.3767, 14.4899, 0, 0
18, 0.00000, 29.3653, 14.4944, 29.3824, 14.4955, 29.3767, 14.4899, 0, 0
19, 0.00000, 29.3653, 14.4944, 29.3824, 14.4955, 29.3767, 14.4899, 0, 0
20, 0.00000, 29.3653, 14.4944, 29.3824, 14.4955, 29.3767, 14.4899, 0, 0
21, 0.00000, 29.3653, 14.4944, 29.3824, 14.4955, 29.3767, 14.4899, 0, 0
22, 0.00000, 29.3653, 14.4944, 29.3824, 14.4955, 29.3767, 14.4899, 0, 0
23, 0.00000, 29.3653, 14.4944, 29.3824, 14.4955, 29.3767, 14.4899, 0, 0
24, 0.00000, 29.3653, 14.4944, 29.3824, 14.4955, 29.3767, 14.4899, 0, 0
25, 0.00000, 32.8513, 16.1158, 32.8706, 16.117, 32.8643, 16.1106, 0, 0
26, 0.00000, 32.8515, 16.1159, 32.8708, 16.1171, 32.8644, 16.1107, 0, 0
27, 0.00000, 32.8515, 16.1159, 32.8708, 16.1171, 32.8644, 16.1107, 0, 0
28, 0.00000, 32.8515, 16.1159, 32.8708, 16.1171, 32.8644, 16.1107, 0, 0
29, 0.00000, 32.8515, 16.1159, 32.8708, 16.1171, 32.8644, 16.1107, 0, 0
30, 0.00000, 32.8515, 16.1159, 32.8708, 16.1171, 32.8644, 16.1107, 0, 0
31, 0.00000, 32.8515, 16.1159, 32.8708, 16.1171, 32.8644, 16.1107, 0, 0
32, 0.00000, 32.8515, 16.1159, 32.8708, 16.1171, 32.8644, 16.1107, 0, 0
33, 0.00000, 32.8515, 16.1159, 32.8708, 16.1171, 32.8644, 16.1107, 0, 0
34, 0.00000, 32.8515, 16.1159, 32.8708, 16.1171, 32.8644, 16.1107, 0, 0
35, 0.00000, 32.8515, 16.1159, 32.8708, 16.1171, 32.8644, 16.1107, 0, 0
36, 0.00000, 32.8515, 16.1159, 32.8708, 16.1171, 32.8644, 16.1107, 0, 0
37, 0.00000, 32.8515, 16.1159, 32.8708, 16.1171, 32.8644, 16.1107, 0, 0
38, 0.00000, 32.8515, 16.1159, 32.8708, 16.1171, 32.8644, 16.1107, 0, 0
39, 0.00000, 32.8515, 16.1159, 32.8708, 16.1171, 32.8644, 16.1107, 0, 0
40, 0.00000, 32.8515, 16.1159, 32.8708, 16.1171, 32.8644, 16.1107, 0, 0
41, 0.00000, 32.8515, 16.1159, 32.8708, 16.1171, 32.8644, 16.1107, 0, 0
42, 0.00000, 32.8515, 16.1159, 32.8708, 16.1171, 32.8644, 16.1107, 0, 0
43, 0.00000, 32.8515, 16.1159, 32.8708, 16.1171, 32.8644, 16.1107, 0, 0
44, 0.00000, 32.8515, 16.1159, 32.8708, 16.1171, 32.8644, 16.1107, 0, 0
45, 0.00000, 32.8515, 16.1159, 32.8708, 16.1171, 32.8644, 16.1107, 0, 0
46, 0.00000, 32.8515, 16.1159, 32.8708, 16.1171, 32.8644, 16.1107, 0, 0
47, 0.00000, 32.8515, 16.1159, 32.8708, 16.1171, 32.8644, 16.1107, 0, 0
48, 0.00000, 32.8515, 16.1159, 32.8708, 16.1171, 32.8644, 16.1107, 0, 0
49, 0.00000, 36.3427, 17.7552, 36.3654, 17.7565, 36.358, 17.7492, 0, 0
50, 0.00000, 36.3432, 17.7555, 36.3658, 17.7568, 36.3585, 17.7494, 0, 0
51, 0.00000, 36.3432, 17.7555, 36.3658, 17.7568, 36.3585, 17.7494, 0, 0
52, 0.00000, 36.3432, 17.7555, 36.3658, 17.7568, 36.3585, 17.7494, 0, 0
53, 0.00000, 36.3432, 17.7555, 36.3658, 17.7568, 36.3585, 17.7494, 0, 0
54, 0.00000, 36.3432, 17.7555, 36.3658, 17.7568, 36.3585, 17.7494, 0, 0
55, 0.00000, 36.3432, 17.7555, 36.3658, 17.7568, 36.3585, 17.7494, 0, 0
56, 0.00000, 36.3432, 17.7555, 36.3658, 17.7568, 36.3585, 17.7494, 0, 0
57, 0.00000, 36.3432, 17.7555, 36.3658, 17.7568, 36.3585, 17.7494, 0, 0
58, 0.00000, 36.3432, 17.7555, 36.3658, 17.7568, 36.3585, 17.7494, 0, 0
59, 0.00000, 36.3432, 17.7555, 36.3658, 17.7568, 36.3585, 17.7494, 0, 0
60, 0.00000, 36.3432, 17.7555, 36.3658, 17.7568, 36.3585, 17.7494, 0, 0
61, 0.00000, 36.3432, 17.7555, 36.3658, 17.7568, 36.3585, 17.7494, 0, 0
62, 0.00000, 36.3432, 17.7555, 36.3658, 17.7568, 36.3585, 17.7494, 0, 0
63, 0.00000, 36.3432, 17.7555, 36.3658, 17.7568, 36.3585, 17.7494, 0, 0
64, 0.00000, 36.3432, 17.7555, 36.3658, 17.7568, 36.3585, 17.7494, 0, 0
65, 0.00000, 36.3432, 17.7555, 36.3658, 17.7568, 36.3585, 17.7494, 0, 0
66, 0.00000, 36.3432, 17.7555, 36.3658, 17.7568, 36.3585, 17.7494, 0, 0
67, 0.00000, 36.3432, 17.7555, 36.3658, 17.7568, 36.3585, 17.7494, 0, 0
68, 0.00000, 36.3432, 17.7555, 36.3658, 17.7568, 36.3585, 17.7494, 0, 0
69, 0.00000, 36.3432, 17.7555, 36.3658, 17.7568, 36.3585, 17.7494, 0, 0
70, 0.00000, 36.3432, 17.7555, 36.3658, 17.7568, 36.3585, 17.7494, 0, 0
71, 0.00000, 36.3432, 17.7555, 36.3658, 17.7568, 36.3585, 17.7494, 0, 0
72, 0.00000, 36.3432, 17.7555, 36.3658, 17.7568, 36.3585, 17.7494, 0, 0
73, 0.00000, 49.8661, 24.265, 49.9056, 24.2668, 49.8932, 24.2542, 0, 0
74, 0.00000, 49.8698, 24.2677, 49.9092, 24.2694, 49.8969, 24.2569, 0, 0
75, 0.00000, 49.8698, 24.2677, 49.9093, 24.2694, 49.8969, 24.2569, 0, 0
76, 0.00000, 49.8698, 24.2677, 49.9093, 24.2694, 49.8969, 24.2569, 0, 0
77, 0.00000, 49.8698, 24.2677, 49.9093, 24.2694, 49.8969, 24.2569, 0, 0
78, 0.00000, 49.8698, 24.2677, 49.9093, 24.2694, 49.8969, 24.2569, 0, 0
79, 0.00000, 49.8698, 24.2677, 49.9093, 24.2694, 49.8969, 24.2569, 0, 0
80, 0.00000, 49.8698, 24.2677, 49.9093, 24.2694, 49.8969, 24.2569, 0, 0
81, 0.00000, 49.8698, 24.2677, 49.9093, 24.2694, 49.8969, 24.2569, 0, 0
82, 0.00000, 49.8698, 24.2677, 49.9093, 24.2694, 49.8969, 24.2569, 0, 0
83, 0.00000, 49.8698, 24.2677, 49.9093, 24.2694, 49.8969, 24.2569, 0, 0
84, 0.00000, 49.8698, 24.2677, 49.9093, 24.2694, 49.8969, 24.2569, 0, 0
85, 0.00000, 49.8698, 24.2677, 49.9093, 24.2694, 49.8969, 24.2569, 0, 0
86, 0.00000, 49.8698, 24.2677, 49.9093, 24.2694, 49.8969, 24.2569, 0, 0
87, 0.00000, 49.8698, 24.2677, 49.9093, 24.2694, 49.8969, 24.2569, 0, 0
88, 0.00000, 49.8698, 24.2677, 49.9093, 24.2694, 49.8969, 24.2569, 0, 0
89, 0.00000, 49.8698, 24.2677, 49.9093, 24.2694, 49.8969, 24.2569, 0, 0
90, 0.00000, 49.8698, 24.2677, 49.9093, 24.2694, 49.8969, 24.2569, 0, 0
91, 0.00000, 49.8698, 24.2677, 49.9093, 24.2694, 49.8969, 24.2569, 0, 0
92, 0.00000, 49.8698, 24.2677, 49.9093, 24.2694, 49.8969, 24.2569, 0, 0
93, 0.00000, 49.8698, 24.2677, 49.9093, 24.2694, 49.8969, 24.2569, 0, 0
94, 0.00000, 49.8698, 24.2677, 49.9093, 24.2694, 49.8969, 24.2569, 0, 0
95, 0.00000, 49.8698, 24.2677, 49.9093, 24.2694, 49.8969, 24.2569, 0, 0
96, 0.00000, 49.8698, 24.2677, 49.9093, 24.2694, 49.8969, 24.2569, 0, 0
