hour, t(sec), P1 (kW), Q1 (kvar), P2 (kW), Q2 (kvar), P3 (kW), Q3 (kvar), P4 (kW), Q4 (kvar)
1, 0.00000, 4.61419, 2.51773, 4.61574, 2.51791, 4.6152, 2.51736, 0, 0
2, 0.00000, 4.61421, 2.51774, 4.61576, 2.51792, 4.61522, 2.51737, 0, 0
3, 0.00000, 4.61421, 2.51774, 4.61576, 2.51792, 4.61522, 2.51737, 0, 0
4, 0.00000, 4.61421, 2.51774, 4.61576, 2.51792, 4.61522, 2.51737, 0, 0
5, 0.00000, 4.61421, 2.51774, 4.61576, 2.51792, 4.61522, 2.51737, 0, 0
6, 0.00000, 4.61421, 2.51774, 4.61576, 2.51792, 4.61522, 2.51737, 0, 0
7, 0.00000, 4.61421, 2.51774, 4.61576, 2.51792, 4.61522, 2.51737, 0, 0
8, 0.00000, 4.61421, 2.51774, 4.61576, 2.51792, 4.61522, 2.51737, 0, 0
9, 0.00000, 4.61421, 2.51774, 4.61576, 2.51792, 4.61522, 2.51737, 0, 0
10, 0.00000, 4.61421, 2.51774, 4.61576, 2.51792, 4.61522, 2.51737, 0, 0
11, 0.00000, 4.61421, 2.51774, 4.61576, 2.51792, 4.61522, 2.51737, 0, 0
12, 0.00000, 4.61421, 2.51774, 4.61576, 2.51792, 4.61522, 2.51737, 0, 0
13, 0.00000, 4.61421, 2.51774, 4.61576, 2.51792, 4.61522, 2.51737, 0, 0
14, 0.00000, 4.61421, 2.51774, 4.61576, 2.51792, 4.61522, 2.51737, 0, 0
15, 0.00000, 4.61421, 2.51774, 4.61576, 2.51792, 4.61522, 2.51737, 0, 0
16, 0.00000, 4.61421, 2.51774, 4.61576, 2.51792, 4.61522, 2.51737, 0, 0
17, 0.00000, 4.61421, 2.51774, 4.61576, 2.51792, 4.61522, 2.51737, 0, 0
18, 0.00000, 4.61421, 2.51774, 4.61576, 2.51792, 4.61522, 2.51737, 0, 0
19, 0.00000, 4.61421, 2.51774, 4.61576, 2.51792, 4.61522, 2.51737, 0, 0
20, 0.00000, 4.61421, 2.51774, 4.61576, 2.51792, 4.61522, 2.51737, 0, 0
21, 0.00000, 4.61421, 2.51774, 4.61576, 2.51792, 4.61522, 2.51737, 0, 0
22, 0.00000, 4.61421, 2.51774, 4.61576, 2.51792, 4.61522, 2.51737, 0, 0
23, 0.00000, 4.61421, 2.51774, 4.61576, 2.51792, 4.61522, 2.51737, 0, 0
24, 0.00000, 4.61421, 2.51774, 4.61576, 2.51792, 4.61522, 2.51737, 0, 0
25, 0.00000, 4.90572, 2.65651, 4.9073, 2.65669, 4.90675, 2.65613, 0, 0
26, 0.00000, 4.9057, 2.6565, 4.90728, 2.65668, 4.90673, 2.65612, 0, 0
27, 0.00000, 4.9057, 2.6565, 4.90728, 2.65668, 4.90673, 2.65612, 0, 0
28, 0.00000, 4.9057, 2.6565, 4.90728, 2.65668, 4.90673, 2.65612, 0, 0
29, 0.00000, 4.9057, 2.6565, 4.90728, 2.65668, 4.90673, 2.65612, 0, 0
30, 0.00000, 4.9057, 2.6565, 4.90728, 2.65668, 4.90673, 2.65612, 0, 0
31, 0.00000, 4.9057, 2.6565, 4.90728, 2.65668, 4.90673, 2.65612, 0, 0
32, 0.00000, 4.9057, 2.6565, 4.90728, 2.65668, 4.90673, 2.65612, 0, 0
33, 0.00000, 4.9057, 2.6565, 4.90728, 2.65668, 4.90673, 2.65612, 0, 0
34, 0.00000, 4.9057, 2.6565, 4.90728, 2.65668, 4.90673, 2.65612, 0, 0
35, 0.00000, 4.9057, 2.6565, 4.90728, 2.65668, 4.90673, 2.65612, 0, 0
36, 0.00000, 4.9057, 2.6565, 4.90728, 2.65668, 4.90673, 2.65612, 0, 0
37, 0.00000, 4.9057, 2.6565, 4.90728, 2.65668, 4.90673, 2.65612, 0, 0
38, 0.00000, 4.9057, 2.6565, 4.90728, 2.65668, 4.90673, 2.65612, 0, 0
39, 0.00000, 4.9057, 2.6565, 4.90728, 2.65668, 4.90673, 2.65612, 0, 0
40, 0.00000, 4.9057, 2.6565, 4.90728, 2.65668, 4.90673, 2.65612, 0, 0
41, 0.00000, 4.9057, 2.6565, 4.90728, 2.65668, 4.90673, 2.65612, 0, 0
42, 0.00000, 4.9057, 2.6565, 4.90728, 2.65668, 4.90673, 2.65612, 0, 0
43, 0.00000, 4.9057, 2.6565, 4.90728, 2.65668, 4.90673, 2.65612, 0, 0
44, 0.00000, 4.9057, 2.6565, 4.90728, 2.65668, 4.90673, 2.65612, 0, 0
45, 0.00000, 4.9057, 2.6565, 4.90728, 2.65668, 4.90673, 2.65612, 0, 0
46, 0.00000, 4.9057, 2.6565, 4.90728, 2.65668, 4.90673, 2.65612, 0, 0
47, 0.00000, 4.9057, 2.6565, 4.90728, 2.65668, 4.90673, 2.65612, 0, 0
48, 0.00000, 4.9057, 2.6565, 4.90728, 2.65668, 4.90673, 2.65612, 0, 0
49, 0.00000, 5.41628, 2.89986, 5.41811, 2.90004, 5.41748, 2.8994, 0, 0
50, 0.00000, 5.4163, 2.89987, 5.41814, 2.90006, 5.41751, 2.89942, 0, 0
51, 0.00000, 5.4163, 2.89987, 5.41814, 2.90006, 5.41751, 2.89942, 0, 0
52, 0.00000, 5.4163, 2.89987, 5.41814, 2.90006, 5.41751, 2.89942, 0, 0
53, 0.00000, 5.4163, 2.89987, 5.41814, 2.90006, 5.41751, 2.89942, 0, 0
54, 0.00000, 5.4163, 2.89987, 5.41814, 2.90006, 5.41751, 2.89942, 0, 0
55, 0.00000, 5.4163, 2.89987, 5.41814, 2.90006, 5.41751, 2.89942, 0, 0
56, 0.00000, 5.4163, 2.89987, 5.41814, 2.90006, 5.41751, 2.89942, 0, 0
57, 0.00000, 5.4163, 2.89987, 5.41814, 2.90006, 5.41751, 2.89942, 0, 0
58, 0.00000, 5.4163, 2.89987, 5.41814, 2.90006, 5.41751, 2.89942, 0, 0
59, 0.00000, 5.4163, 2.89987, 5.41814, 2.90006, 5.41751, 2.89942, 0, 0
60, 0.00000, 5.4163, 2.89987, 5.41814, 2.90006, 5.41751, 2.89942, 0, 0
61, 0.00000, 5.4163, 2.89987, 5.41814, 2.90006, 5.41751, 2.89942, 0, 0
62, 0.00000, 5.4163, 2.89987, 5.41814, 2.90006, 5.41751, 2.89942, 0, 0
63, 0.00000, 5.4163, 2.89987, 5.41814, 2.90006, 5.41751, 2.89942, 0, 0
64, 0.00000, 5.4163, 2.89987, 5.41814, 2.90006, 5.41751, 2.89942, 0, 0
65, 0.00000, 5.4163, 2.89987, 5.41814, 2.90006, 5.41751, 2.89942, 0, 0
66, 0.00000, 5.4163, 2.89987, 5.41814, 2.90006, 5.41751, 2.89942, 0, 0
67, 0.00000, 5.4163, 2.89987, 5.41814, 2.90006, 5.41751, 2.89942, 0, 0
68, 0.00000, 5.4163, 2.89987, 5.41814, 2.90006, 5.41751, 2.89942, 0, 0
69, 0.00000, 5.4163, 2.89987, 5.41814, 2.90006, 5.41751, 2.89942, 0, 0
70, 0.00000, 5.4163, 2.89987, 5.41814, 2.90006, 5.41751, 2.89942, 0, 0
71, 0.00000, 5.4163, 2.89987, 5.41814, 2.90006, 5.41751, 2.89942, 0, 0
72, 0.00000, 5.4163, 2.89987, 5.41814, 2.90006, 5.41751, 2.89942, 0, 0
73, 0.00000, 7.31997, 3.81733, 7.32307, 3.81758, 7.32204, 3.81654, 0, 0
74, 0.00000, 7.32014, 3.81744, 7.32324, 3.81769, 7.32221, 3.81665, 0, 0
75, 0.00000, 7.32014, 3.81744, 7.32324, 3.81769, 7.32221, 3.81665, 0, 0
76, 0.00000, 7.32014, 3.81744, 7.32324, 3.81769, 7.32221, 3.81665, 0, 0
77, 0.00000, 7.32014, 3.81744, 7.32324, 3.81769, 7.32221, 3.81665, 0, 0
78, 0.00000, 7.32014, 3.81744, 7.32324, 3.81769, 7.32221, 3.81665, 0, 0
79, 0.00000, 7.32014, 3.81744, 7.32324, 3.81769, 7.32221, 3.81665, 0, 0
80, 0.00000, 7.32014, 3.81744, 7.32324, 3.81769, 7.32221, 3.81665, 0, 0
81, 0.00000, 7.32014, 3.81744, 7.32324, 3.81769, 7.32221, 3.81665, 0, 0
82, 0.00000, 7.32014, 3.81744, 7.32324, 3.81769, 7.32221, 3.81665, 0, 0
83, 0.00000, 7.32014, 3.81744, 7.32324, 3.81769, 7.32221, 3.81665, 0, 0
84, 0.00000, 7.32014, 3.81744, 7.32324, 3.81769, 7.32221, 3.81665, 0, 0
85, 0.00000, 7.32014, 3.81744, 7.32324, 3.81769, 7.32221, 3.81665, 0, 0
86, 0.00000, 7.32014, 3.81744, 7.32324, 3.81769, 7.32221, 3.81665, 0, 0
87, 0.00000, 7.32014, 3.81744, 7.32324, 3.81769, 7.32221, 3.81665, 0, 0
88, 0.00000, 7.32014, 3.81744, 7.32324, 3.81769, 7.32221, 3.81665, 0, 0
89, 0.00000, 7.32014, 3.81744, 7.32324, 3.81769, 7.32221, 3.81665, 0, 0
90, 0.00000, 7.32014, 3.81744, 7.32324, 3.81769, 7.32221, 3.81665, 0, 0
91, 0.00000, 7.32014, 3.81744, 7.32324, 3.81769, 7.32221, 3.81665, 0, 0
92, 0.00000, 7.32014, 3.81744, 7.32324, 3.81769, 7.32221, 3.81665, 0, 0
93, 0.00000, 7.32014, 3.81744, 7.32324, 3.81769, 7.32221, 3.81665, 0, 0
94, 0.00000, 7.32014, 3.81744, 7.32324, 3.81769, 7.32221, 3.81665, 0, 0
95, 0.00000, 7.32014, 3.81744, 7.32324, 3.81769, 7.32221, 3.81665, 0, 0
96, 0.00000, 7.32014, 3.81744, 7.32324, 3.81769, 7.32221, 3.81665, 0, 0
