hour, t(sec), P1 (kW), Q1 (kvar), P2 (kW), Q2 (kvar), P3 (kW), Q3 (kvar), P4 (kW), Q4 (kvar)
1, 0.00000, 3.36492, 2.0723, 3.36588, 2.07253, 3.3655, 2.07213, 0, 0
2, 0.00000, 3.36493, 2.0723, 3.36589, 2.07253, 3.36551, 2.07213, 0, 0
3, 0.00000, 3.36493, 2.0723, 3.36589, 2.07253, 3.36551, 2.07213, 0, 0
4, 0.00000, 3.36493, 2.0723, 3.36589, 2.07253, 3.36551, 2.07213, 0, 0
5, 0.00000, 3.36493, 2.0723, 3.36589, 2.07253, 3.36551, 2.07213, 0, 0
6, 0.00000, 3.36493, 2.0723, 3.36589, 2.07253, 3.36551, 2.07213, 0, 0
7, 0.00000, 3.36493, 2.0723, 3.36589, 2.07253, 3.36551, 2.07213, 0, 0
8, 0.00000, 3.36493, 2.0723, 3.36589, 2.07253, 3.36551, 2.07213, 0, 0
9, 0.00000, 3.36493, 2.0723, 3.36589, 2.07253, 3.36551, 2.07213, 0, 0
10, 0.00000, 3.36493, 2.0723, 3.36589, 2.07253, 3.36551, 2.07213, 0, 0
11, 0.00000, 3.36493, 2.0723, 3.36589, 2.07253, 3.36551, 2.07213, 0, 0
12, 0.00000, 3.36493, 2.0723, 3.36589, 2.07253, 3.36551, 2.07213, 0, 0
13, 0.00000, 3.36493, 2.0723, 3.36589, 2.07253, 3.36551, 2.07213, 0, 0
14, 0.00000, 3.36493, 2.0723, 3.36589, 2.07253, 3.36551, 2.07213, 0, 0
15, 0.00000, 3.36493, 2.0723, 3.36589, 2.07253, 3.36551, 2.07213, 0, 0
16, 0.00000, 3.36493, 2.0723, 3.36589, 2.07253, 3.36551, 2.07213, 0, 0
17, 0.00000, 3.36493, 2.0723, 3.36589, 2.07253, 3.36551, 2.07213, 0, 0
18, 0.00000, 3.36493, 2.0723, 3.36589, 2.07253, 3.36551, 2.07213, 0, 0
19, 0.00000, 3.36493, 2.0723, 3.36589, 2.07253, 3.36551, 2.07213, 0, 0
20, 0.00000, 3.36493, 2.0723, 3.36589, 2.07253, 3.36551, 2.07213, 0, 0
21, 0.00000, 3.36493, 2.0723, 3.36589, 2.07253, 3.36551, 2.07213, 0, 0
22, 0.00000, 3.36493, 2.0723, 3.36589, 2.07253, 3.36551, 2.07213, 0, 0
23, 0.00000, 3.36493, 2.0723, 3.36589, 2.07253, 3.36551, 2.07213, 0, 0
24, 0.00000, 3.36493, 2.0723, 3.36589, 2.07253, 3.36551, 2.07213, 0, 0
25, 0.00000, 3.46139, 2.11447, 3.46234, 2.11469, 3.46197, 2.11429, 0, 0
26, 0.00000, 3.46138, 2.11446, 3.46233, 2.11469, 3.46196, 2.11429, 0, 0
27, 0.00000, 3.46138, 2.11446, 3.46233, 2.11469, 3.46196, 2.11429, 0, 0
28, 0.00000, 3.46138, 2.11446, 3.46233, 2.11469, 3.46196, 2.11429, 0, 0
29, 0.00000, 3.46138, 2.11446, 3.46233, 2.11469, 3.46196, 2.11429, 0, 0
30, 0.00000, 3.46138, 2.11446, 3.46233, 2.11469, 3.46196, 2.11429, 0, 0
31, 0.00000, 3.46138, 2.11446, 3.46233, 2.11469, 3.46196, 2.11429, 0, 0
32, 0.00000, 3.46138, 2.11446, 3.46233, 2.11469, 3.46196, 2.11429, 0, 0
33, 0.00000, 3.46138, 2.11446, 3.46233, 2.11469, 3.46196, 2.11429, 0, 0
34, 0.00000, 3.46138, 2.11446, 3.46233, 2.11469, 3.46196, 2.11429, 0, 0
35, 0.00000, 3.46138, 2.11446, 3.46233, 2.11469, 3.46196, 2.11429, 0, 0
36, 0.00000, 3.46138, 2.11446, 3.46233, 2.11469, 3.46196, 2.11429, 0, 0
37, 0.00000, 3.46138, 2.11446, 3.46233, 2.11469, 3.46196, 2.11429, 0, 0
38, 0.00000, 3.46138, 2.11446, 3.46233, 2.11469, 3.46196, 2.11429, 0, 0
39, 0.00000, 3.46138, 2.11446, 3.46233, 2.11469, 3.46196, 2.11429, 0, 0
40, 0.00000, 3.46138, 2.11446, 3.46233, 2.11469, 3.46196, 2.11429, 0, 0
41, 0.00000, 3.46138, 2.11446, 3.46233, 2.11469, 3.46196, 2.11429, 0, 0
42, 0.00000, 3.46138, 2.11446, 3.46233, 2.11469, 3.46196, 2.11429, 0, 0
43, 0.00000, 3.46138, 2.11446, 3.46233, 2.11469, 3.46196, 2.11429, 0, 0
44, 0.00000, 3.46138, 2.11446, 3.46233, 2.11469, 3.46196, 2.11429, 0, 0
45, 0.00000, 3.46138, 2.11446, 3.46233, 2.11469, 3.46196, 2.11429, 0, 0
46, 0.00000, 3.46138, 2.11446, 3.46233, 2.11469, 3.46196, 2.11429, 0, 0
47, 0.00000, 3.46138, 2.11446, 3.46233, 2.11469, 3.46196, 2.11429, 0, 0
48, 0.00000, 3.46138, 2.11446, 3.46233, 2.11469, 3.46196, 2.11429, 0, 0
49, 0.00000, 3.60588, 2.1767, 3.60692, 2.17694, 3.60651, 2.17651, 0, 0
50, 0.00000, 3.60589, 2.17671, 3.60693, 2.17694, 3.60652, 2.17651, 0, 0
51, 0.00000, 3.60589, 2.17671, 3.60693, 2.17694, 3.60652, 2.17651, 0, 0
52, 0.00000, 3.60589, 2.17671, 3.60693, 2.17694, 3.60652, 2.17651, 0, 0
53, 0.00000, 3.60589, 2.17671, 3.60693, 2.17694, 3.60652, 2.17651, 0, 0
54, 0.00000, 3.60589, 2.17671, 3.60693, 2.17694, 3.60652, 2.17651, 0, 0
55, 0.00000, 3.60589, 2.17671, 3.60693, 2.17694, 3.60652, 2.17651, 0, 0
56, 0.00000, 3.60589, 2.17671, 3.60693, 2.17694, 3.60652, 2.17651, 0, 0
57, 0.00000, 3.60589, 2.17671, 3.60693, 2.17694, 3.60652, 2.17651, 0, 0
58, 0.00000, 3.60589, 2.17671, 3.60693, 2.17694, 3.60652, 2.17651, 0, 0
59, 0.00000, 3.60589, 2.17671, 3.60693, 2.17694, 3.60652, 2.17651, 0, 0
60, 0.00000, 3.60589, 2.17671, 3.60693, 2.17694, 3.60652, 2.17651, 0, 0
61, 0.00000, 3.60589, 2.17671, 3.60693, 2.17694, 3.60652, 2.17651, 0, 0
62, 0.00000, 3.60589, 2.17671, 3.60693, 2.17694, 3.60652, 2.17651, 0, 0
63, 0.00000, 3.60589, 2.17671, 3.60693, 2.17694, 3.60652, 2.17651, 0, 0
64, 0.00000, 3.60589, 2.17671, 3.60693, 2.17694, 3.60652, 2.17651, 0, 0
65, 0.00000, 3.60589, 2.17671, 3.60693, 2.17694, 3.60652, 2.17651, 0, 0
66, 0.00000, 3.60589, 2.17671, 3.60693, 2.17694, 3.60652, 2.17651, 0, 0
67, 0.00000, 3.60589, 2.17671, 3.60693, 2.17694, 3.60652, 2.17651, 0, 0
68, 0.00000, 3.60589, 2.17671, 3.60693, 2.17694, 3.60652, 2.17651, 0, 0
69, 0.00000, 3.60589, 2.17671, 3.60693, 2.17694, 3.60652, 2.17651, 0, 0
70, 0.00000, 3.60589, 2.17671, 3.60693, 2.17694, 3.60652, 2.17651, 0, 0
71, 0.00000, 3.60589, 2.17671, 3.60693, 2.17694, 3.60652, 2.17651, 0, 0
72, 0.00000, 3.60589, 2.17671, 3.60693, 2.17694, 3.60652, 2.17651, 0, 0
73, 0.00000, 4.90847, 2.74207, 4.91023, 2.74237, 4.90958, 2.7417, 0, 0
74, 0.00000, 4.90852, 2.7421, 4.91028, 2.7424, 4.90963, 2.74172, 0, 0
75, 0.00000, 4.90852, 2.7421, 4.91028, 2.7424, 4.90963, 2.74172, 0, 0
76, 0.00000, 4.90852, 2.7421, 4.91028, 2.7424, 4.90963, 2.74172, 0, 0
77, 0.00000, 4.90852, 2.7421, 4.91028, 2.7424, 4.90963, 2.74172, 0, 0
78, 0.00000, 4.90852, 2.7421, 4.91028, 2.7424, 4.90963, 2.74172, 0, 0
79, 0.00000, 4.90852, 2.7421, 4.91028, 2.7424, 4.90963, 2.74172, 0, 0
80, 0.00000, 4.90852, 2.7421, 4.91028, 2.7424, 4.90963, 2.74172, 0, 0
81, 0.00000, 4.90852, 2.7421, 4.91028, 2.7424, 4.90963, 2.74172, 0, 0
82, 0.00000, 4.90852, 2.7421, 4.91028, 2.7424, 4.90963, 2.74172, 0, 0
83, 0.00000, 4.90852, 2.7421, 4.91028, 2.7424, 4.90963, 2.74172, 0, 0
84, 0.00000, 4.90852, 2.7421, 4.91028, 2.7424, 4.90963, 2.74172, 0, 0
85, 0.00000, 4.90852, 2.7421, 4.91028, 2.7424, 4.90963, 2.74172, 0, 0
86, 0.00000, 4.90852, 2.7421, 4.91028, 2.7424, 4.90963, 2.74172, 0, 0
87, 0.00000, 4.90852, 2.7421, 4.91028, 2.7424, 4.90963, 2.74172, 0, 0
88, 0.00000, 4.90852, 2.7421, 4.91028, 2.7424, 4.90963, 2.74172, 0, 0
89, 0.00000, 4.90852, 2.7421, 4.91028, 2.7424, 4.90963, 2.74172, 0, 0
90, 0.00000, 4.90852, 2.7421, 4.91028, 2.7424, 4.90963, 2.74172, 0, 0
91, 0.00000, 4.90852, 2.7421, 4.91028, 2.7424, 4.90963, 2.74172, 0, 0
92, 0.00000, 4.90852, 2.7421, 4.91028, 2.7424, 4.90963, 2.74172, 0, 0
93, 0.00000, 4.90852, 2.7421, 4.91028, 2.7424, 4.90963, 2.74172, 0, 0
94, 0.00000, 4.90852, 2.7421, 4.91028, 2.7424, 4.90963, 2.74172, 0, 0
95, 0.00000, 4.90852, 2.7421, 4.91028, 2.7424, 4.90963, 2.74172, 0, 0
96, 0.00000, 4.90852, 2.7421, 4.91028, 2.7424, 4.90963, 2.74172, 0, 0
