hour, t(sec), P1 (kW), Q1 (kvar), P2 (kW), Q2 (kvar), P3 (kW), Q3 (kvar), P4 (kW), Q4 (kvar)
1, 0.00000, 4.83241, 2.95223, 4.83356, 2.9525, 4.83311, 2.95202, 0, 0
2, 0.00000, 4.83242, 2.95224, 4.83358, 2.95251, 4.83312, 2.95202, 0, 0
3, 0.00000, 4.83242, 2.95224, 4.83358, 2.95251, 4.83312, 2.95202, 0, 0
4, 0.00000, 4.83242, 2.95224, 4.83358, 2.95251, 4.83312, 2.95202, 0, 0
5, 0.00000, 4.83242, 2.95224, 4.83358, 2.95251, 4.83312, 2.95202, 0, 0
6, 0.00000, 4.83242, 2.95224, 4.83358, 2.95251, 4.83312, 2.95202, 0, 0
7, 0.00000, 4.83242, 2.95224, 4.83358, 2.95251, 4.83312, 2.95202, 0, 0
8, 0.00000, 4.83242, 2.95224, 4.83358, 2.95251, 4.83312, 2.95202, 0, 0
9, 0.00000, 4.83242, 2.95224, 4.83358, 2.95251, 4.83312, 2.95202, 0, 0
10, 0.00000, 4.83242, 2.95224, 4.83358, 2.95251, 4.83312, 2.95202, 0, 0
11, 0.00000, 4.83242, 2.95224, 4.83358, 2.95251, 4.83312, 2.95202, 0, 0
12, 0.00000, 4.83242, 2.95224, 4.83358, 2.95251, 4.83312, 2.95202, 0, 0
13, 0.00000, 4.83242, 2.95224, 4.83358, 2.95251, 4.83312, 2.95202, 0, 0
14, 0.00000, 4.83242, 2.95224, 4.83358, 2.95251, 4.83312, 2.95202, 0, 0
15, 0.00000, 4.83242, 2.95224, 4.83358, 2.95251, 4.83312, 2.95202, 0, 0
16, 0.00000, 4.83242, 2.95224, 4.83358, 2.95251, 4.83312, 2.95202, 0, 0
17, 0.00000, 4.83242, 2.95224, 4.83358, 2.95251, 4.83312, 2.95202, 0, 0
18, 0.00000, 4.83242, 2.95224, 4.83358, 2.95251, 4.83312, 2.95202, 0, 0
19, 0.00000, 4.83242, 2.95224, 4.83358, 2.95251, 4.83312, 2.95202, 0, 0
20, 0.00000, 4.83242, 2.95224, 4.83358, 2.95251, 4.83312, 2.95202, 0, 0
21, 0.00000, 4.83242, 2.95224, 4.83358, 2.95251, 4.83312, 2.95202, 0, 0
22, 0.00000, 4.83242, 2.95224, 4.83358, 2.95251, 4.83312, 2.95202, 0, 0
23, 0.00000, 4.83242, 2.95224, 4.83358, 2.95251, 4.83312, 2.95202, 0, 0
24, 0.00000, 4.83242, 2.95224, 4.83358, 2.95251, 4.83312, 2.95202, 0, 0
25, 0.00000, 5.39205, 3.19556, 5.3933, 3.19581, 5.39281, 3.19531, 0, 0
26, 0.00000, 5.39204, 3.19555, 5.39328, 3.19581, 5.3928, 3.1953, 0, 0
27, 0.00000, 5.39204, 3.19555, 5.39328, 3.19581, 5.3928, 3.1953, 0, 0
28, 0.00000, 5.39204, 3.19555, 5.39328, 3.19581, 5.3928, 3.1953, 0, 0
29, 0.00000, 5.39204, 3.19555, 5.39328, 3.19581, 5.3928, 3.1953, 0, 0
30, 0.00000, 5.39204, 3.19555, 5.39328, 3.19581, 5.3928, 3.1953, 0, 0
31, 0.00000, 5.39204, 3.19555, 5.39328, 3.19581, 5.3928, 3.1953, 0, 0
32, 0.00000, 5.39204, 3.19555, 5.39328, 3.19581, 5.3928, 3.1953, 0, 0
33, 0.00000, 5.39204, 3.19555, 5.39328, 3.19581, 5.3928, 3.1953, 0, 0
34, 0.00000, 5.39204, 3.19555, 5.39328, 3.19581, 5.3928, 3.1953, 0, 0
35, 0.00000, 5.39204, 3.19555, 5.39328, 3.19581, 5.3928, 3.1953, 0, 0
36, 0.00000, 5.39204, 3.19555, 5.39328, 3.19581, 5.3928, 3.1953, 0, 0
37, 0.00000, 5.39204, 3.19555, 5.39328, 3.19581, 5.3928, 3.1953, 0, 0
38, 0.00000, 5.39204, 3.19555, 5.39328, 3.19581, 5.3928, 3.1953, 0, 0
39, 0.00000, 5.39204, 3.19555, 5.39328, 3.19581, 5.3928, 3.1953, 0, 0
40, 0.00000, 5.39204, 3.19555, 5.39328, 3.19581, 5.3928, 3.1953, 0, 0
41, 0.00000, 5.39204, 3.19555, 5.39328, 3.19581, 5.3928, 3.1953, 0, 0
42, 0.00000, 5.39204, 3.19555, 5.39328, 3.19581, 5.3928, 3.1953, 0, 0
43, 0.00000, 5.39204, 3.19555, 5.39328, 3.19581, 5.3928, 3.1953, 0, 0
44, 0.00000, 5.39204, 3.19555, 5.39328, 3.19581, 5.3928, 3.1953, 0, 0
45, 0.00000, 5.39204, 3.19555, 5.39328, 3.19581, 5.3928, 3.1953, 0, 0
46, 0.00000, 5.39204, 3.19555, 5.39328, 3.19581, 5.3928, 3.1953, 0, 0
47, 0.00000, 5.39204, 3.19555, 5.39328, 3.19581, 5.3928, 3.1953, 0, 0
48, 0.00000, 5.39204, 3.19555, 5.39328, 3.19581, 5.3928, 3.1953, 0, 0
49, 0.00000, 6.03182, 3.47345, 6.03327, 3.47372, 6.03272, 3.47314, 0, 0
50, 0.00000, 6.03183, 3.47345, 6.03329, 3.47372, 6.03273, 3.47315, 0, 0
51, 0.00000, 6.03183, 3.47345, 6.03329, 3.47372, 6.03273, 3.47315, 0, 0
52, 0.00000, 6.03183, 3.47345, 6.03329, 3.47372, 6.03273, 3.47315, 0, 0
53, 0.00000, 6.03183, 3.47345, 6.03329, 3.47372, 6.03273, 3.47315, 0, 0
54, 0.00000, 6.03183, 3.47345, 6.03329, 3.47372, 6.03273, 3.47315, 0, 0
55, 0.00000, 6.03183, 3.47345, 6.03329, 3.47372, 6.03273, 3.47315, 0, 0
56, 0.00000, 6.03183, 3.47345, 6.03329, 3.47372, 6.03273, 3.47315, 0, 0
57, 0.00000, 6.03183, 3.47345, 6.03329, 3.47372, 6.03273, 3.47315, 0, 0
58, 0.00000, 6.03183, 3.47345, 6.03329, 3.47372, 6.03273, 3.47315, 0, 0
59, 0.00000, 6.03183, 3.47345, 6.03329, 3.47372, 6.03273, 3.47315, 0, 0
60, 0.00000, 6.03183, 3.47345, 6.03329, 3.47372, 6.03273, 3.47315, 0, 0
61, 0.00000, 6.03183, 3.47345, 6.03329, 3.47372, 6.03273, 3.47315, 0, 0
62, 0.00000, 6.03183, 3.47345, 6.03329, 3.47372, 6.03273, 3.47315, 0, 0
63, 0.00000, 6.03183, 3.47345, 6.03329, 3.47372, 6.03273, 3.47315, 0, 0
64, 0.00000, 6.03183, 3.47345, 6.03329, 3.47372, 6.03273, 3.47315, 0, 0
65, 0.00000, 6.03183, 3.47345, 6.03329, 3.47372, 6.03273, 3.47315, 0, 0
66, 0.00000, 6.03183, 3.47345, 6.03329, 3.47372, 6.03273, 3.47315, 0, 0
67, 0.00000, 6.03183, 3.47345, 6.03329, 3.47372, 6.03273, 3.47315, 0, 0
68, 0.00000, 6.03183, 3.47345, 6.03329, 3.47372, 6.03273, 3.47315, 0, 0
69, 0.00000, 6.03183, 3.47345, 6.03329, 3.47372, 6.03273, 3.47315, 0, 0
70, 0.00000, 6.03183, 3.47345, 6.03329, 3.47372, 6.03273, 3.47315, 0, 0
71, 0.00000, 6.03183, 3.47345, 6.03329, 3.47372, 6.03273, 3.47315, 0, 0
72, 0.00000, 6.03183, 3.47345, 6.03329, 3.47372, 6.03273, 3.47315, 0, 0
73, 0.00000, 8.1139, 4.38181, 8.11633, 4.38215, 8.11544, 4.38125, 0, 0
74, 0.00000, 8.11397, 4.38186, 8.1164, 4.38219, 8.11551, 4.3813, 0, 0
75, 0.00000, 8.11397, 4.38186, 8.1164, 4.38219, 8.11551, 4.3813, 0, 0
76, 0.00000, 8.11397, 4.38186, 8.1164, 4.38219, 8.11551, 4.3813, 0, 0
77, 0.00000, 8.11397, 4.38186, 8.1164, 4.38219, 8.11551, 4.3813, 0, 0
78, 0.00000, 8.11397, 4.38186, 8.1164, 4.38219, 8.11551, 4.3813, 0, 0
79, 0.00000, 8.11397, 4.38186, 8.1164, 4.38219, 8.11551, 4.3813, 0, 0
80, 0.00000, 8.11397, 4.38186, 8.1164, 4.38219, 8.11551, 4.3813, 0, 0
81, 0.00000, 8.11397, 4.38186, 8.1164, 4.38219, 8.11551, 4.3813, 0, 0
82, 0.00000, 8.11397, 4.38186, 8.1164, 4.38219, 8.11551, 4.3813, 0, 0
83, 0.00000, 8.11397, 4.38186, 8.1164, 4.38219, 8.11551, 4.3813, 0, 0
84, 0.00000, 8.11397, 4.38186, 8.1164, 4.38219, 8.11551, 4.3813, 0, 0
85, 0.00000, 8.11397, 4.38186, 8.1164, 4.38219, 8.11551, 4.3813, 0, 0
86, 0.00000, 8.11397, 4.38186, 8.1164, 4.38219, 8.11551, 4.3813, 0, 0
87, 0.00000, 8.11397, 4.38186, 8.1164, 4.38219, 8.11551, 4.3813, 0, 0
88, 0.00000, 8.11397, 4.38186, 8.1164, 4.38219, 8.11551, 4.3813, 0, 0
89, 0.00000, 8.11397, 4.38186, 8.1164, 4.38219, 8.11551, 4.3813, 0, 0
90, 0.00000, 8.11397, 4.38186, 8.1164, 4.38219, 8.11551, 4.3813, 0, 0
91, 0.00000, 8.11397, 4.38186, 8.1164, 4.38219, 8.11551, 4.3813, 0, 0
92, 0.00000, 8.11397, 4.38186, 8.1164, 4.38219, 8.11551, 4.3813, 0, 0
93, 0.00000, 8.11397, 4.38186, 8.1164, 4.38219, 8.11551, 4.3813, 0, 0
94, 0.00000, 8.11397, 4.38186, 8.1164, 4.38219, 8.11551, 4.3813, 0, 0
95, 0.00000, 8.11397, 4.38186, 8.1164, 4.38219, 8.11551, 4.3813, 0, 0
96, 0.00000, 8.11397, 4.38186, 8.1164, 4.38219, 8.11551, 4.3813, 0, 0
