hour, t(sec), P1 (kW), Q1 (kvar), P2 (kW), Q2 (kvar), P3 (kW), Q3 (kvar), P4 (kW), Q4 (kvar)
1, 0.00000, 2.62673, 1.74947, 2.62778, 1.7498, 2.62735, 1.74933, 0, 0
2, 0.00000, 2.62674, 1.74948, 2.62779, 1.74981, 2.62736, 1.74933, 0, 0
3, 0.00000, 2.62674, 1.74948, 2.62779, 1.74981, 2.62736, 1.74933, 0, 0
4, 0.00000, 2.62674, 1.74948, 2.62779, 1.74981, 2.62736, 1.74933, 0, 0
5, 0.00000, 2.62674, 1.74948, 2.62779, 1.74981, 2.62736, 1.74933, 0, 0
6, 0.00000, 2.62674, 1.74948, 2.62779, 1.74981, 2.62736, 1.74933, 0, 0
7, 0.00000, 2.62674, 1.74948, 2.62779, 1.74981, 2.62736, 1.74933, 0, 0
8, 0.00000, 2.62674, 1.74948, 2.62779, 1.74981, 2.62736, 1.74933, 0, 0
9, 0.00000, 2.62674, 1.74948, 2.62779, 1.74981, 2.62736, 1.74933, 0, 0
10, 0.00000, 2.62674, 1.74948, 2.62779, 1.74981, 2.62736, 1.74933, 0, 0
11, 0.00000, 2.62674, 1.74948, 2.62779, 1.74981, 2.62736, 1.74933, 0, 0
12, 0.00000, 2.62674, 1.74948, 2.62779, 1.74981, 2.62736, 1.74933, 0, 0
13, 0.00000, 2.62674, 1.74948, 2.62779, 1.74981, 2.62736, 1.74933, 0, 0
14, 0.00000, 2.62674, 1.74948, 2.62779, 1.74981, 2.62736, 1.74933, 0, 0
15, 0.00000, 2.62674, 1.74948, 2.62779, 1.74981, 2.62736, 1.74933, 0, 0
16, 0.00000, 2.62674, 1.74948, 2.62779, 1.74981, 2.62736, 1.74933, 0, 0
17, 0.00000, 2.62674, 1.74948, 2.62779, 1.74981, 2.62736, 1.74933, 0, 0
18, 0.00000, 2.62674, 1.74948, 2.62779, 1.74981, 2.62736, 1.74933, 0, 0
19, 0.00000, 2.62674, 1.74948, 2.62779, 1.74981, 2.62736, 1.74933, 0, 0
20, 0.00000, 2.62674, 1.74948, 2.62779, 1.74981, 2.62736, 1.74933, 0, 0
21, 0.00000, 2.62674, 1.74948, 2.62779, 1.74981, 2.62736, 1.74933, 0, 0
22, 0.00000, 2.62674, 1.74948, 2.62779, 1.74981, 2.62736, 1.74933, 0, 0
23, 0.00000, 2.62674, 1.74948, 2.62779, 1.74981, 2.62736, 1.74933, 0, 0
24, 0.00000, 2.62674, 1.74948, 2.62779, 1.74981, 2.62736, 1.74933, 0, 0
25, 0.00000, 3.33156, 2.05499, 3.33283, 2.0553, 3.33233, 2.05477, 0, 0
26, 0.00000, 3.33155, 2.05499, 3.33281, 2.0553, 3.33232, 2.05476, 0, 0
27, 0.00000, 3.33155, 2.05499, 3.33281, 2.0553, 3.33232, 2.05476, 0, 0
28, 0.00000, 3.33155, 2.05499, 3.33281, 2.0553, 3.33232, 2.05476, 0, 0
29, 0.00000, 3.33155, 2.05499, 3.33281, 2.0553, 3.33232, 2.05476, 0, 0
30, 0.00000, 3.33155, 2.05499, 3.33281, 2.0553, 3.33232, 2.05476, 0, 0
31, 0.00000, 3.33155, 2.05499, 3.33281, 2.0553, 3.33232, 2.05476, 0, 0
32, 0.00000, 3.33155, 2.05499, 3.33281, 2.0553, 3.33232, 2.05476, 0, 0
33, 0.00000, 3.33155, 2.05499, 3.33281, 2.0553, 3.33232, 2.05476, 0, 0
34, 0.00000, 3.33155, 2.05499, 3.33281, 2.0553, 3.33232, 2.05476, 0, 0
35, 0.00000, 3.33155, 2.05499, 3.33281, 2.0553, 3.33232, 2.05476, 0, 0
36, 0.00000, 3.33155, 2.05499, 3.33281, 2.0553, 3.33232, 2.05476, 0, 0
37, 0.00000, 3.33155, 2.05499, 3.33281, 2.0553, 3.33232, 2.05476, 0, 0
38, 0.00000, 3.33155, 2.05499, 3.33281, 2.0553, 3.33232, 2.05476, 0, 0
39, 0.00000, 3.33155, 2.05499, 3.33281, 2.0553, 3.33232, 2.05476, 0, 0
40, 0.00000, 3.33155, 2.05499, 3.33281, 2.0553, 3.33232, 2.05476, 0, 0
41, 0.00000, 3.33155, 2.05499, 3.33281, 2.0553, 3.33232, 2.05476, 0, 0
42, 0.00000, 3.33155, 2.05499, 3.33281, 2.0553, 3.33232, 2.05476, 0, 0
43, 0.00000, 3.33155, 2.05499, 3.33281, 2.0553, 3.33232, 2.05476, 0, 0
44, 0.00000, 3.33155, 2.05499, 3.33281, 2.0553, 3.33232, 2.05476, 0, 0
45, 0.00000, 3.33155, 2.05499, 3.33281, 2.0553, 3.33232, 2.05476, 0, 0
46, 0.00000, 3.33155, 2.05499, 3.33281, 2.0553, 3.33232, 2.05476, 0, 0
47, 0.00000, 3.33155, 2.05499, 3.33281, 2.0553, 3.33232, 2.05476, 0, 0
48, 0.00000, 3.33155, 2.05499, 3.33281, 2.0553, 3.33232, 2.05476, 0, 0
49, 0.00000, 3.75467, 2.2381, 3.75615, 2.23843, 3.75558, 2.23782, 0, 0
50, 0.00000, 3.75468, 2.23811, 3.75617, 2.23843, 3.75559, 2.23783, 0, 0
51, 0.00000, 3.75468, 2.23811, 3.75617, 2.23843, 3.75559, 2.23783, 0, 0
52, 0.00000, 3.75468, 2.23811, 3.75617, 2.23843, 3.75559, 2.23783, 0, 0
53, 0.00000, 3.75468, 2.23811, 3.75617, 2.23843, 3.75559, 2.23783, 0, 0
54, 0.00000, 3.75468, 2.23811, 3.75617, 2.23843, 3.75559, 2.23783, 0, 0
55, 0.00000, 3.75468, 2.23811, 3.75617, 2.23843, 3.75559, 2.23783, 0, 0
56, 0.00000, 3.75468, 2.23811, 3.75617, 2.23843, 3.75559, 2.23783, 0, 0
57, 0.00000, 3.75468, 2.23811, 3.75617, 2.23843, 3.75559, 2.23783, 0, 0
58, 0.00000, 3.75468, 2.23811, 3.75617, 2.23843, 3.75559, 2.23783, 0, 0
59, 0.00000, 3.75468, 2.23811, 3.75617, 2.23843, 3.75559, 2.23783, 0, 0
60, 0.00000, 3.75468, 2.23811, 3.75617, 2.23843, 3.75559, 2.23783, 0, 0
61, 0.00000, 3.75468, 2.23811, 3.75617, 2.23843, 3.75559, 2.23783, 0, 0
62, 0.00000, 3.75468, 2.23811, 3.75617, 2.23843, 3.75559, 2.23783, 0, 0
63, 0.00000, 3.75468, 2.23811, 3.75617, 2.23843, 3.75559, 2.23783, 0, 0
64, 0.00000, 3.75468, 2.23811, 3.75617, 2.23843, 3.75559, 2.23783, 0, 0
65, 0.00000, 3.75468, 2.23811, 3.75617, 2.23843, 3.75559, 2.23783, 0, 0
66, 0.00000, 3.75468, 2.23811, 3.75617, 2.23843, 3.75559, 2.23783, 0, 0
67, 0.00000, 3.75468, 2.23811, 3.75617, 2.23843, 3.75559, 2.23783, 0, 0
68, 0.00000, 3.75468, 2.23811, 3.75617, 2.23843, 3.75559, 2.23783, 0, 0
69, 0.00000, 3.75468, 2.23811, 3.75617, 2.23843, 3.75559, 2.23783, 0, 0
70, 0.00000, 3.75468, 2.23811, 3.75617, 2.23843, 3.75559, 2.23783, 0, 0
71, 0.00000, 3.75468, 2.23811, 3.75617, 2.23843, 3.75559, 2.23783, 0, 0
72, 0.00000, 3.75468, 2.23811, 3.75617, 2.23843, 3.75559, 2.23783, 0, 0
73, 0.00000, 4.78992, 2.6863, 4.79227, 2.6867, 4.79139, 2.6858, 0, 0
74, 0.00000, 4.78997, 2.68633, 4.79232, 2.68673, 4.79144, 2.68583, 0, 0
75, 0.00000, 4.78997, 2.68633, 4.79232, 2.68673, 4.79144, 2.68583, 0, 0
76, 0.00000, 4.78997, 2.68633, 4.79232, 2.68673, 4.79144, 2.68583, 0, 0
77, 0.00000, 4.78997, 2.68633, 4.79232, 2.68673, 4.79144, 2.68583, 0, 0
78, 0.00000, 4.78997, 2.68633, 4.79232, 2.68673, 4.79144, 2.68583, 0, 0
79, 0.00000, 4.78997, 2.68633, 4.79232, 2.68673, 4.79144, 2.68583, 0, 0
80, 0.00000, 4.78997, 2.68633, 4.79232, 2.68673, 4.79144, 2.68583, 0, 0
81, 0.00000, 4.78997, 2.68633, 4.79232, 2.68673, 4.79144, 2.68583, 0, 0
82, 0.00000, 4.78997, 2.68633, 4.79232, 2.68673, 4.79144, 2.68583, 0, 0
83, 0.00000, 4.78997, 2.68633, 4.79232, 2.68673, 4.79144, 2.68583, 0, 0
84, 0.00000, 4.78997, 2.68633, 4.79232, 2.68673, 4.79144, 2.68583, 0, 0
85, 0.00000, 4.78997, 2.68633, 4.79232, 2.68673, 4.79144, 2.68583, 0, 0
86, 0.00000, 4.78997, 2.68633, 4.79232, 2.68673, 4.79144, 2.68583, 0, 0
87, 0.00000, 4.78997, 2.68633, 4.79232, 2.68673, 4.79144, 2.68583, 0, 0
88, 0.00000, 4.78997, 2.68633, 4.79232, 2.68673, 4.79144, 2.68583, 0, 0
89, 0.00000, 4.78997, 2.68633, 4.79232, 2.68673, 4.79144, 2.68583, 0, 0
90, 0.00000, 4.78997, 2.68633, 4.79232, 2.68673, 4.79144, 2.68583, 0, 0
91, 0.00000, 4.78997, 2.68633, 4.79232, 2.68673, 4.79144, 2.68583, 0, 0
92, 0.00000, 4.78997, 2.68633, 4.79232, 2.68673, 4.79144, 2.68583, 0, 0
93, 0.00000, 4.78997, 2.68633, 4.79232, 2.68673, 4.79144, 2.68583, 0, 0
94, 0.00000, 4.78997, 2.68633, 4.79232, 2.68673, 4.79144, 2.68583, 0, 0
95, 0.00000, 4.78997, 2.68633, 4.79232, 2.68673, 4.79144, 2.68583, 0, 0
96, 0.00000, 4.78997, 2.68633, 4.79232, 2.68673, 4.79144, 2.68583, 0, 0
