hour, t(sec), P1 (kW), Q1 (kvar), P2 (kW), Q2 (kvar), P3 (kW), Q3 (kvar), P4 (kW), Q4 (kvar)
1, 0.00000, 4.41699, 3.36735, 4.41799, 3.36778, 4.41755, 3.36727, 0, 0
2, 0.00000, 4.417, 3.36735, 4.418, 3.36779, 4.41756, 3.36727, 0, 0
3, 0.00000, 4.417, 3.36735, 4.418, 3.36779, 4.41756, 3.36727, 0, 0
4, 0.00000, 4.417, 3.36735, 4.418, 3.36779, 4.41756, 3.36727, 0, 0
5, 0.00000, 4.417, 3.36735, 4.418, 3.36779, 4.41756, 3.36727, 0, 0
6, 0.00000, 4.417, 3.36735, 4.418, 3.36779, 4.41756, 3.36727, 0, 0
7, 0.00000, 4.417, 3.36735, 4.418, 3.36779, 4.41756, 3.36727, 0, 0
8, 0.00000, 4.417, 3.36735, 4.418, 3.36779, 4.41756, 3.36727, 0, 0
9, 0.00000, 4.417, 3.36735, 4.418, 3.36779, 4.41756, 3.36727, 0, 0
10, 0.00000, 4.417, 3.36735, 4.418, 3.36779, 4.41756, 3.36727, 0, 0
11, 0.00000, 4.417, 3.36735, 4.418, 3.36779, 4.41756, 3.36727, 0, 0
12, 0.00000, 4.417, 3.36735, 4.418, 3.36779, 4.41756, 3.36727, 0, 0
13, 0.00000, 4.417, 3.36735, 4.418, 3.36779, 4.41756, 3.36727, 0, 0
14, 0.00000, 4.417, 3.36735, 4.418, 3.36779, 4.41756, 3.36727, 0, 0
15, 0.00000, 4.417, 3.36735, 4.418, 3.36779, 4.41756, 3.36727, 0, 0
16, 0.00000, 4.417, 3.36735, 4.418, 3.36779, 4.41756, 3.36727, 0, 0
17, 0.00000, 4.417, 3.36735, 4.418, 3.36779, 4.41756, 3.36727, 0, 0
18, 0.00000, 4.417, 3.36735, 4.418, 3.36779, 4.41756, 3.36727, 0, 0
19, 0.00000, 4.417, 3.36735, 4.418, 3.36779, 4.41756, 3.36727, 0, 0
20, 0.00000, 4.417, 3.36735, 4.418, 3.36779, 4.41756, 3.36727, 0, 0
21, 0.00000, 4.417, 3.36735, 4.418, 3.36779, 4.41756, 3.36727, 0, 0
22, 0.00000, 4.417, 3.36735, 4.418, 3.36779, 4.41756, 3.36727, 0, 0
23, 0.00000, 2.7484, 3.36161, 2.74909, 3.36214, 2.7488, 3.36168, 0, 0
24, 0.00000, 1.08091, 3.35974, 1.0813, 3.36034, 1.08114, 3.35995, 0, 0
25, 0.00000, 1.00018, 3.42246, 1.00053, 3.42296, 1.00039, 3.42261, 0, 0
26, 0.00000, 1.00025, 3.42302, 1.00059, 3.4235, 1.00046, 3.42316, 0, 0
27, 0.00000, 1.00046, 3.4245, 1.00078, 3.42489, 1.00065, 3.42458, 0, 0
28, 0.00000, 1.00052, 3.42489, 1.00083, 3.42526, 1.0007, 3.42496, 0, 0
29, 0.00000, 1.00055, 3.42512, 1.00086, 3.42547, 1.00073, 3.42517, 0, 0
30, 0.00000, 1.00058, 3.42533, 1.00088, 3.42567, 1.00076, 3.42538, 0, 0
31, 0.00000, 1.00059, 3.42541, 1.00089, 3.42574, 1.00077, 3.42545, 0, 0
32, 0.00000, 1.00061, 3.42559, 1.00091, 3.42591, 1.00079, 3.42563, 0, 0
33, 0.00000, 1.00061, 3.42551, 1.00091, 3.42584, 1.00078, 3.42555, 0, 0
34, 0.00000, 1.00062, 3.42559, 1.00092, 3.42591, 1.00079, 3.42563, 0, 0
35, 0.00000, 1.00056, 3.4252, 1.00087, 3.42555, 1.00074, 3.42526, 0, 0
36, 0.00000, 1.00058, 3.4253, 1.00088, 3.42564, 1.00075, 3.42535, 0, 0
37, 0.00000, 1.00062, 3.42559, 1.00092, 3.42591, 1.00079, 3.42563, 0, 0
38, 0.00000, 1.00062, 3.42559, 1.00092, 3.42591, 1.00079, 3.42563, 0, 0
39, 0.00000, 1.00062, 3.42559, 1.00092, 3.42591, 1.00079, 3.42563, 0, 0
40, 0.00000, 1.00062, 3.42559, 1.00092, 3.42591, 1.00079, 3.42563, 0, 0
41, 0.00000, 1.00062, 3.42559, 1.00092, 3.42591, 1.00079, 3.42563, 0, 0
42, 0.00000, 1.00062, 3.42559, 1.00092, 3.42591, 1.00079, 3.42563, 0, 0
43, 0.00000, 1.00062, 3.42559, 1.00092, 3.42591, 1.00079, 3.42563, 0, 0
44, 0.00000, 1.00062, 3.42559, 1.00092, 3.42591, 1.00079, 3.42563, 0, 0
45, 0.00000, 1.00062, 3.42559, 1.00092, 3.42591, 1.00079, 3.42563, 0, 0
46, 0.00000, 1.00062, 3.42559, 1.00092, 3.42591, 1.00079, 3.42563, 0, 0
47, 0.00000, 1.00062, 3.42559, 1.00092, 3.42591, 1.00079, 3.42563, 0, 0
48, 0.00000, 1.00062, 3.42559, 1.00092, 3.42591, 1.00079, 3.42563, 0, 0
49, 0.00000, 1.42761, 3.60722, 1.42798, 3.60757, 1.42783, 3.60725, 0, 0
50, 0.00000, 1.42761, 3.60722, 1.42798, 3.60757, 1.42783, 3.60725, 0, 0
51, 0.00000, 1.42761, 3.60722, 1.42798, 3.60757, 1.42783, 3.60725, 0, 0
52, 0.00000, 1.42761, 3.60722, 1.42798, 3.60757, 1.42783, 3.60725, 0, 0
53, 0.00000, 1.42761, 3.60722, 1.42798, 3.60757, 1.42783, 3.60725, 0, 0
54, 0.00000, 1.42761, 3.60722, 1.42798, 3.60757, 1.42783, 3.60725, 0, 0
55, 0.00000, 1.42761, 3.60722, 1.42798, 3.60757, 1.42783, 3.60725, 0, 0
56, 0.00000, 1.42761, 3.60722, 1.42798, 3.60757, 1.42783, 3.60725, 0, 0
57, 0.00000, 1.42761, 3.60722, 1.42798, 3.60757, 1.42783, 3.60725, 0, 0
58, 0.00000, 1.42761, 3.60722, 1.42798, 3.60757, 1.42783, 3.60725, 0, 0
59, 0.00000, 1.42761, 3.60722, 1.42798, 3.60757, 1.42783, 3.60725, 0, 0
60, 0.00000, 1.42761, 3.60722, 1.42798, 3.60757, 1.42783, 3.60725, 0, 0
61, 0.00000, 1.42761, 3.60722, 1.42798, 3.60757, 1.42783, 3.60725, 0, 0
62, 0.00000, 1.42761, 3.60722, 1.42798, 3.60757, 1.42783, 3.60725, 0, 0
63, 0.00000, 1.42761, 3.60722, 1.42798, 3.60757, 1.42783, 3.60725, 0, 0
64, 0.00000, 1.42761, 3.60722, 1.42798, 3.60757, 1.42783, 3.60725, 0, 0
65, 0.00000, 1.42761, 3.60722, 1.42798, 3.60757, 1.42783, 3.60725, 0, 0
66, 0.00000, 1.42761, 3.6072, 1.42798, 3.60754, 1.42783, 3.60723, 0, 0
67, 0.00000, 1.42757, 3.60694, 1.42795, 3.6073, 1.42779, 3.60698, 0, 0
68, 0.00000, 1.42751, 3.60653, 1.4279, 3.60691, 1.42774, 3.60658, 0, 0
69, 0.00000, 1.42729, 3.60504, 1.42771, 3.60551, 1.42754, 3.60514, 0, 0
70, 0.00000, 3.31817, 3.60585, 3.31899, 3.60639, 3.31865, 3.60589, 0, 0
71, 0.00000, 4.98718, 3.61277, 4.98832, 3.61321, 4.98784, 3.61265, 0, 0
72, 0.00000, 4.98718, 3.61277, 4.98832, 3.61321, 4.98784, 3.61265, 0, 0
73, 0.00000, 7.34013, 4.62674, 7.34219, 4.62729, 7.34138, 4.6264, 0, 0
74, 0.00000, 7.34018, 4.62677, 7.34224, 4.62732, 7.34142, 4.62643, 0, 0
75, 0.00000, 7.34018, 4.62677, 7.34224, 4.62732, 7.34142, 4.62643, 0, 0
76, 0.00000, 7.34018, 4.62677, 7.34224, 4.62732, 7.34142, 4.62643, 0, 0
77, 0.00000, 7.34018, 4.62677, 7.34224, 4.62732, 7.34142, 4.62643, 0, 0
78, 0.00000, 7.34018, 4.62677, 7.34224, 4.62732, 7.34142, 4.62643, 0, 0
79, 0.00000, 7.34018, 4.62677, 7.34224, 4.62732, 7.34142, 4.62643, 0, 0
80, 0.00000, 7.34018, 4.62677, 7.34224, 4.62732, 7.34142, 4.62643, 0, 0
81, 0.00000, 7.34018, 4.62677, 7.34224, 4.62732, 7.34142, 4.62643, 0, 0
82, 0.00000, 7.34018, 4.62677, 7.34224, 4.62732, 7.34142, 4.62643, 0, 0
83, 0.00000, 7.34018, 4.62677, 7.34224, 4.62732, 7.34142, 4.62643, 0, 0
84, 0.00000, 7.34018, 4.62677, 7.34224, 4.62732, 7.34142, 4.62643, 0, 0
85, 0.00000, 7.34018, 4.62677, 7.34224, 4.62732, 7.34142, 4.62643, 0, 0
86, 0.00000, 7.34018, 4.62677, 7.34224, 4.62732, 7.34142, 4.62643, 0, 0
87, 0.00000, 7.34018, 4.62677, 7.34224, 4.62732, 7.34142, 4.62643, 0, 0
88, 0.00000, 7.34018, 4.62677, 7.34224, 4.62732, 7.34142, 4.62643, 0, 0
89, 0.00000, 7.34018, 4.62677, 7.34224, 4.62732, 7.34142, 4.62643, 0, 0
90, 0.00000, 7.34018, 4.62677, 7.34224, 4.62732, 7.34142, 4.62643, 0, 0
91, 0.00000, 7.34018, 4.62677, 7.34224, 4.62732, 7.34142, 4.62643, 0, 0
92, 0.00000, 7.34018, 4.62677, 7.34224, 4.62732, 7.34142, 4.62643, 0, 0
93, 0.00000, 7.34018, 4.62677, 7.34224, 4.62732, 7.34142, 4.62643, 0, 0
94, 0.00000, 7.34018, 4.62677, 7.34224, 4.62732, 7.34142, 4.62643, 0, 0
95, 0.00000, 7.34018, 4.62677, 7.34224, 4.62732, 7.34142, 4.62643, 0, 0
96, 0.00000, 7.34018, 4.62677, 7.34224, 4.62732, 7.34142, 4.62643, 0, 0
