hour, t(sec), P1 (kW), Q1 (kvar), P2 (kW), Q2 (kvar), P3 (kW), Q3 (kvar), P4 (kW), Q4 (kvar)
1, 0.00000, 2.90946, 1.95666, 2.91047, 1.95697, 2.91007, 1.95652, 0, 0
2, 0.00000, 2.90947, 1.95667, 2.91048, 1.95697, 2.91008, 1.95652, 0, 0
3, 0.00000, 2.90947, 1.95667, 2.91048, 1.95697, 2.91008, 1.95652, 0, 0
4, 0.00000, 2.90947, 1.95667, 2.91048, 1.95697, 2.91008, 1.95652, 0, 0
5, 0.00000, 2.90947, 1.95667, 2.91048, 1.95697, 2.91008, 1.95652, 0, 0
6, 0.00000, 2.90947, 1.95667, 2.91048, 1.95697, 2.91008, 1.95652, 0, 0
7, 0.00000, 2.90947, 1.95667, 2.91048, 1.95697, 2.91008, 1.95652, 0, 0
8, 0.00000, 2.90947, 1.95667, 2.91048, 1.95697, 2.91008, 1.95652, 0, 0
9, 0.00000, 2.90947, 1.95667, 2.91048, 1.95697, 2.91008, 1.95652, 0, 0
10, 0.00000, 2.90947, 1.95667, 2.91048, 1.95697, 2.91008, 1.95652, 0, 0
11, 0.00000, 2.90947, 1.95667, 2.91048, 1.95697, 2.91008, 1.95652, 0, 0
12, 0.00000, 2.90947, 1.95667, 2.91048, 1.95697, 2.91008, 1.95652, 0, 0
13, 0.00000, 2.90947, 1.95667, 2.91048, 1.95697, 2.91008, 1.95652, 0, 0
14, 0.00000, 2.90947, 1.95667, 2.91048, 1.95697, 2.91008, 1.95652, 0, 0
15, 0.00000, 2.90947, 1.95667, 2.91048, 1.95697, 2.91008, 1.95652, 0, 0
16, 0.00000, 2.90947, 1.95667, 2.91048, 1.95697, 2.91008, 1.95652, 0, 0
17, 0.00000, 2.90947, 1.95667, 2.91048, 1.95697, 2.91008, 1.95652, 0, 0
18, 0.00000, 2.90947, 1.95667, 2.91048, 1.95697, 2.91008, 1.95652, 0, 0
19, 0.00000, 2.90947, 1.95667, 2.91048, 1.95697, 2.91008, 1.95652, 0, 0
20, 0.00000, 2.90947, 1.95667, 2.91048, 1.95697, 2.91008, 1.95652, 0, 0
21, 0.00000, 2.90947, 1.95667, 2.91048, 1.95697, 2.91008, 1.95652, 0, 0
22, 0.00000, 2.90947, 1.95667, 2.91048, 1.95697, 2.91008, 1.95652, 0, 0
23, 0.00000, 1.23815, 1.94874, 1.23869, 1.94922, 1.2385, 1.94885, 0, 0
24, 0.00000, 0.307401, 1.94831, 0.307692, 1.94885, 0.307621, 1.94853, 0, 0
25, 0.00000, 0.932047, 2.23536, 0.932475, 2.23579, 0.932346, 2.23547, 0, 0
26, 0.00000, 0.932098, 2.23573, 0.932514, 2.23613, 0.932386, 2.23582, 0, 0
27, 0.00000, 0.932265, 2.2368, 0.93265, 2.23712, 0.932524, 2.23684, 0, 0
28, 0.00000, 0.932307, 2.23707, 0.932683, 2.23737, 0.932558, 2.2371, 0, 0
29, 0.00000, 0.93233, 2.23722, 0.932702, 2.2375, 0.932576, 2.23724, 0, 0
30, 0.00000, 0.932353, 2.23737, 0.93272, 2.23764, 0.932595, 2.23739, 0, 0
31, 0.00000, 0.932363, 2.23743, 0.932729, 2.2377, 0.932604, 2.23745, 0, 0
32, 0.00000, 0.932385, 2.23758, 0.932746, 2.23784, 0.932621, 2.23759, 0, 0
33, 0.00000, 0.932378, 2.23752, 0.932741, 2.23778, 0.932617, 2.23753, 0, 0
34, 0.00000, 0.932386, 2.23758, 0.932747, 2.23784, 0.932623, 2.23759, 0, 0
35, 0.00000, 0.93234, 2.23728, 0.93271, 2.23756, 0.932585, 2.2373, 0, 0
36, 0.00000, 0.93235, 2.23735, 0.932718, 2.23762, 0.932593, 2.23737, 0, 0
37, 0.00000, 0.932387, 2.23758, 0.932748, 2.23784, 0.932624, 2.23759, 0, 0
38, 0.00000, 0.932387, 2.23758, 0.932748, 2.23784, 0.932624, 2.23759, 0, 0
39, 0.00000, 0.932387, 2.23758, 0.932748, 2.23784, 0.932624, 2.23759, 0, 0
40, 0.00000, 0.932387, 2.23758, 0.932748, 2.23784, 0.932624, 2.23759, 0, 0
41, 0.00000, 0.932387, 2.23758, 0.932748, 2.23784, 0.932624, 2.23759, 0, 0
42, 0.00000, 0.932387, 2.23758, 0.932748, 2.23784, 0.932624, 2.23759, 0, 0
43, 0.00000, 0.932387, 2.23758, 0.932748, 2.23784, 0.932624, 2.23759, 0, 0
44, 0.00000, 0.932387, 2.23758, 0.932748, 2.23784, 0.932624, 2.23759, 0, 0
45, 0.00000, 0.932387, 2.23758, 0.932748, 2.23784, 0.932624, 2.23759, 0, 0
46, 0.00000, 0.932387, 2.23758, 0.932748, 2.23784, 0.932624, 2.23759, 0, 0
47, 0.00000, 0.932387, 2.23758, 0.932748, 2.23784, 0.932624, 2.23759, 0, 0
48, 0.00000, 0.932387, 2.23758, 0.932748, 2.23784, 0.932624, 2.23759, 0, 0
49, 0.00000, 1.24477, 2.38025, 1.24522, 2.38052, 1.24506, 2.38024, 0, 0
50, 0.00000, 1.24477, 2.38025, 1.24522, 2.38052, 1.24506, 2.38024, 0, 0
51, 0.00000, 1.24477, 2.38025, 1.24522, 2.38052, 1.24506, 2.38024, 0, 0
52, 0.00000, 1.24477, 2.38025, 1.24522, 2.38052, 1.24506, 2.38024, 0, 0
53, 0.00000, 1.24477, 2.38025, 1.24522, 2.38052, 1.24506, 2.38024, 0, 0
54, 0.00000, 1.24477, 2.38025, 1.24522, 2.38052, 1.24506, 2.38024, 0, 0
55, 0.00000, 1.24477, 2.38025, 1.24522, 2.38052, 1.24506, 2.38024, 0, 0
56, 0.00000, 1.24477, 2.38025, 1.24522, 2.38052, 1.24506, 2.38024, 0, 0
57, 0.00000, 1.24477, 2.38025, 1.24522, 2.38052, 1.24506, 2.38024, 0, 0
58, 0.00000, 1.24477, 2.38025, 1.24522, 2.38052, 1.24506, 2.38024, 0, 0
59, 0.00000, 1.24477, 2.38025, 1.24522, 2.38052, 1.24506, 2.38024, 0, 0
60, 0.00000, 1.24477, 2.38025, 1.24522, 2.38052, 1.24506, 2.38024, 0, 0
61, 0.00000, 1.24477, 2.38025, 1.24522, 2.38052, 1.24506, 2.38024, 0, 0
62, 0.00000, 1.24477, 2.38025, 1.24522, 2.38052, 1.24506, 2.38024, 0, 0
63, 0.00000, 1.24477, 2.38025, 1.24522, 2.38052, 1.24506, 2.38024, 0, 0
64, 0.00000, 1.24477, 2.38025, 1.24522, 2.38052, 1.24506, 2.38024, 0, 0
65, 0.00000, 1.24477, 2.38025, 1.24522, 2.38052, 1.24506, 2.38024, 0, 0
66, 0.00000, 1.24477, 2.38023, 1.24522, 2.3805, 1.24506, 2.38022, 0, 0
67, 0.00000, 1.24473, 2.38002, 1.24519, 2.38031, 1.24503, 2.38002, 0, 0
68, 0.00000, 1.24469, 2.37974, 1.24516, 2.38005, 1.245, 2.37975, 0, 0
69, 0.00000, 1.24451, 2.37867, 1.24502, 2.37906, 1.24486, 2.37872, 0, 0
70, 0.00000, 2.17624, 2.37988, 2.17709, 2.38037, 2.17681, 2.3799, 0, 0
71, 0.00000, 3.85001, 2.39234, 3.85135, 2.39265, 3.85084, 2.3921, 0, 0
72, 0.00000, 3.85002, 2.39234, 3.85135, 2.39265, 3.85085, 2.3921, 0, 0
73, 0.00000, 5.31572, 3.07324, 5.318, 3.07364, 5.31718, 3.07277, 0, 0
74, 0.00000, 5.31577, 3.07327, 5.31806, 3.07367, 5.31723, 3.0728, 0, 0
75, 0.00000, 5.31577, 3.07327, 5.31806, 3.07367, 5.31723, 3.0728, 0, 0
76, 0.00000, 5.31577, 3.07327, 5.31806, 3.07367, 5.31723, 3.0728, 0, 0
77, 0.00000, 5.31577, 3.07327, 5.31806, 3.07367, 5.31723, 3.0728, 0, 0
78, 0.00000, 5.31577, 3.07327, 5.31806, 3.07367, 5.31723, 3.0728, 0, 0
79, 0.00000, 5.31577, 3.07327, 5.31806, 3.07367, 5.31723, 3.0728, 0, 0
80, 0.00000, 5.31577, 3.07327, 5.31806, 3.07367, 5.31723, 3.0728, 0, 0
81, 0.00000, 5.31577, 3.07327, 5.31806, 3.07367, 5.31723, 3.0728, 0, 0
82, 0.00000, 5.31577, 3.07327, 5.31806, 3.07367, 5.31723, 3.0728, 0, 0
83, 0.00000, 5.31577, 3.07327, 5.31806, 3.07367, 5.31723, 3.0728, 0, 0
84, 0.00000, 5.31577, 3.07327, 5.31806, 3.07367, 5.31723, 3.0728, 0, 0
85, 0.00000, 5.31577, 3.07327, 5.31806, 3.07367, 5.31723, 3.0728, 0, 0
86, 0.00000, 5.31577, 3.07327, 5.31806, 3.07367, 5.31723, 3.0728, 0, 0
87, 0.00000, 5.31577, 3.07327, 5.31806, 3.07367, 5.31723, 3.0728, 0, 0
88, 0.00000, 5.31577, 3.07327, 5.31806, 3.07367, 5.31723, 3.0728, 0, 0
89, 0.00000, 5.31577, 3.07327, 5.31806, 3.07367, 5.31723, 3.0728, 0, 0
90, 0.00000, 5.31577, 3.07327, 5.31806, 3.07367, 5.31723, 3.0728, 0, 0
91, 0.00000, 5.31577, 3.07327, 5.31806, 3.07367, 5.31723, 3.0728, 0, 0
92, 0.00000, 5.31577, 3.07327, 5.31806, 3.07367, 5.31723, 3.0728, 0, 0
93, 0.00000, 5.31577, 3.07327, 5.31806, 3.07367, 5.31723, 3.0728, 0, 0
94, 0.00000, 5.31577, 3.07327, 5.31806, 3.07367, 5.31723, 3.0728, 0, 0
95, 0.00000, 5.31577, 3.07327, 5.31806, 3.07367, 5.31723, 3.0728, 0, 0
96, 0.00000, 5.31577, 3.07327, 5.31806, 3.07367, 5.31723, 3.0728, 0, 0
