hour, t(sec), P1 (kW), Q1 (kvar), P2 (kW), Q2 (kvar), P3 (kW), Q3 (kvar), P4 (kW), Q4 (kvar)
1, 0.00000, 0.159565, 1.13345, 0.159787, 1.13423, 0.159552, 1.13379, 0, 0
2, 0.00000, 0.159564, 1.13345, 0.159787, 1.13423, 0.159552, 1.13379, 0, 0
3, 0.00000, 0.159564, 1.13345, 0.159787, 1.13423, 0.159552, 1.13379, 0, 0
4, 0.00000, 0.159564, 1.13345, 0.159787, 1.13423, 0.159552, 1.13379, 0, 0
5, 0.00000, 0.159564, 1.13345, 0.159787, 1.13423, 0.159552, 1.13379, 0, 0
6, 0.00000, 0.159564, 1.13345, 0.159787, 1.13423, 0.159552, 1.13379, 0, 0
7, 0.00000, 0.159564, 1.13345, 0.159787, 1.13423, 0.159552, 1.13379, 0, 0
8, 0.00000, 0.159564, 1.13345, 0.159787, 1.13423, 0.159552, 1.13379, 0, 0
9, 0.00000, 0.159564, 1.13345, 0.159787, 1.13423, 0.159552, 1.13379, 0, 0
10, 0.00000, 0.159564, 1.13345, 0.159787, 1.13423, 0.159552, 1.13379, 0, 0
11, 0.00000, 0.159564, 1.13345, 0.159787, 1.13423, 0.159552, 1.13379, 0, 0
12, 0.00000, 0.159564, 1.13345, 0.159787, 1.13423, 0.159552, 1.13379, 0, 0
13, 0.00000, 0.159564, 1.13345, 0.159787, 1.13423, 0.159552, 1.13379, 0, 0
14, 0.00000, 0.159564, 1.13345, 0.159787, 1.13423, 0.159552, 1.13379, 0, 0
15, 0.00000, 0.159564, 1.13345, 0.159787, 1.13423, 0.159552, 1.13379, 0, 0
16, 0.00000, 0.159564, 1.13345, 0.159787, 1.13423, 0.159552, 1.13379, 0, 0
17, 0.00000, 0.159564, 1.13345, 0.159787, 1.13423, 0.159552, 1.13379, 0, 0
18, 0.00000, 0.159564, 1.13345, 0.159787, 1.13423, 0.159552, 1.13379, 0, 0
19, 0.00000, 0.159564, 1.13345, 0.159787, 1.13423, 0.159552, 1.13379, 0, 0
20, 0.00000, 0.159564, 1.13345, 0.159787, 1.13423, 0.159552, 1.13379, 0, 0
21, 0.00000, 0.159564, 1.13345, 0.159787, 1.13423, 0.159552, 1.13379, 0, 0
22, 0.00000, 0.159564, 1.13345, 0.159787, 1.13423, 0.159552, 1.13379, 0, 0
23, 0.00000, 0.159603, 1.13373, 0.159823, 1.1345, 0.159592, 1.13406, 0, 0
24, 0.00000, 0.159774, 1.13495, 0.159983, 1.13567, 0.159765, 1.13525, 0, 0
25, 0.00000, 0.16004, 1.13686, 0.160234, 1.13749, 0.160036, 1.1371, 0, 0
26, 0.00000, 0.160143, 1.1376, 0.16033, 1.1382, 0.16014, 1.13781, 0, 0
27, 0.00000, 0.160386, 1.13935, 0.160559, 1.13987, 0.160388, 1.13951, 0, 0
28, 0.00000, 0.160443, 1.13975, 0.160612, 1.14025, 0.160445, 1.1399, 0, 0
29, 0.00000, 0.160456, 1.13985, 0.160624, 1.14035, 0.160459, 1.14, 0, 0
30, 0.00000, 0.160462, 1.13989, 0.16063, 1.14038, 0.160464, 1.14003, 0, 0
31, 0.00000, 0.160463, 1.1399, 0.160631, 1.1404, 0.160466, 1.14004, 0, 0
32, 0.00000, 0.160467, 1.13993, 0.160635, 1.14042, 0.16047, 1.14007, 0, 0
33, 0.00000, 0.160466, 1.13992, 0.160633, 1.14041, 0.160469, 1.14006, 0, 0
34, 0.00000, 0.160467, 1.13993, 0.160635, 1.14042, 0.16047, 1.14007, 0, 0
35, 0.00000, 0.160458, 1.13987, 0.160627, 1.14036, 0.160461, 1.14001, 0, 0
36, 0.00000, 0.160461, 1.13989, 0.160629, 1.14038, 0.160464, 1.14003, 0, 0
37, 0.00000, 0.160467, 1.13993, 0.160635, 1.14042, 0.16047, 1.14007, 0, 0
38, 0.00000, 0.160467, 1.13993, 0.160635, 1.14042, 0.16047, 1.14007, 0, 0
39, 0.00000, 0.160467, 1.13993, 0.160635, 1.14042, 0.16047, 1.14007, 0, 0
40, 0.00000, 0.160467, 1.13993, 0.160635, 1.14042, 0.16047, 1.14007, 0, 0
41, 0.00000, 0.160467, 1.13993, 0.160635, 1.14042, 0.16047, 1.14007, 0, 0
42, 0.00000, 0.160467, 1.13993, 0.160635, 1.14042, 0.16047, 1.14007, 0, 0
43, 0.00000, 0.160467, 1.13993, 0.160635, 1.14042, 0.16047, 1.14007, 0, 0
44, 0.00000, 0.160467, 1.13993, 0.160635, 1.14042, 0.16047, 1.14007, 0, 0
45, 0.00000, 0.160467, 1.13993, 0.160635, 1.14042, 0.16047, 1.14007, 0, 0
46, 0.00000, 0.160467, 1.13993, 0.160635, 1.14042, 0.16047, 1.14007, 0, 0
47, 0.00000, 0.160467, 1.13993, 0.160635, 1.14042, 0.16047, 1.14007, 0, 0
48, 0.00000, 0.160467, 1.13993, 0.160635, 1.14042, 0.16047, 1.14007, 0, 0
49, 0.00000, 0.160256, 1.13844, 0.160437, 1.13898, 0.160259, 1.1386, 0, 0
50, 0.00000, 0.160256, 1.13844, 0.160437, 1.13898, 0.160259, 1.1386, 0, 0
51, 0.00000, 0.160256, 1.13844, 0.160437, 1.13898, 0.160259, 1.1386, 0, 0
52, 0.00000, 0.160256, 1.13844, 0.160437, 1.13898, 0.160259, 1.1386, 0, 0
53, 0.00000, 0.160256, 1.13844, 0.160437, 1.13898, 0.160259, 1.1386, 0, 0
54, 0.00000, 0.160256, 1.13844, 0.160437, 1.13898, 0.160259, 1.1386, 0, 0
55, 0.00000, 0.160256, 1.13844, 0.160437, 1.13898, 0.160259, 1.1386, 0, 0
56, 0.00000, 0.160256, 1.13844, 0.160437, 1.13898, 0.160259, 1.1386, 0, 0
57, 0.00000, 0.160256, 1.13844, 0.160437, 1.13898, 0.160259, 1.1386, 0, 0
58, 0.00000, 0.160256, 1.13844, 0.160437, 1.13898, 0.160259, 1.1386, 0, 0
59, 0.00000, 0.160256, 1.13844, 0.160437, 1.13898, 0.160259, 1.1386, 0, 0
60, 0.00000, 0.160256, 1.13844, 0.160437, 1.13898, 0.160259, 1.1386, 0, 0
61, 0.00000, 0.160256, 1.13844, 0.160437, 1.13898, 0.160259, 1.1386, 0, 0
62, 0.00000, 0.160256, 1.13844, 0.160437, 1.13898, 0.160259, 1.1386, 0, 0
63, 0.00000, 0.160256, 1.13844, 0.160437, 1.13898, 0.160259, 1.1386, 0, 0
64, 0.00000, 0.160256, 1.13844, 0.160437, 1.13898, 0.160259, 1.1386, 0, 0
65, 0.00000, 0.160256, 1.13844, 0.160437, 1.13898, 0.160259, 1.1386, 0, 0
66, 0.00000, 0.160256, 1.13843, 0.160436, 1.13897, 0.160258, 1.1386, 0, 0
67, 0.00000, 0.16025, 1.13839, 0.160431, 1.13893, 0.160252, 1.13856, 0, 0
68, 0.00000, 0.160232, 1.13826, 0.160413, 1.13881, 0.160233, 1.13843, 0, 0
69, 0.00000, 0.160012, 1.13668, 0.160207, 1.1373, 0.16001, 1.1369, 0, 0
70, 0.00000, 0.159372, 1.13209, 0.159606, 1.13291, 0.15936, 1.13245, 0, 0
71, 0.00000, 0.159333, 1.13181, 0.159569, 1.13264, 0.159319, 1.13218, 0, 0
72, 0.00000, 0.159333, 1.13181, 0.159569, 1.13264, 0.159319, 1.13218, 0, 0
73, 0.00000, 0.158283, 1.12438, 0.158581, 1.12543, 0.158266, 1.12485, 0, 0
74, 0.00000, 0.158283, 1.12438, 0.15858, 1.12543, 0.158266, 1.12485, 0, 0
75, 0.00000, 0.158283, 1.12438, 0.15858, 1.12543, 0.158266, 1.12485, 0, 0
76, 0.00000, 0.158283, 1.12438, 0.15858, 1.12543, 0.158266, 1.12485, 0, 0
77, 0.00000, 0.158283, 1.12438, 0.15858, 1.12543, 0.158266, 1.12485, 0, 0
78, 0.00000, 0.158283, 1.12438, 0.15858, 1.12543, 0.158266, 1.12485, 0, 0
79, 0.00000, 0.158283, 1.12438, 0.15858, 1.12543, 0.158266, 1.12485, 0, 0
80, 0.00000, 0.158283, 1.12438, 0.15858, 1.12543, 0.158266, 1.12485, 0, 0
81, 0.00000, 0.158283, 1.12438, 0.15858, 1.12543, 0.158266, 1.12485, 0, 0
82, 0.00000, 0.158283, 1.12438, 0.15858, 1.12543, 0.158266, 1.12485, 0, 0
83, 0.00000, 0.158283, 1.12438, 0.15858, 1.12543, 0.158266, 1.12485, 0, 0
84, 0.00000, 0.158283, 1.12438, 0.15858, 1.12543, 0.158266, 1.12485, 0, 0
85, 0.00000, 0.158283, 1.12438, 0.15858, 1.12543, 0.158266, 1.12485, 0, 0
86, 0.00000, 0.158283, 1.12438, 0.15858, 1.12543, 0.158266, 1.12485, 0, 0
87, 0.00000, 0.158283, 1.12438, 0.15858, 1.12543, 0.158266, 1.12485, 0, 0
88, 0.00000, 0.158283, 1.12438, 0.15858, 1.12543, 0.158266, 1.12485, 0, 0
89, 0.00000, 0.158283, 1.12438, 0.15858, 1.12543, 0.158266, 1.12485, 0, 0
90, 0.00000, 0.158283, 1.12438, 0.15858, 1.12543, 0.158266, 1.12485, 0, 0
91, 0.00000, 0.158283, 1.12438, 0.15858, 1.12543, 0.158266, 1.12485, 0, 0
92, 0.00000, 0.158283, 1.12438, 0.15858, 1.12543, 0.158266, 1.12485, 0, 0
93, 0.00000, 0.158283, 1.12438, 0.15858, 1.12543, 0.158266, 1.12485, 0, 0
94, 0.00000, 0.158283, 1.12438, 0.15858, 1.12543, 0.158266, 1.12485, 0, 0
95, 0.00000, 0.158283, 1.12438, 0.15858, 1.12543, 0.158266, 1.12485, 0, 0
96, 0.00000, 0.158283, 1.12438, 0.15858, 1.12543, 0.158266, 1.12485, 0, 0
