hour, t(sec), P1 (kW), Q1 (kvar), P2 (kW), Q2 (kvar), P3 (kW), Q3 (kvar), P4 (kW), Q4 (kvar)
1, 0.00000, 9.07788, 4.41423, 9.08048, 4.41432, 9.07961, 4.41348, 0, 0
2, 0.00000, 9.07796, 4.41427, 9.08056, 4.41436, 9.07969, 4.41352, 0, 0
3, 0.00000, 9.07796, 4.41427, 9.08056, 4.41436, 9.07969, 4.41352, 0, 0
4, 0.00000, 9.07796, 4.41427, 9.08056, 4.41436, 9.07969, 4.41352, 0, 0
5, 0.00000, 9.07796, 4.41427, 9.08056, 4.41436, 9.07969, 4.41352, 0, 0
6, 0.00000, 9.07796, 4.41427, 9.08056, 4.41436, 9.07969, 4.41352, 0, 0
7, 0.00000, 9.07796, 4.41427, 9.08056, 4.41436, 9.07969, 4.41352, 0, 0
8, 0.00000, 9.07796, 4.41427, 9.08056, 4.41436, 9.07969, 4.41352, 0, 0
9, 0.00000, 9.07796, 4.41427, 9.08056, 4.41436, 9.07969, 4.41352, 0, 0
10, 0.00000, 9.07796, 4.41427, 9.08056, 4.41436, 9.07969, 4.41352, 0, 0
11, 0.00000, 9.07796, 4.41427, 9.08056, 4.41436, 9.07969, 4.41352, 0, 0
12, 0.00000, 9.07796, 4.41427, 9.08056, 4.41436, 9.07969, 4.41352, 0, 0
13, 0.00000, 9.07796, 4.41427, 9.08056, 4.41436, 9.07969, 4.41352, 0, 0
14, 0.00000, 9.07796, 4.41427, 9.08056, 4.41436, 9.07969, 4.41352, 0, 0
15, 0.00000, 9.07796, 4.41427, 9.08056, 4.41436, 9.07969, 4.41352, 0, 0
16, 0.00000, 9.07796, 4.41427, 9.08056, 4.41436, 9.07969, 4.41352, 0, 0
17, 0.00000, 9.07796, 4.41427, 9.08056, 4.41436, 9.07969, 4.41352, 0, 0
18, 0.00000, 9.07796, 4.41427, 9.08056, 4.41436, 9.07969, 4.41352, 0, 0
19, 0.00000, 9.07796, 4.41427, 9.08056, 4.41436, 9.07969, 4.41352, 0, 0
20, 0.00000, 9.07796, 4.41427, 9.08056, 4.41436, 9.07969, 4.41352, 0, 0
21, 0.00000, 9.07796, 4.41427, 9.08056, 4.41436, 9.07969, 4.41352, 0, 0
22, 0.00000, 9.07796, 4.41427, 9.08056, 4.41436, 9.07969, 4.41352, 0, 0
23, 0.00000, 7.37741, 4.34938, 7.37953, 4.3496, 7.37885, 4.34886, 0, 0
24, 0.00000, 5.68176, 4.29765, 5.68339, 4.29797, 5.68289, 4.29735, 0, 0
25, 0.00000, 1.74428, 3.50976, 1.74494, 3.51023, 1.7448, 3.50985, 0, 0
26, 0.00000, 1.74429, 3.50998, 1.74494, 3.51041, 1.7448, 3.51005, 0, 0
27, 0.00000, 1.74438, 3.51052, 1.74498, 3.51085, 1.74483, 3.51053, 0, 0
28, 0.00000, 1.7444, 3.51066, 1.74499, 3.51097, 1.74484, 3.51066, 0, 0
29, 0.00000, 1.74441, 3.51074, 1.74499, 3.51103, 1.74484, 3.51074, 0, 0
30, 0.00000, 1.74443, 3.51082, 1.74499, 3.5111, 1.74485, 3.5108, 0, 0
31, 0.00000, 1.74443, 3.51085, 1.745, 3.51112, 1.74485, 3.51083, 0, 0
32, 0.00000, 1.74444, 3.51092, 1.745, 3.51118, 1.74485, 3.5109, 0, 0
33, 0.00000, 1.74444, 3.5109, 1.74501, 3.51116, 1.74486, 3.51088, 0, 0
34, 0.00000, 1.74444, 3.51092, 1.745, 3.51118, 1.74485, 3.5109, 0, 0
35, 0.00000, 1.74443, 3.51078, 1.745, 3.51106, 1.74485, 3.51077, 0, 0
36, 0.00000, 1.74443, 3.51081, 1.745, 3.51109, 1.74485, 3.5108, 0, 0
37, 0.00000, 1.74445, 3.51093, 1.74501, 3.51119, 1.74486, 3.5109, 0, 0
38, 0.00000, 1.74445, 3.51093, 1.74501, 3.51119, 1.74486, 3.5109, 0, 0
39, 0.00000, 1.74445, 3.51093, 1.74501, 3.51119, 1.74486, 3.5109, 0, 0
40, 0.00000, 1.74445, 3.51093, 1.74501, 3.51119, 1.74486, 3.5109, 0, 0
41, 0.00000, 1.74445, 3.51093, 1.74501, 3.51119, 1.74486, 3.5109, 0, 0
42, 0.00000, 1.74445, 3.51093, 1.74501, 3.51119, 1.74486, 3.5109, 0, 0
43, 0.00000, 1.74445, 3.51093, 1.74501, 3.51119, 1.74486, 3.5109, 0, 0
44, 0.00000, 1.74445, 3.51093, 1.74501, 3.51119, 1.74486, 3.5109, 0, 0
45, 0.00000, 1.74445, 3.51093, 1.74501, 3.51119, 1.74486, 3.5109, 0, 0
46, 0.00000, 1.74445, 3.51093, 1.74501, 3.51119, 1.74486, 3.5109, 0, 0
47, 0.00000, 1.74445, 3.51093, 1.74501, 3.51119, 1.74486, 3.5109, 0, 0
48, 0.00000, 1.74445, 3.51093, 1.74501, 3.51119, 1.74486, 3.5109, 0, 0
49, 0.00000, 2.19297, 3.70675, 2.19365, 3.70702, 2.19346, 3.70669, 0, 0
50, 0.00000, 2.19299, 3.70675, 2.19366, 3.70702, 2.19347, 3.70669, 0, 0
51, 0.00000, 2.19299, 3.70675, 2.19366, 3.70702, 2.19347, 3.70669, 0, 0
52, 0.00000, 2.19299, 3.70675, 2.19366, 3.70702, 2.19347, 3.70669, 0, 0
53, 0.00000, 2.19299, 3.70675, 2.19366, 3.70702, 2.19347, 3.70669, 0, 0
54, 0.00000, 2.19299, 3.70675, 2.19366, 3.70702, 2.19347, 3.70669, 0, 0
55, 0.00000, 2.19299, 3.70675, 2.19366, 3.70702, 2.19347, 3.70669, 0, 0
56, 0.00000, 2.19299, 3.70675, 2.19366, 3.70702, 2.19347, 3.70669, 0, 0
57, 0.00000, 2.19299, 3.70675, 2.19366, 3.70702, 2.19347, 3.70669, 0, 0
58, 0.00000, 2.19299, 3.70675, 2.19366, 3.70702, 2.19347, 3.70669, 0, 0
59, 0.00000, 2.19299, 3.70675, 2.19366, 3.70702, 2.19347, 3.70669, 0, 0
60, 0.00000, 2.19299, 3.70675, 2.19366, 3.70702, 2.19347, 3.70669, 0, 0
61, 0.00000, 2.19299, 3.70675, 2.19366, 3.70702, 2.19347, 3.70669, 0, 0
62, 0.00000, 2.19299, 3.70675, 2.19366, 3.70702, 2.19347, 3.70669, 0, 0
63, 0.00000, 2.19299, 3.70675, 2.19366, 3.70702, 2.19347, 3.70669, 0, 0
64, 0.00000, 2.19299, 3.70675, 2.19366, 3.70702, 2.19347, 3.70669, 0, 0
65, 0.00000, 2.19299, 3.70675, 2.19366, 3.70702, 2.19347, 3.70669, 0, 0
66, 0.00000, 2.19299, 3.70674, 2.19366, 3.70701, 2.19347, 3.70669, 0, 0
67, 0.00000, 2.19297, 3.70664, 2.19366, 3.70693, 2.19347, 3.70659, 0, 0
68, 0.00000, 2.19294, 3.70649, 2.19364, 3.70681, 2.19346, 3.70646, 0, 0
69, 0.00000, 2.19284, 3.70595, 2.1936, 3.70637, 2.19342, 3.70598, 0, 0
70, 0.00000, 6.12635, 3.77925, 6.12816, 3.77949, 6.12757, 3.77884, 0, 0
71, 0.00000, 7.82273, 3.83419, 7.82501, 3.83429, 7.82424, 3.83355, 0, 0
72, 0.00000, 7.82279, 3.83421, 7.82507, 3.83432, 7.82429, 3.83357, 0, 0
73, 0.00000, 11.3726, 5.49271, 11.3767, 5.49283, 11.3753, 5.49152, 0, 0
74, 0.00000, 11.3732, 5.4931, 11.3774, 5.49322, 11.376, 5.49191, 0, 0
75, 0.00000, 11.3732, 5.49311, 11.3774, 5.49322, 11.376, 5.49191, 0, 0
76, 0.00000, 11.3732, 5.49311, 11.3774, 5.49322, 11.376, 5.49191, 0, 0
77, 0.00000, 11.3732, 5.49311, 11.3774, 5.49322, 11.376, 5.49191, 0, 0
78, 0.00000, 11.3732, 5.49311, 11.3774, 5.49322, 11.376, 5.49191, 0, 0
79, 0.00000, 11.3732, 5.49311, 11.3774, 5.49322, 11.376, 5.49191, 0, 0
80, 0.00000, 11.3732, 5.49311, 11.3774, 5.49322, 11.376, 5.49191, 0, 0
81, 0.00000, 11.3732, 5.49311, 11.3774, 5.49322, 11.376, 5.49191, 0, 0
82, 0.00000, 11.3732, 5.49311, 11.3774, 5.49322, 11.376, 5.49191, 0, 0
83, 0.00000, 11.3732, 5.49311, 11.3774, 5.49322, 11.376, 5.49191, 0, 0
84, 0.00000, 11.3732, 5.49311, 11.3774, 5.49322, 11.376, 5.49191, 0, 0
85, 0.00000, 11.3732, 5.49311, 11.3774, 5.49322, 11.376, 5.49191, 0, 0
86, 0.00000, 11.3732, 5.49311, 11.3774, 5.49322, 11.376, 5.49191, 0, 0
87, 0.00000, 11.3732, 5.49311, 11.3774, 5.49322, 11.376, 5.49191, 0, 0
88, 0.00000, 11.3732, 5.49311, 11.3774, 5.49322, 11.376, 5.49191, 0, 0
89, 0.00000, 11.3732, 5.49311, 11.3774, 5.49322, 11.376, 5.49191, 0, 0
90, 0.00000, 11.3732, 5.49311, 11.3774, 5.49322, 11.376, 5.49191, 0, 0
91, 0.00000, 11.3732, 5.49311, 11.3774, 5.49322, 11.376, 5.49191, 0, 0
92, 0.00000, 11.3732, 5.49311, 11.3774, 5.49322, 11.376, 5.49191, 0, 0
93, 0.00000, 11.3732, 5.49311, 11.3774, 5.49322, 11.376, 5.49191, 0, 0
94, 0.00000, 11.3732, 5.49311, 11.3774, 5.49322, 11.376, 5.49191, 0, 0
95, 0.00000, 11.3732, 5.49311, 11.3774, 5.49322, 11.376, 5.49191, 0, 0
96, 0.00000, 11.3732, 5.49311, 11.3774, 5.49322, 11.376, 5.49191, 0, 0
