hour, t(sec), P1 (kW), Q1 (kvar), P2 (kW), Q2 (kvar), P3 (kW), Q3 (kvar), P4 (kW), Q4 (kvar)
1, 0.00000, 2.62673, 1.74947, 2.62778, 1.7498, 2.62735, 1.74933, 0, 0
2, 0.00000, 2.62674, 1.74948, 2.62779, 1.74981, 2.62736, 1.74933, 0, 0
3, 0.00000, 2.62674, 1.74948, 2.62779, 1.74981, 2.62736, 1.74933, 0, 0
4, 0.00000, 2.62674, 1.74948, 2.62779, 1.74981, 2.62736, 1.74933, 0, 0
5, 0.00000, 2.62674, 1.74948, 2.62779, 1.74981, 2.62736, 1.74933, 0, 0
6, 0.00000, 2.62674, 1.74948, 2.62779, 1.74981, 2.62736, 1.74933, 0, 0
7, 0.00000, 2.62674, 1.74948, 2.62779, 1.74981, 2.62736, 1.74933, 0, 0
8, 0.00000, 2.62674, 1.74948, 2.62779, 1.74981, 2.62736, 1.74933, 0, 0
9, 0.00000, 2.62674, 1.74948, 2.62779, 1.74981, 2.62736, 1.74933, 0, 0
10, 0.00000, 2.62674, 1.74948, 2.62779, 1.74981, 2.62736, 1.74933, 0, 0
11, 0.00000, 2.62674, 1.74948, 2.62779, 1.74981, 2.62736, 1.74933, 0, 0
12, 0.00000, 2.62674, 1.74948, 2.62779, 1.74981, 2.62736, 1.74933, 0, 0
13, 0.00000, 2.62674, 1.74948, 2.62779, 1.74981, 2.62736, 1.74933, 0, 0
14, 0.00000, 2.62674, 1.74948, 2.62779, 1.74981, 2.62736, 1.74933, 0, 0
15, 0.00000, 2.62674, 1.74948, 2.62779, 1.74981, 2.62736, 1.74933, 0, 0
16, 0.00000, 2.62674, 1.74948, 2.62779, 1.74981, 2.62736, 1.74933, 0, 0
17, 0.00000, 2.62674, 1.74948, 2.62779, 1.74981, 2.62736, 1.74933, 0, 0
18, 0.00000, 2.62674, 1.74948, 2.62779, 1.74981, 2.62736, 1.74933, 0, 0
19, 0.00000, 2.62674, 1.74948, 2.62779, 1.74981, 2.62736, 1.74933, 0, 0
20, 0.00000, 2.62674, 1.74948, 2.62779, 1.74981, 2.62736, 1.74933, 0, 0
21, 0.00000, 2.62674, 1.74948, 2.62779, 1.74981, 2.62736, 1.74933, 0, 0
22, 0.00000, 2.62674, 1.74948, 2.62779, 1.74981, 2.62736, 1.74933, 0, 0
23, 0.00000, 0.956144, 1.74283, 0.956658, 1.74338, 0.956477, 1.74299, 0, 0
24, 0.00000, 0.285814, 1.74308, 0.286117, 1.74367, 0.286032, 1.74333, 0, 0
25, 0.00000, 0.988308, 2.04507, 0.988792, 2.04552, 0.988633, 2.04517, 0, 0
26, 0.00000, 0.988366, 2.04549, 0.988837, 2.04591, 0.988679, 2.04557, 0, 0
27, 0.00000, 0.988561, 2.04671, 0.988992, 2.04705, 0.98884, 2.04675, 0, 0
28, 0.00000, 0.988609, 2.04703, 0.989031, 2.04734, 0.98888, 2.04705, 0, 0
29, 0.00000, 0.988636, 2.0472, 0.989052, 2.0475, 0.988902, 2.04722, 0, 0
30, 0.00000, 0.988665, 2.04739, 0.989075, 2.04767, 0.988925, 2.04739, 0, 0
31, 0.00000, 0.988678, 2.04747, 0.989085, 2.04775, 0.988936, 2.04747, 0, 0
32, 0.00000, 0.988705, 2.04765, 0.989107, 2.04792, 0.988958, 2.04765, 0, 0
33, 0.00000, 0.988696, 2.04757, 0.989101, 2.04785, 0.988952, 2.04757, 0, 0
34, 0.00000, 0.988706, 2.04765, 0.989108, 2.04792, 0.98896, 2.04765, 0, 0
35, 0.00000, 0.988649, 2.04727, 0.989063, 2.04757, 0.988912, 2.04728, 0, 0
36, 0.00000, 0.988661, 2.04736, 0.989072, 2.04765, 0.988922, 2.04737, 0, 0
37, 0.00000, 0.988708, 2.04765, 0.989109, 2.04792, 0.988961, 2.04765, 0, 0
38, 0.00000, 0.988708, 2.04765, 0.98911, 2.04792, 0.988961, 2.04765, 0, 0
39, 0.00000, 0.988708, 2.04765, 0.98911, 2.04792, 0.988961, 2.04765, 0, 0
40, 0.00000, 0.988708, 2.04765, 0.98911, 2.04792, 0.988961, 2.04765, 0, 0
41, 0.00000, 0.988708, 2.04765, 0.98911, 2.04792, 0.988961, 2.04765, 0, 0
42, 0.00000, 0.988708, 2.04765, 0.98911, 2.04792, 0.988961, 2.04765, 0, 0
43, 0.00000, 0.988708, 2.04765, 0.98911, 2.04792, 0.988961, 2.04765, 0, 0
44, 0.00000, 0.988708, 2.04765, 0.98911, 2.04792, 0.988961, 2.04765, 0, 0
45, 0.00000, 0.988708, 2.04765, 0.98911, 2.04792, 0.988961, 2.04765, 0, 0
46, 0.00000, 0.988708, 2.04765, 0.98911, 2.04792, 0.988961, 2.04765, 0, 0
47, 0.00000, 0.988708, 2.04765, 0.98911, 2.04792, 0.988961, 2.04765, 0, 0
48, 0.00000, 0.988708, 2.04765, 0.98911, 2.04792, 0.988961, 2.04765, 0, 0
49, 0.00000, 1.41037, 2.22792, 1.41089, 2.22819, 1.41069, 2.22787, 0, 0
50, 0.00000, 1.41037, 2.22792, 1.4109, 2.22819, 1.4107, 2.22788, 0, 0
51, 0.00000, 1.41037, 2.22792, 1.4109, 2.22819, 1.4107, 2.22788, 0, 0
52, 0.00000, 1.41037, 2.22792, 1.4109, 2.22819, 1.4107, 2.22788, 0, 0
53, 0.00000, 1.41037, 2.22792, 1.4109, 2.22819, 1.4107, 2.22788, 0, 0
54, 0.00000, 1.41037, 2.22792, 1.4109, 2.22819, 1.4107, 2.22788, 0, 0
55, 0.00000, 1.41037, 2.22792, 1.4109, 2.22819, 1.4107, 2.22788, 0, 0
56, 0.00000, 1.41037, 2.22792, 1.4109, 2.22819, 1.4107, 2.22788, 0, 0
57, 0.00000, 1.41037, 2.22792, 1.4109, 2.22819, 1.4107, 2.22788, 0, 0
58, 0.00000, 1.41037, 2.22792, 1.4109, 2.22819, 1.4107, 2.22788, 0, 0
59, 0.00000, 1.41037, 2.22792, 1.4109, 2.22819, 1.4107, 2.22788, 0, 0
60, 0.00000, 1.41037, 2.22792, 1.4109, 2.22819, 1.4107, 2.22788, 0, 0
61, 0.00000, 1.41037, 2.22792, 1.4109, 2.22819, 1.4107, 2.22788, 0, 0
62, 0.00000, 1.41037, 2.22792, 1.4109, 2.22819, 1.4107, 2.22788, 0, 0
63, 0.00000, 1.41037, 2.22792, 1.4109, 2.22819, 1.4107, 2.22788, 0, 0
64, 0.00000, 1.41037, 2.22792, 1.4109, 2.22819, 1.4107, 2.22788, 0, 0
65, 0.00000, 1.41037, 2.22792, 1.4109, 2.22819, 1.4107, 2.22788, 0, 0
66, 0.00000, 1.41037, 2.22789, 1.41089, 2.22816, 1.4107, 2.22785, 0, 0
67, 0.00000, 1.41032, 2.22763, 1.41086, 2.22792, 1.41066, 2.2276, 0, 0
68, 0.00000, 1.41027, 2.2273, 1.41082, 2.22761, 1.41062, 2.22728, 0, 0
69, 0.00000, 1.41006, 2.22606, 1.41067, 2.22647, 1.41046, 2.22609, 0, 0
70, 0.00000, 2.08116, 2.22605, 2.0821, 2.22658, 2.08177, 2.22607, 0, 0
71, 0.00000, 3.75468, 2.23811, 3.75616, 2.23843, 3.75559, 2.23783, 0, 0
72, 0.00000, 3.75468, 2.23811, 3.75617, 2.23843, 3.75559, 2.23783, 0, 0
73, 0.00000, 4.78992, 2.6863, 4.79227, 2.6867, 4.79139, 2.6858, 0, 0
74, 0.00000, 4.78997, 2.68633, 4.79232, 2.68673, 4.79144, 2.68583, 0, 0
75, 0.00000, 4.78997, 2.68633, 4.79232, 2.68673, 4.79144, 2.68583, 0, 0
76, 0.00000, 4.78997, 2.68633, 4.79232, 2.68673, 4.79144, 2.68583, 0, 0
77, 0.00000, 4.78997, 2.68633, 4.79232, 2.68673, 4.79144, 2.68583, 0, 0
78, 0.00000, 4.78997, 2.68633, 4.79232, 2.68673, 4.79144, 2.68583, 0, 0
79, 0.00000, 4.78997, 2.68633, 4.79232, 2.68673, 4.79144, 2.68583, 0, 0
80, 0.00000, 4.78997, 2.68633, 4.79232, 2.68673, 4.79144, 2.68583, 0, 0
81, 0.00000, 4.78997, 2.68633, 4.79232, 2.68673, 4.79144, 2.68583, 0, 0
82, 0.00000, 4.78997, 2.68633, 4.79232, 2.68673, 4.79144, 2.68583, 0, 0
83, 0.00000, 4.78997, 2.68633, 4.79232, 2.68673, 4.79144, 2.68583, 0, 0
84, 0.00000, 4.78997, 2.68633, 4.79232, 2.68673, 4.79144, 2.68583, 0, 0
85, 0.00000, 4.78997, 2.68633, 4.79232, 2.68673, 4.79144, 2.68583, 0, 0
86, 0.00000, 4.78997, 2.68633, 4.79232, 2.68673, 4.79144, 2.68583, 0, 0
87, 0.00000, 4.78997, 2.68633, 4.79232, 2.68673, 4.79144, 2.68583, 0, 0
88, 0.00000, 4.78997, 2.68633, 4.79232, 2.68673, 4.79144, 2.68583, 0, 0
89, 0.00000, 4.78997, 2.68633, 4.79232, 2.68673, 4.79144, 2.68583, 0, 0
90, 0.00000, 4.78997, 2.68633, 4.79232, 2.68673, 4.79144, 2.68583, 0, 0
91, 0.00000, 4.78997, 2.68633, 4.79232, 2.68673, 4.79144, 2.68583, 0, 0
92, 0.00000, 4.78997, 2.68633, 4.79232, 2.68673, 4.79144, 2.68583, 0, 0
93, 0.00000, 4.78997, 2.68633, 4.79232, 2.68673, 4.79144, 2.68583, 0, 0
94, 0.00000, 4.78997, 2.68633, 4.79232, 2.68673, 4.79144, 2.68583, 0, 0
95, 0.00000, 4.78997, 2.68633, 4.79232, 2.68673, 4.79144, 2.68583, 0, 0
96, 0.00000, 4.78997, 2.68633, 4.79232, 2.68673, 4.79144, 2.68583, 0, 0
