hour, t(sec), P1 (kW), Q1 (kvar), P2 (kW), Q2 (kvar), P3 (kW), Q3 (kvar), P4 (kW), Q4 (kvar)
1, 0.00000, 30.7129, 14.8208, 30.7181, 14.8209, 30.7164, 14.8193, 0, 0
2, 0.00000, 30.7133, 14.821, 30.7185, 14.8211, 30.7168, 14.8195, 0, 0
3, 0.00000, 30.7133, 14.821, 30.7185, 14.8211, 30.7168, 14.8195, 0, 0
4, 0.00000, 30.7133, 14.821, 30.7185, 14.8211, 30.7168, 14.8195, 0, 0
5, 0.00000, 30.7133, 14.821, 30.7185, 14.8211, 30.7168, 14.8195, 0, 0
6, 0.00000, 30.7133, 14.821, 30.7185, 14.8211, 30.7168, 14.8195, 0, 0
7, 0.00000, 30.7133, 14.821, 30.7185, 14.8211, 30.7168, 14.8195, 0, 0
8, 0.00000, 30.7133, 14.821, 30.7185, 14.8211, 30.7168, 14.8195, 0, 0
9, 0.00000, 30.7133, 14.821, 30.7185, 14.8211, 30.7168, 14.8195, 0, 0
10, 0.00000, 30.7133, 14.821, 30.7185, 14.8211, 30.7168, 14.8195, 0, 0
11, 0.00000, 30.7133, 14.821, 30.7185, 14.8211, 30.7168, 14.8195, 0, 0
12, 0.00000, 30.7133, 14.821, 30.7185, 14.8211, 30.7168, 14.8195, 0, 0
13, 0.00000, 30.7133, 14.821, 30.7185, 14.8211, 30.7168, 14.8195, 0, 0
14, 0.00000, 30.7133, 14.821, 30.7185, 14.8211, 30.7168, 14.8195, 0, 0
15, 0.00000, 30.7133, 14.821, 30.7185, 14.8211, 30.7168, 14.8195, 0, 0
16, 0.00000, 30.7133, 14.821, 30.7185, 14.8211, 30.7168, 14.8195, 0, 0
17, 0.00000, 30.7133, 14.821, 30.7185, 14.8211, 30.7168, 14.8195, 0, 0
18, 0.00000, 30.7133, 14.821, 30.7185, 14.8211, 30.7168, 14.8195, 0, 0
19, 0.00000, 30.7133, 14.821, 30.7185, 14.8211, 30.7168, 14.8195, 0, 0
20, 0.00000, 30.7133, 14.821, 30.7185, 14.8211, 30.7168, 14.8195, 0, 0
21, 0.00000, 30.7133, 14.821, 30.7185, 14.8211, 30.7168, 14.8195, 0, 0
22, 0.00000, 30.7133, 14.821, 30.7185, 14.8211, 30.7168, 14.8195, 0, 0
23, 0.00000, 30.7138, 14.8213, 30.7189, 14.8213, 30.7172, 14.8198, 0, 0
24, 0.00000, 30.7134, 14.8211, 30.7181, 14.8209, 30.7165, 14.8195, 0, 0
25, 0.00000, 30.7135, 14.8212, 30.7175, 14.8207, 30.7161, 14.8196, 0, 0
26, 0.00000, 22.1517, 14.3963, 22.1547, 14.3963, 22.1537, 14.3953, 0, 0
27, 0.00000, 15.3566, 14.1595, 15.3587, 14.1597, 15.358, 14.1589, 0, 0
28, 0.00000, 10.2915, 14.0404, 10.2932, 14.0408, 10.2927, 14.0401, 0, 0
29, 0.00000, 1.90772, 13.9509, 1.90873, 13.9518, 1.90863, 13.9512, 0, 0
30, 0.00000, -4.08613, 13.9693, -4.08555, 13.9707, -4.0854, 13.97, 0, 0
31, 0.00000, -4.08598, 13.9696, -4.08539, 13.9709, -4.08525, 13.9702, 0, 0
32, 0.00000, -4.08598, 13.9697, -4.08539, 13.9709, -4.08526, 13.9703, 0, 0
33, 0.00000, -4.08597, 13.9696, -4.08538, 13.9709, -4.08524, 13.9703, 0, 0
34, 0.00000, -4.08598, 13.9697, -4.08538, 13.9709, -4.08525, 13.9703, 0, 0
35, 0.00000, -1.42553, 13.953, -1.42476, 13.9541, -1.42472, 13.9535, 0, 0
36, 0.00000, -4.08605, 13.9695, -4.08546, 13.9708, -4.08532, 13.9701, 0, 0
37, 0.00000, -4.08597, 13.9697, -4.08538, 13.9709, -4.08525, 13.9703, 0, 0
38, 0.00000, -4.08597, 13.9697, -4.08538, 13.9709, -4.08524, 13.9703, 0, 0
39, 0.00000, -4.08597, 13.9697, -4.08538, 13.9709, -4.08524, 13.9703, 0, 0
40, 0.00000, -4.08597, 13.9697, -4.08538, 13.9709, -4.08524, 13.9703, 0, 0
41, 0.00000, -4.08597, 13.9697, -4.08538, 13.9709, -4.08524, 13.9703, 0, 0
42, 0.00000, -4.08597, 13.9697, -4.08538, 13.9709, -4.08524, 13.9703, 0, 0
43, 0.00000, -4.08597, 13.9697, -4.08538, 13.9709, -4.08524, 13.9703, 0, 0
44, 0.00000, -4.08597, 13.9697, -4.08538, 13.9709, -4.08524, 13.9703, 0, 0
45, 0.00000, -4.08597, 13.9697, -4.08538, 13.9709, -4.08524, 13.9703, 0, 0
46, 0.00000, -4.08597, 13.9697, -4.08538, 13.9709, -4.08524, 13.9703, 0, 0
47, 0.00000, -4.08597, 13.9697, -4.08538, 13.9709, -4.08524, 13.9703, 0, 0
48, 0.00000, -4.08597, 13.9697, -4.08538, 13.9709, -4.08524, 13.9703, 0, 0
49, 0.00000, -4.08602, 13.9692, -4.08542, 13.9706, -4.08526, 13.9699, 0, 0
50, 0.00000, -4.08601, 13.9692, -4.08541, 13.9706, -4.08525, 13.9699, 0, 0
51, 0.00000, -4.08601, 13.9692, -4.08541, 13.9706, -4.08525, 13.9699, 0, 0
52, 0.00000, -4.08601, 13.9692, -4.08541, 13.9706, -4.08525, 13.9699, 0, 0
53, 0.00000, -4.08601, 13.9692, -4.08541, 13.9706, -4.08525, 13.9699, 0, 0
54, 0.00000, -4.08601, 13.9692, -4.08541, 13.9706, -4.08525, 13.9699, 0, 0
55, 0.00000, -4.08601, 13.9692, -4.08541, 13.9706, -4.08525, 13.9699, 0, 0
56, 0.00000, -4.08601, 13.9692, -4.08541, 13.9706, -4.08525, 13.9699, 0, 0
57, 0.00000, -4.08601, 13.9692, -4.08541, 13.9706, -4.08525, 13.9699, 0, 0
58, 0.00000, -4.08601, 13.9692, -4.08541, 13.9706, -4.08525, 13.9699, 0, 0
59, 0.00000, -4.08601, 13.9692, -4.08541, 13.9706, -4.08525, 13.9699, 0, 0
60, 0.00000, -4.08601, 13.9692, -4.08541, 13.9706, -4.08525, 13.9699, 0, 0
61, 0.00000, -4.08601, 13.9692, -4.08541, 13.9706, -4.08525, 13.9699, 0, 0
62, 0.00000, -4.08601, 13.9692, -4.08541, 13.9706, -4.08525, 13.9699, 0, 0
63, 0.00000, -4.08601, 13.9692, -4.08541, 13.9706, -4.08525, 13.9699, 0, 0
64, 0.00000, -4.08601, 13.9692, -4.08541, 13.9706, -4.08525, 13.9699, 0, 0
65, 0.00000, -4.08601, 13.9692, -4.08541, 13.9706, -4.08525, 13.9699, 0, 0
66, 0.00000, -4.08601, 13.9692, -4.08541, 13.9706, -4.08525, 13.9699, 0, 0
67, 0.00000, -4.08601, 13.9691, -4.08542, 13.9705, -4.08524, 13.9698, 0, 0
68, 0.00000, 10.2915, 14.0402, 10.2933, 14.0407, 10.2928, 14.04, 0, 0
69, 0.00000, 20.4477, 14.3281, 20.4506, 14.3282, 20.4496, 14.3272, 0, 0
70, 0.00000, 30.7119, 14.8204, 30.7171, 14.8204, 30.7154, 14.8188, 0, 0
71, 0.00000, 30.7133, 14.8211, 30.7187, 14.8212, 30.7169, 14.8195, 0, 0
72, 0.00000, 30.7134, 14.8211, 30.7187, 14.8212, 30.717, 14.8195, 0, 0
73, 0.00000, 30.7131, 14.8211, 30.7198, 14.8213, 30.7177, 14.8192, 0, 0
74, 0.00000, 30.7138, 14.8215, 30.7205, 14.8216, 30.7183, 14.8195, 0, 0
75, 0.00000, 30.7138, 14.8215, 30.7205, 14.8216, 30.7183, 14.8195, 0, 0
76, 0.00000, 30.7138, 14.8215, 30.7205, 14.8216, 30.7183, 14.8195, 0, 0
77, 0.00000, 30.7138, 14.8215, 30.7205, 14.8216, 30.7183, 14.8195, 0, 0
78, 0.00000, 30.7138, 14.8215, 30.7205, 14.8216, 30.7183, 14.8195, 0, 0
79, 0.00000, 30.7138, 14.8215, 30.7205, 14.8216, 30.7183, 14.8195, 0, 0
80, 0.00000, 30.7138, 14.8215, 30.7205, 14.8216, 30.7183, 14.8195, 0, 0
81, 0.00000, 30.7138, 14.8215, 30.7205, 14.8216, 30.7183, 14.8195, 0, 0
82, 0.00000, 30.7138, 14.8215, 30.7205, 14.8216, 30.7183, 14.8195, 0, 0
83, 0.00000, 30.7138, 14.8215, 30.7205, 14.8216, 30.7183, 14.8195, 0, 0
84, 0.00000, 30.7138, 14.8215, 30.7205, 14.8216, 30.7183, 14.8195, 0, 0
85, 0.00000, 30.7138, 14.8215, 30.7205, 14.8216, 30.7183, 14.8195, 0, 0
86, 0.00000, 30.7138, 14.8215, 30.7205, 14.8216, 30.7183, 14.8195, 0, 0
87, 0.00000, 30.7138, 14.8215, 30.7205, 14.8216, 30.7183, 14.8195, 0, 0
88, 0.00000, 30.7138, 14.8215, 30.7205, 14.8216, 30.7183, 14.8195, 0, 0
89, 0.00000, 30.7138, 14.8215, 30.7205, 14.8216, 30.7183, 14.8195, 0, 0
90, 0.00000, 30.7138, 14.8215, 30.7205, 14.8216, 30.7183, 14.8195, 0, 0
91, 0.00000, 30.7138, 14.8215, 30.7205, 14.8216, 30.7183, 14.8195, 0, 0
92, 0.00000, 30.7138, 14.8215, 30.7205, 14.8216, 30.7183, 14.8195, 0, 0
93, 0.00000, 30.7138, 14.8215, 30.7205, 14.8216, 30.7183, 14.8195, 0, 0
94, 0.00000, 30.7138, 14.8215, 30.7205, 14.8216, 30.7183, 14.8195, 0, 0
95, 0.00000, 30.7138, 14.8215, 30.7205, 14.8216, 30.7183, 14.8195, 0, 0
96, 0.00000, 30.7138, 14.8215, 30.7205, 14.8216, 30.7183, 14.8195, 0, 0
