hour, t(sec), P1 (kW), Q1 (kvar), P2 (kW), Q2 (kvar), P3 (kW), Q3 (kvar), P4 (kW), Q4 (kvar)
1, 0.00000, 18.2451, 8.81882, 18.2531, 8.81915, 18.2505, 8.81656, 0, 0
2, 0.00000, 18.2454, 8.81897, 18.2534, 8.8193, 18.2508, 8.81671, 0, 0
3, 0.00000, 18.2454, 8.81897, 18.2534, 8.8193, 18.2508, 8.81671, 0, 0
4, 0.00000, 18.2454, 8.81897, 18.2534, 8.8193, 18.2508, 8.81671, 0, 0
5, 0.00000, 18.2454, 8.81897, 18.2534, 8.8193, 18.2508, 8.81671, 0, 0
6, 0.00000, 18.2454, 8.81897, 18.2534, 8.8193, 18.2508, 8.81671, 0, 0
7, 0.00000, 18.2454, 8.81897, 18.2534, 8.8193, 18.2508, 8.81671, 0, 0
8, 0.00000, 18.2454, 8.81897, 18.2534, 8.8193, 18.2508, 8.81671, 0, 0
9, 0.00000, 18.2454, 8.81897, 18.2534, 8.8193, 18.2508, 8.81671, 0, 0
10, 0.00000, 18.2454, 8.81897, 18.2534, 8.8193, 18.2508, 8.81671, 0, 0
11, 0.00000, 18.2454, 8.81897, 18.2534, 8.8193, 18.2508, 8.81671, 0, 0
12, 0.00000, 18.2454, 8.81897, 18.2534, 8.8193, 18.2508, 8.81671, 0, 0
13, 0.00000, 18.2454, 8.81897, 18.2534, 8.8193, 18.2508, 8.81671, 0, 0
14, 0.00000, 18.2454, 8.81897, 18.2534, 8.8193, 18.2508, 8.81671, 0, 0
15, 0.00000, 18.2454, 8.81897, 18.2534, 8.8193, 18.2508, 8.81671, 0, 0
16, 0.00000, 18.2454, 8.81897, 18.2534, 8.8193, 18.2508, 8.81671, 0, 0
17, 0.00000, 18.2454, 8.81897, 18.2534, 8.8193, 18.2508, 8.81671, 0, 0
18, 0.00000, 18.2454, 8.81897, 18.2534, 8.8193, 18.2508, 8.81671, 0, 0
19, 0.00000, 18.2454, 8.81897, 18.2534, 8.8193, 18.2508, 8.81671, 0, 0
20, 0.00000, 18.2454, 8.81897, 18.2534, 8.8193, 18.2508, 8.81671, 0, 0
21, 0.00000, 18.2454, 8.81897, 18.2534, 8.8193, 18.2508, 8.81671, 0, 0
22, 0.00000, 18.2454, 8.81897, 18.2534, 8.8193, 18.2508, 8.81671, 0, 0
23, 0.00000, 18.2458, 8.81918, 18.2537, 8.81945, 18.2511, 8.81691, 0, 0
24, 0.00000, 14.8264, 8.65851, 14.8327, 8.65907, 14.8307, 8.65693, 0, 0
25, 0.00000, 3.18902, 4.85156, 3.19069, 4.85259, 3.19028, 4.85168, 0, 0
26, 0.00000, 1.51688, 4.84239, 1.51804, 4.84361, 1.51787, 4.84278, 0, 0
27, 0.00000, -1.73825, 4.84729, -1.73791, 4.84883, -1.73769, 4.84814, 0, 0
28, 0.00000, -1.73818, 4.84762, -1.73782, 4.84912, -1.73762, 4.84844, 0, 0
29, 0.00000, -1.73818, 4.84768, -1.73781, 4.84917, -1.73761, 4.84849, 0, 0
30, 0.00000, -1.73817, 4.8477, -1.73781, 4.84919, -1.73761, 4.84851, 0, 0
31, 0.00000, -1.73817, 4.84771, -1.73781, 4.84919, -1.73761, 4.84852, 0, 0
32, 0.00000, -1.73817, 4.84773, -1.73781, 4.84921, -1.73761, 4.84853, 0, 0
33, 0.00000, -1.73817, 4.84772, -1.7378, 4.8492, -1.73761, 4.84853, 0, 0
34, 0.00000, -1.73817, 4.84773, -1.73781, 4.84921, -1.73761, 4.84853, 0, 0
35, 0.00000, -1.73817, 4.8477, -1.73781, 4.84918, -1.73761, 4.8485, 0, 0
36, 0.00000, -1.73817, 4.8477, -1.73781, 4.84919, -1.73761, 4.84851, 0, 0
37, 0.00000, -1.73817, 4.84773, -1.7378, 4.84921, -1.73761, 4.84854, 0, 0
38, 0.00000, -1.73817, 4.84773, -1.7378, 4.84921, -1.73761, 4.84854, 0, 0
39, 0.00000, -1.73817, 4.84773, -1.7378, 4.84921, -1.73761, 4.84854, 0, 0
40, 0.00000, -1.73817, 4.84773, -1.7378, 4.84921, -1.73761, 4.84854, 0, 0
41, 0.00000, -1.73817, 4.84773, -1.7378, 4.84921, -1.73761, 4.84854, 0, 0
42, 0.00000, -1.73817, 4.84773, -1.7378, 4.84921, -1.73761, 4.84854, 0, 0
43, 0.00000, -1.73817, 4.84773, -1.7378, 4.84921, -1.73761, 4.84854, 0, 0
44, 0.00000, -1.73817, 4.84773, -1.7378, 4.84921, -1.73761, 4.84854, 0, 0
45, 0.00000, -1.73817, 4.84773, -1.7378, 4.84921, -1.73761, 4.84854, 0, 0
46, 0.00000, -1.73817, 4.84773, -1.7378, 4.84921, -1.73761, 4.84854, 0, 0
47, 0.00000, -1.73817, 4.84773, -1.7378, 4.84921, -1.73761, 4.84854, 0, 0
48, 0.00000, -1.73817, 4.84773, -1.7378, 4.84921, -1.73761, 4.84854, 0, 0
49, 0.00000, -0.810287, 5.24261, -0.809623, 5.24415, -0.809518, 5.24337, 0, 0
50, 0.00000, -0.810258, 5.24258, -0.809596, 5.24413, -0.80949, 5.24334, 0, 0
51, 0.00000, -0.810258, 5.24258, -0.809596, 5.24413, -0.80949, 5.24334, 0, 0
52, 0.00000, -0.810258, 5.24258, -0.809596, 5.24413, -0.80949, 5.24334, 0, 0
53, 0.00000, -0.810258, 5.24258, -0.809596, 5.24413, -0.80949, 5.24334, 0, 0
54, 0.00000, -0.810258, 5.24258, -0.809596, 5.24413, -0.80949, 5.24334, 0, 0
55, 0.00000, -0.810258, 5.24258, -0.809596, 5.24413, -0.80949, 5.24334, 0, 0
56, 0.00000, -0.810258, 5.24258, -0.809596, 5.24413, -0.80949, 5.24334, 0, 0
57, 0.00000, -0.810258, 5.24258, -0.809596, 5.24413, -0.80949, 5.24334, 0, 0
58, 0.00000, -0.810258, 5.24258, -0.809596, 5.24413, -0.80949, 5.24334, 0, 0
59, 0.00000, -0.810258, 5.24258, -0.809596, 5.24413, -0.80949, 5.24334, 0, 0
60, 0.00000, -0.810258, 5.24258, -0.809596, 5.24413, -0.80949, 5.24334, 0, 0
61, 0.00000, -0.810258, 5.24258, -0.809596, 5.24413, -0.80949, 5.24334, 0, 0
62, 0.00000, -0.810258, 5.24258, -0.809596, 5.24413, -0.80949, 5.24334, 0, 0
63, 0.00000, -0.810258, 5.24258, -0.809596, 5.24413, -0.80949, 5.24334, 0, 0
64, 0.00000, -0.810258, 5.24258, -0.809596, 5.24413, -0.80949, 5.24334, 0, 0
65, 0.00000, -0.810258, 5.24258, -0.809596, 5.24413, -0.80949, 5.24334, 0, 0
66, 0.00000, -0.810258, 5.24258, -0.809595, 5.24412, -0.80949, 5.24334, 0, 0
67, 0.00000, -0.810259, 5.24256, -0.809597, 5.24411, -0.80949, 5.24332, 0, 0
68, 0.00000, -0.810269, 5.24248, -0.809609, 5.24404, -0.809499, 5.24325, 0, 0
69, 0.00000, 0.779127, 5.24013, 0.780207, 5.24161, 0.780135, 5.24072, 0, 0
70, 0.00000, 10.8645, 5.3973, 10.8695, 5.39766, 10.8678, 5.39597, 0, 0
71, 0.00000, 10.8649, 5.39728, 10.87, 5.39768, 10.8683, 5.39595, 0, 0
72, 0.00000, 10.865, 5.39728, 10.8701, 5.39768, 10.8683, 5.39595, 0, 0
73, 0.00000, 23.7872, 11.4874, 23.8013, 11.4879, 23.7969, 11.4834, 0, 0
74, 0.00000, 23.7912, 11.49, 23.8053, 11.4904, 23.801, 11.4859, 0, 0
75, 0.00000, 23.7913, 11.49, 23.8054, 11.4904, 23.801, 11.4859, 0, 0
76, 0.00000, 23.7913, 11.49, 23.8054, 11.4904, 23.801, 11.4859, 0, 0
77, 0.00000, 23.7913, 11.49, 23.8054, 11.4904, 23.801, 11.4859, 0, 0
78, 0.00000, 23.7913, 11.49, 23.8054, 11.4904, 23.801, 11.4859, 0, 0
79, 0.00000, 23.7913, 11.49, 23.8054, 11.4904, 23.801, 11.4859, 0, 0
80, 0.00000, 23.7913, 11.49, 23.8054, 11.4904, 23.801, 11.4859, 0, 0
81, 0.00000, 23.7913, 11.49, 23.8054, 11.4904, 23.801, 11.4859, 0, 0
82, 0.00000, 23.7913, 11.49, 23.8054, 11.4904, 23.801, 11.4859, 0, 0
83, 0.00000, 23.7913, 11.49, 23.8054, 11.4904, 23.801, 11.4859, 0, 0
84, 0.00000, 23.7913, 11.49, 23.8054, 11.4904, 23.801, 11.4859, 0, 0
85, 0.00000, 23.7913, 11.49, 23.8054, 11.4904, 23.801, 11.4859, 0, 0
86, 0.00000, 23.7913, 11.49, 23.8054, 11.4904, 23.801, 11.4859, 0, 0
87, 0.00000, 23.7913, 11.49, 23.8054, 11.4904, 23.801, 11.4859, 0, 0
88, 0.00000, 23.7913, 11.49, 23.8054, 11.4904, 23.801, 11.4859, 0, 0
89, 0.00000, 23.7913, 11.49, 23.8054, 11.4904, 23.801, 11.4859, 0, 0
90, 0.00000, 23.7913, 11.49, 23.8054, 11.4904, 23.801, 11.4859, 0, 0
91, 0.00000, 23.7913, 11.49, 23.8054, 11.4904, 23.801, 11.4859, 0, 0
92, 0.00000, 23.7913, 11.49, 23.8054, 11.4904, 23.801, 11.4859, 0, 0
93, 0.00000, 23.7913, 11.49, 23.8054, 11.4904, 23.801, 11.4859, 0, 0
94, 0.00000, 23.7913, 11.49, 23.8054, 11.4904, 23.801, 11.4859, 0, 0
95, 0.00000, 23.7913, 11.49, 23.8054, 11.4904, 23.801, 11.4859, 0, 0
96, 0.00000, 23.7913, 11.49, 23.8054, 11.4904, 23.801, 11.4859, 0, 0
