hour, t(sec), P1 (kW), Q1 (kvar), P2 (kW), Q2 (kvar), P3 (kW), Q3 (kvar), P4 (kW), Q4 (kvar)
1, 0.00000, 9.32774, 2.97607, 9.33099, 2.97571, 9.32977, 2.97484, 0, 0
2, 0.00000, 9.32782, 2.97609, 9.33107, 2.97573, 9.32985, 2.97487, 0, 0
3, 0.00000, 9.32782, 2.97609, 9.33107, 2.97573, 9.32985, 2.97487, 0, 0
4, 0.00000, 9.32782, 2.97609, 9.33107, 2.97573, 9.32985, 2.97487, 0, 0
5, 0.00000, 9.32782, 2.97609, 9.33107, 2.97573, 9.32985, 2.97487, 0, 0
6, 0.00000, 9.32782, 2.97609, 9.33107, 2.97573, 9.32985, 2.97487, 0, 0
7, 0.00000, 9.32782, 2.97609, 9.33107, 2.97573, 9.32985, 2.97487, 0, 0
8, 0.00000, 9.32782, 2.97609, 9.33107, 2.97573, 9.32985, 2.97487, 0, 0
9, 0.00000, 9.32782, 2.97609, 9.33107, 2.97573, 9.32985, 2.97487, 0, 0
10, 0.00000, 9.32782, 2.97609, 9.33107, 2.97573, 9.32985, 2.97487, 0, 0
11, 0.00000, 9.32782, 2.97609, 9.33107, 2.97573, 9.32985, 2.97487, 0, 0
12, 0.00000, 9.32782, 2.97609, 9.33107, 2.97573, 9.32985, 2.97487, 0, 0
13, 0.00000, 9.32782, 2.97609, 9.33107, 2.97573, 9.32985, 2.97487, 0, 0
14, 0.00000, 9.32782, 2.97609, 9.33107, 2.97573, 9.32985, 2.97487, 0, 0
15, 0.00000, 9.32782, 2.97609, 9.33107, 2.97573, 9.32985, 2.97487, 0, 0
16, 0.00000, 9.32782, 2.97609, 9.33107, 2.97573, 9.32985, 2.97487, 0, 0
17, 0.00000, 9.32782, 2.97609, 9.33107, 2.97573, 9.32985, 2.97487, 0, 0
18, 0.00000, 9.32782, 2.97609, 9.33107, 2.97573, 9.32985, 2.97487, 0, 0
19, 0.00000, 9.32782, 2.97609, 9.33107, 2.97573, 9.32985, 2.97487, 0, 0
20, 0.00000, 9.32782, 2.97609, 9.33107, 2.97573, 9.32985, 2.97487, 0, 0
21, 0.00000, 9.32782, 2.97609, 9.33107, 2.97573, 9.32985, 2.97487, 0, 0
22, 0.00000, 9.32782, 2.97609, 9.33107, 2.97573, 9.32985, 2.97487, 0, 0
23, 0.00000, 9.32815, 2.97626, 9.3313, 2.97586, 9.3301, 2.97503, 0, 0
24, 0.00000, 9.32803, 2.97633, 9.33095, 2.97585, 9.32981, 2.97511, 0, 0
25, 0.00000, 9.32831, 2.97662, 9.33081, 2.97604, 9.32978, 2.97547, 0, 0
26, 0.00000, 9.32828, 2.97667, 9.33066, 2.97605, 9.32966, 2.97552, 0, 0
27, 0.00000, 9.32846, 2.97689, 9.33052, 2.97616, 9.3296, 2.97577, 0, 0
28, 0.00000, 9.32847, 2.97694, 9.33046, 2.97618, 9.32955, 2.97582, 0, 0
29, 0.00000, 9.32849, 2.97697, 9.33043, 2.97619, 9.32953, 2.97586, 0, 0
30, 0.00000, 9.32851, 2.977, 9.3304, 2.97621, 9.32952, 2.97589, 0, 0
31, 0.00000, 9.32852, 2.97701, 9.33039, 2.97622, 9.32952, 2.97591, 0, 0
32, 0.00000, 9.32853, 2.97704, 9.33036, 2.97623, 9.32949, 2.97594, 0, 0
33, 0.00000, 9.32854, 2.97703, 9.33039, 2.97623, 9.32952, 2.97593, 0, 0
34, 0.00000, 9.32854, 2.97704, 9.33037, 2.97623, 9.3295, 2.97594, 0, 0
35, 0.00000, 9.3285, 2.97698, 9.33042, 2.9762, 9.32953, 2.97587, 0, 0
36, 0.00000, 9.32851, 2.97699, 9.33041, 2.97621, 9.32952, 2.97589, 0, 0
37, 0.00000, 9.32854, 2.97704, 9.33037, 2.97623, 9.3295, 2.97594, 0, 0
38, 0.00000, 9.32854, 2.97704, 9.33037, 2.97623, 9.32951, 2.97594, 0, 0
39, 0.00000, 9.32854, 2.97704, 9.33037, 2.97623, 9.32951, 2.97594, 0, 0
40, 0.00000, 9.32854, 2.97704, 9.33037, 2.97623, 9.32951, 2.97594, 0, 0
41, 0.00000, 9.32854, 2.97704, 9.33037, 2.97623, 9.32951, 2.97594, 0, 0
42, 0.00000, 9.32854, 2.97704, 9.33037, 2.97623, 9.32951, 2.97594, 0, 0
43, 0.00000, 9.32854, 2.97704, 9.33037, 2.97623, 9.32951, 2.97594, 0, 0
44, 0.00000, 9.32854, 2.97704, 9.33037, 2.97623, 9.32951, 2.97594, 0, 0
45, 0.00000, 9.32854, 2.97704, 9.33037, 2.97623, 9.32951, 2.97594, 0, 0
46, 0.00000, 9.32854, 2.97704, 9.33037, 2.97623, 9.32951, 2.97594, 0, 0
47, 0.00000, 9.32854, 2.97704, 9.33037, 2.97623, 9.32951, 2.97594, 0, 0
48, 0.00000, 9.32854, 2.97704, 9.33037, 2.97623, 9.32951, 2.97594, 0, 0
49, 0.00000, 9.32844, 2.97694, 9.33042, 2.97612, 9.3295, 2.97579, 0, 0
50, 0.00000, 9.32848, 2.97695, 9.33045, 2.97614, 9.32953, 2.9758, 0, 0
51, 0.00000, 9.32848, 2.97695, 9.33045, 2.97614, 9.32953, 2.9758, 0, 0
52, 0.00000, 9.32848, 2.97695, 9.33045, 2.97614, 9.32953, 2.9758, 0, 0
53, 0.00000, 9.32848, 2.97695, 9.33045, 2.97614, 9.32953, 2.9758, 0, 0
54, 0.00000, 9.32848, 2.97695, 9.33045, 2.97614, 9.32953, 2.9758, 0, 0
55, 0.00000, 9.32848, 2.97695, 9.33045, 2.97614, 9.32953, 2.9758, 0, 0
56, 0.00000, 9.32848, 2.97695, 9.33045, 2.97614, 9.32953, 2.9758, 0, 0
57, 0.00000, 9.32848, 2.97695, 9.33045, 2.97614, 9.32953, 2.9758, 0, 0
58, 0.00000, 9.32848, 2.97695, 9.33045, 2.97614, 9.32953, 2.9758, 0, 0
59, 0.00000, 9.32848, 2.97695, 9.33045, 2.97614, 9.32953, 2.9758, 0, 0
60, 0.00000, 9.32848, 2.97695, 9.33045, 2.97614, 9.32953, 2.9758, 0, 0
61, 0.00000, 9.32848, 2.97695, 9.33045, 2.97614, 9.32953, 2.9758, 0, 0
62, 0.00000, 9.32848, 2.97695, 9.33045, 2.97614, 9.32953, 2.9758, 0, 0
63, 0.00000, 9.32848, 2.97695, 9.33045, 2.97614, 9.32953, 2.9758, 0, 0
64, 0.00000, 9.32848, 2.97695, 9.33045, 2.97614, 9.32953, 2.9758, 0, 0
65, 0.00000, 9.32848, 2.97695, 9.33045, 2.97614, 9.32953, 2.9758, 0, 0
66, 0.00000, 9.32848, 2.97695, 9.33046, 2.97613, 9.32954, 2.9758, 0, 0
67, 0.00000, 9.32844, 2.9769, 9.33049, 2.97611, 9.32955, 2.97575, 0, 0
68, 0.00000, 9.32839, 2.97685, 9.33052, 2.97608, 9.32957, 2.97568, 0, 0
69, 0.00000, 9.32818, 2.97661, 9.33064, 2.97595, 9.3296, 2.97542, 0, 0
70, 0.00000, 9.32767, 2.97608, 9.33085, 2.97568, 9.32964, 2.97485, 0, 0
71, 0.00000, 9.32779, 2.97607, 9.33107, 2.97571, 9.32984, 2.97483, 0, 0
72, 0.00000, 9.32781, 2.97607, 9.33109, 2.97571, 9.32986, 2.97483, 0, 0
73, 0.00000, 9.3272, 2.97552, 9.33131, 2.97509, 9.32977, 2.97399, 0, 0
74, 0.00000, 9.32744, 2.9756, 9.33155, 2.97517, 9.33002, 2.97407, 0, 0
75, 0.00000, 9.32744, 2.9756, 9.33155, 2.97517, 9.33002, 2.97407, 0, 0
76, 0.00000, 9.32744, 2.9756, 9.33155, 2.97517, 9.33002, 2.97407, 0, 0
77, 0.00000, 9.32744, 2.9756, 9.33155, 2.97517, 9.33002, 2.97407, 0, 0
78, 0.00000, 9.32744, 2.9756, 9.33155, 2.97517, 9.33002, 2.97407, 0, 0
79, 0.00000, 9.32744, 2.9756, 9.33155, 2.97517, 9.33002, 2.97407, 0, 0
80, 0.00000, 9.32744, 2.9756, 9.33155, 2.97517, 9.33002, 2.97407, 0, 0
81, 0.00000, 9.32744, 2.9756, 9.33155, 2.97517, 9.33002, 2.97407, 0, 0
82, 0.00000, 9.32744, 2.9756, 9.33155, 2.97517, 9.33002, 2.97407, 0, 0
83, 0.00000, 9.32744, 2.9756, 9.33155, 2.97517, 9.33002, 2.97407, 0, 0
84, 0.00000, 9.32744, 2.9756, 9.33155, 2.97517, 9.33002, 2.97407, 0, 0
85, 0.00000, 9.32744, 2.9756, 9.33155, 2.97517, 9.33002, 2.97407, 0, 0
86, 0.00000, 9.32744, 2.9756, 9.33155, 2.97517, 9.33002, 2.97407, 0, 0
87, 0.00000, 9.32744, 2.9756, 9.33155, 2.97517, 9.33002, 2.97407, 0, 0
88, 0.00000, 9.32744, 2.9756, 9.33155, 2.97517, 9.33002, 2.97407, 0, 0
89, 0.00000, 9.32744, 2.9756, 9.33155, 2.97517, 9.33002, 2.97407, 0, 0
90, 0.00000, 9.32744, 2.9756, 9.33155, 2.97517, 9.33002, 2.97407, 0, 0
91, 0.00000, 9.32744, 2.9756, 9.33155, 2.97517, 9.33002, 2.97407, 0, 0
92, 0.00000, 9.32744, 2.9756, 9.33155, 2.97517, 9.33002, 2.97407, 0, 0
93, 0.00000, 9.32744, 2.9756, 9.33155, 2.97517, 9.33002, 2.97407, 0, 0
94, 0.00000, 9.32744, 2.9756, 9.33155, 2.97517, 9.33002, 2.97407, 0, 0
95, 0.00000, 9.32744, 2.9756, 9.33155, 2.97517, 9.33002, 2.97407, 0, 0
96, 0.00000, 9.32744, 2.9756, 9.33155, 2.97517, 9.33002, 2.97407, 0, 0
