hour, t(sec), P1 (kW), Q1 (kvar), P2 (kW), Q2 (kvar), P3 (kW), Q3 (kvar), P4 (kW), Q4 (kvar)
1, 0.00000, 0.191684, 1.96045, 0.192083, 1.96212, 0.191627, 1.96117, 0, 0
2, 0.00000, 0.191684, 1.96045, 0.192083, 1.96212, 0.191627, 1.96117, 0, 0
3, 0.00000, 0.191684, 1.96045, 0.192083, 1.96212, 0.191627, 1.96117, 0, 0
4, 0.00000, 0.191684, 1.96045, 0.192083, 1.96212, 0.191627, 1.96117, 0, 0
5, 0.00000, 0.191684, 1.96045, 0.192083, 1.96212, 0.191627, 1.96117, 0, 0
6, 0.00000, 0.191684, 1.96045, 0.192083, 1.96212, 0.191627, 1.96117, 0, 0
7, 0.00000, 0.191684, 1.96045, 0.192083, 1.96212, 0.191627, 1.96117, 0, 0
8, 0.00000, 0.191684, 1.96045, 0.192083, 1.96212, 0.191627, 1.96117, 0, 0
9, 0.00000, 0.191684, 1.96045, 0.192083, 1.96212, 0.191627, 1.96117, 0, 0
10, 0.00000, 0.191684, 1.96045, 0.192083, 1.96212, 0.191627, 1.96117, 0, 0
11, 0.00000, 0.191684, 1.96045, 0.192083, 1.96212, 0.191627, 1.96117, 0, 0
12, 0.00000, 0.191684, 1.96045, 0.192083, 1.96212, 0.191627, 1.96117, 0, 0
13, 0.00000, 0.191684, 1.96045, 0.192083, 1.96212, 0.191627, 1.96117, 0, 0
14, 0.00000, 0.191684, 1.96045, 0.192083, 1.96212, 0.191627, 1.96117, 0, 0
15, 0.00000, 0.191684, 1.96045, 0.192083, 1.96212, 0.191627, 1.96117, 0, 0
16, 0.00000, 0.191684, 1.96045, 0.192083, 1.96212, 0.191627, 1.96117, 0, 0
17, 0.00000, 0.191684, 1.96045, 0.192083, 1.96212, 0.191627, 1.96117, 0, 0
18, 0.00000, 0.191684, 1.96045, 0.192083, 1.96212, 0.191627, 1.96117, 0, 0
19, 0.00000, 0.191684, 1.96045, 0.192083, 1.96212, 0.191627, 1.96117, 0, 0
20, 0.00000, 0.191684, 1.96045, 0.192083, 1.96212, 0.191627, 1.96117, 0, 0
21, 0.00000, 0.191684, 1.96045, 0.192083, 1.96212, 0.191627, 1.96117, 0, 0
22, 0.00000, 0.191684, 1.96045, 0.192083, 1.96212, 0.191627, 1.96117, 0, 0
23, 0.00000, 0.191735, 1.96098, 0.19213, 1.96262, 0.19168, 1.96169, 0, 0
24, 0.00000, 0.191991, 1.96363, 0.192371, 1.96517, 0.191944, 1.96427, 0, 0
25, 0.00000, 0.192378, 1.96765, 0.192735, 1.96903, 0.192346, 1.96817, 0, 0
26, 0.00000, 0.192535, 1.96928, 0.192882, 1.97059, 0.192508, 1.96975, 0, 0
27, 0.00000, 0.192913, 1.97319, 0.193236, 1.97434, 0.192899, 1.97356, 0, 0
28, 0.00000, 0.193004, 1.97414, 0.193322, 1.97525, 0.192993, 1.97448, 0, 0
29, 0.00000, 0.193027, 1.97438, 0.193343, 1.97548, 0.193017, 1.97471, 0, 0
30, 0.00000, 0.193033, 1.97445, 0.19335, 1.97555, 0.193024, 1.97478, 0, 0
31, 0.00000, 0.193035, 1.97447, 0.193352, 1.97557, 0.193026, 1.9748, 0, 0
32, 0.00000, 0.19304, 1.97452, 0.193356, 1.97561, 0.193031, 1.97485, 0, 0
33, 0.00000, 0.193038, 1.9745, 0.193354, 1.97559, 0.193029, 1.97483, 0, 0
34, 0.00000, 0.19304, 1.97452, 0.193356, 1.97561, 0.193031, 1.97485, 0, 0
35, 0.00000, 0.19303, 1.97441, 0.193346, 1.97551, 0.19302, 1.97474, 0, 0
36, 0.00000, 0.193033, 1.97444, 0.193349, 1.97554, 0.193023, 1.97477, 0, 0
37, 0.00000, 0.19304, 1.97452, 0.193356, 1.97561, 0.193031, 1.97485, 0, 0
38, 0.00000, 0.19304, 1.97452, 0.193356, 1.97561, 0.193031, 1.97485, 0, 0
39, 0.00000, 0.19304, 1.97452, 0.193356, 1.97561, 0.193031, 1.97485, 0, 0
40, 0.00000, 0.19304, 1.97452, 0.193356, 1.97561, 0.193031, 1.97485, 0, 0
41, 0.00000, 0.19304, 1.97452, 0.193356, 1.97561, 0.193031, 1.97485, 0, 0
42, 0.00000, 0.19304, 1.97452, 0.193356, 1.97561, 0.193031, 1.97485, 0, 0
43, 0.00000, 0.19304, 1.97452, 0.193356, 1.97561, 0.193031, 1.97485, 0, 0
44, 0.00000, 0.19304, 1.97452, 0.193356, 1.97561, 0.193031, 1.97485, 0, 0
45, 0.00000, 0.19304, 1.97452, 0.193356, 1.97561, 0.193031, 1.97485, 0, 0
46, 0.00000, 0.19304, 1.97452, 0.193356, 1.97561, 0.193031, 1.97485, 0, 0
47, 0.00000, 0.19304, 1.97452, 0.193356, 1.97561, 0.193031, 1.97485, 0, 0
48, 0.00000, 0.19304, 1.97452, 0.193356, 1.97561, 0.193031, 1.97485, 0, 0
49, 0.00000, 0.19271, 1.97116, 0.193048, 1.97235, 0.192697, 1.97153, 0, 0
50, 0.00000, 0.19271, 1.97116, 0.193048, 1.97235, 0.192697, 1.97153, 0, 0
51, 0.00000, 0.19271, 1.97116, 0.193048, 1.97235, 0.192697, 1.97153, 0, 0
52, 0.00000, 0.19271, 1.97116, 0.193048, 1.97235, 0.192697, 1.97153, 0, 0
53, 0.00000, 0.19271, 1.97116, 0.193048, 1.97235, 0.192697, 1.97153, 0, 0
54, 0.00000, 0.19271, 1.97116, 0.193048, 1.97235, 0.192697, 1.97153, 0, 0
55, 0.00000, 0.19271, 1.97116, 0.193048, 1.97235, 0.192697, 1.97153, 0, 0
56, 0.00000, 0.19271, 1.97116, 0.193048, 1.97235, 0.192697, 1.97153, 0, 0
57, 0.00000, 0.19271, 1.97116, 0.193048, 1.97235, 0.192697, 1.97153, 0, 0
58, 0.00000, 0.19271, 1.97116, 0.193048, 1.97235, 0.192697, 1.97153, 0, 0
59, 0.00000, 0.19271, 1.97116, 0.193048, 1.97235, 0.192697, 1.97153, 0, 0
60, 0.00000, 0.19271, 1.97116, 0.193048, 1.97235, 0.192697, 1.97153, 0, 0
61, 0.00000, 0.19271, 1.97116, 0.193048, 1.97235, 0.192697, 1.97153, 0, 0
62, 0.00000, 0.19271, 1.97116, 0.193048, 1.97235, 0.192697, 1.97153, 0, 0
63, 0.00000, 0.19271, 1.97116, 0.193048, 1.97235, 0.192697, 1.97153, 0, 0
64, 0.00000, 0.19271, 1.97116, 0.193048, 1.97235, 0.192697, 1.97153, 0, 0
65, 0.00000, 0.19271, 1.97116, 0.193048, 1.97235, 0.192697, 1.97153, 0, 0
66, 0.00000, 0.19271, 1.97115, 0.193048, 1.97235, 0.192696, 1.97153, 0, 0
67, 0.00000, 0.192703, 1.97108, 0.193041, 1.97228, 0.192689, 1.97146, 0, 0
68, 0.00000, 0.192674, 1.97078, 0.193014, 1.97199, 0.192659, 1.97116, 0, 0
69, 0.00000, 0.19233, 1.96722, 0.192691, 1.96857, 0.192304, 1.9677, 0, 0
70, 0.00000, 0.191361, 1.95718, 0.191783, 1.95893, 0.191302, 1.95794, 0, 0
71, 0.00000, 0.19131, 1.95664, 0.191734, 1.95842, 0.191249, 1.95742, 0, 0
72, 0.00000, 0.19131, 1.95664, 0.191734, 1.95842, 0.191249, 1.95742, 0, 0
73, 0.00000, 0.189705, 1.94031, 0.190236, 1.94255, 0.189626, 1.94129, 0, 0
74, 0.00000, 0.189704, 1.94031, 0.190235, 1.94254, 0.189626, 1.94129, 0, 0
75, 0.00000, 0.189704, 1.94031, 0.190235, 1.94254, 0.189626, 1.94129, 0, 0
76, 0.00000, 0.189704, 1.94031, 0.190235, 1.94254, 0.189626, 1.94129, 0, 0
77, 0.00000, 0.189704, 1.94031, 0.190235, 1.94254, 0.189626, 1.94129, 0, 0
78, 0.00000, 0.189704, 1.94031, 0.190235, 1.94254, 0.189626, 1.94129, 0, 0
79, 0.00000, 0.189704, 1.94031, 0.190235, 1.94254, 0.189626, 1.94129, 0, 0
80, 0.00000, 0.189704, 1.94031, 0.190235, 1.94254, 0.189626, 1.94129, 0, 0
81, 0.00000, 0.189704, 1.94031, 0.190235, 1.94254, 0.189626, 1.94129, 0, 0
82, 0.00000, 0.189704, 1.94031, 0.190235, 1.94254, 0.189626, 1.94129, 0, 0
83, 0.00000, 0.189704, 1.94031, 0.190235, 1.94254, 0.189626, 1.94129, 0, 0
84, 0.00000, 0.189704, 1.94031, 0.190235, 1.94254, 0.189626, 1.94129, 0, 0
85, 0.00000, 0.189704, 1.94031, 0.190235, 1.94254, 0.189626, 1.94129, 0, 0
86, 0.00000, 0.189704, 1.94031, 0.190235, 1.94254, 0.189626, 1.94129, 0, 0
87, 0.00000, 0.189704, 1.94031, 0.190235, 1.94254, 0.189626, 1.94129, 0, 0
88, 0.00000, 0.189704, 1.94031, 0.190235, 1.94254, 0.189626, 1.94129, 0, 0
89, 0.00000, 0.189704, 1.94031, 0.190235, 1.94254, 0.189626, 1.94129, 0, 0
90, 0.00000, 0.189704, 1.94031, 0.190235, 1.94254, 0.189626, 1.94129, 0, 0
91, 0.00000, 0.189704, 1.94031, 0.190235, 1.94254, 0.189626, 1.94129, 0, 0
92, 0.00000, 0.189704, 1.94031, 0.190235, 1.94254, 0.189626, 1.94129, 0, 0
93, 0.00000, 0.189704, 1.94031, 0.190235, 1.94254, 0.189626, 1.94129, 0, 0
94, 0.00000, 0.189704, 1.94031, 0.190235, 1.94254, 0.189626, 1.94129, 0, 0
95, 0.00000, 0.189704, 1.94031, 0.190235, 1.94254, 0.189626, 1.94129, 0, 0
96, 0.00000, 0.189704, 1.94031, 0.190235, 1.94254, 0.189626, 1.94129, 0, 0
