hour, t(sec), P1 (kW), Q1 (kvar), P2 (kW), Q2 (kvar), P3 (kW), Q3 (kvar), P4 (kW), Q4 (kvar)
1, 0.00000, 52.0185, 26.3676, 52.0506, 26.3684, 52.0414, 26.3589, 0, 0
2, 0.00000, 52.0206, 26.3689, 52.0527, 26.3697, 52.0435, 26.3603, 0, 0
3, 0.00000, 52.0206, 26.369, 52.0527, 26.3697, 52.0436, 26.3603, 0, 0
4, 0.00000, 52.0206, 26.369, 52.0527, 26.3697, 52.0436, 26.3603, 0, 0
5, 0.00000, 52.0206, 26.369, 52.0527, 26.3697, 52.0436, 26.3603, 0, 0
6, 0.00000, 52.0206, 26.369, 52.0527, 26.3697, 52.0436, 26.3603, 0, 0
7, 0.00000, 52.0206, 26.369, 52.0527, 26.3697, 52.0436, 26.3603, 0, 0
8, 0.00000, 52.0206, 26.369, 52.0527, 26.3697, 52.0436, 26.3603, 0, 0
9, 0.00000, 52.0206, 26.369, 52.0527, 26.3697, 52.0436, 26.3603, 0, 0
10, 0.00000, 52.0206, 26.369, 52.0527, 26.3697, 52.0436, 26.3603, 0, 0
11, 0.00000, 52.0206, 26.369, 52.0527, 26.3697, 52.0436, 26.3603, 0, 0
12, 0.00000, 52.0206, 26.369, 52.0527, 26.3697, 52.0436, 26.3603, 0, 0
13, 0.00000, 52.0206, 26.369, 52.0527, 26.3697, 52.0436, 26.3603, 0, 0
14, 0.00000, 52.0206, 26.369, 52.0527, 26.3697, 52.0436, 26.3603, 0, 0
15, 0.00000, 52.0206, 26.369, 52.0527, 26.3697, 52.0436, 26.3603, 0, 0
16, 0.00000, 52.0206, 26.369, 52.0527, 26.3697, 52.0436, 26.3603, 0, 0
17, 0.00000, 52.0206, 26.369, 52.0527, 26.3697, 52.0436, 26.3603, 0, 0
18, 0.00000, 52.0206, 26.369, 52.0527, 26.3697, 52.0436, 26.3603, 0, 0
19, 0.00000, 52.0206, 26.369, 52.0527, 26.3697, 52.0436, 26.3603, 0, 0
20, 0.00000, 52.0206, 26.369, 52.0527, 26.3697, 52.0436, 26.3603, 0, 0
21, 0.00000, 52.0206, 26.369, 52.0527, 26.3697, 52.0436, 26.3603, 0, 0
22, 0.00000, 52.0206, 26.369, 52.0527, 26.3697, 52.0436, 26.3603, 0, 0
23, 0.00000, 52.0222, 26.3691, 52.054, 26.3697, 52.0448, 26.3604, 0, 0
24, 0.00000, 52.0222, 26.3647, 52.0522, 26.3645, 52.0433, 26.356, 0, 0
25, 0.00000, 52.0234, 26.3591, 52.0509, 26.3574, 52.0423, 26.3501, 0, 0
26, 0.00000, 52.0234, 26.3564, 52.0498, 26.3542, 52.0414, 26.3475, 0, 0
27, 0.00000, 52.0248, 26.351, 52.0488, 26.3475, 52.0406, 26.342, 0, 0
28, 0.00000, 52.0245, 26.3493, 52.0479, 26.3455, 52.0398, 26.3403, 0, 0
29, 0.00000, 52.0245, 26.3489, 52.0477, 26.345, 52.0396, 26.3398, 0, 0
30, 0.00000, 52.0244, 26.3488, 52.0476, 26.3449, 52.0396, 26.3397, 0, 0
31, 0.00000, 52.0244, 26.3488, 52.0476, 26.3448, 52.0395, 26.3397, 0, 0
32, 0.00000, 52.0244, 26.3487, 52.0476, 26.3447, 52.0395, 26.3396, 0, 0
33, 0.00000, 52.0245, 26.3487, 52.0476, 26.3448, 52.0396, 26.3396, 0, 0
34, 0.00000, 52.0244, 26.3487, 52.0476, 26.3447, 52.0395, 26.3396, 0, 0
35, 0.00000, 52.0244, 26.3489, 52.0476, 26.3449, 52.0396, 26.3398, 0, 0
36, 0.00000, 52.0244, 26.3488, 52.0476, 26.3449, 52.0396, 26.3397, 0, 0
37, 0.00000, 52.0244, 26.3487, 52.0476, 26.3447, 52.0395, 26.3396, 0, 0
38, 0.00000, 52.0245, 26.3487, 52.0476, 26.3447, 52.0395, 26.3396, 0, 0
39, 0.00000, 52.0245, 26.3487, 52.0476, 26.3447, 52.0395, 26.3396, 0, 0
40, 0.00000, 52.0245, 26.3487, 52.0476, 26.3447, 52.0395, 26.3396, 0, 0
41, 0.00000, 52.0245, 26.3487, 52.0476, 26.3447, 52.0395, 26.3396, 0, 0
42, 0.00000, 52.0245, 26.3487, 52.0476, 26.3447, 52.0395, 26.3396, 0, 0
43, 0.00000, 52.0245, 26.3487, 52.0476, 26.3447, 52.0395, 26.3396, 0, 0
44, 0.00000, 52.0245, 26.3487, 52.0476, 26.3447, 52.0395, 26.3396, 0, 0
45, 0.00000, 52.0245, 26.3487, 52.0476, 26.3447, 52.0395, 26.3396, 0, 0
46, 0.00000, 52.0245, 26.3487, 52.0476, 26.3447, 52.0395, 26.3396, 0, 0
47, 0.00000, 52.0245, 26.3487, 52.0476, 26.3447, 52.0395, 26.3396, 0, 0
48, 0.00000, 52.0245, 26.3487, 52.0476, 26.3447, 52.0395, 26.3396, 0, 0
49, 0.00000, 52.023, 26.3536, 52.048, 26.3497, 52.0395, 26.344, 0, 0
50, 0.00000, 52.0238, 26.3541, 52.0488, 26.3502, 52.0402, 26.3445, 0, 0
51, 0.00000, 52.0238, 26.3541, 52.0488, 26.3502, 52.0402, 26.3445, 0, 0
52, 0.00000, 52.0238, 26.3541, 52.0488, 26.3502, 52.0402, 26.3445, 0, 0
53, 0.00000, 52.0238, 26.3541, 52.0488, 26.3502, 52.0402, 26.3445, 0, 0
54, 0.00000, 52.0238, 26.3541, 52.0488, 26.3502, 52.0402, 26.3445, 0, 0
55, 0.00000, 52.0238, 26.3541, 52.0488, 26.3502, 52.0402, 26.3445, 0, 0
56, 0.00000, 52.0238, 26.3541, 52.0488, 26.3502, 52.0402, 26.3445, 0, 0
57, 0.00000, 52.0238, 26.3541, 52.0488, 26.3502, 52.0402, 26.3445, 0, 0
58, 0.00000, 52.0238, 26.3541, 52.0488, 26.3502, 52.0402, 26.3445, 0, 0
59, 0.00000, 52.0238, 26.3541, 52.0488, 26.3502, 52.0402, 26.3445, 0, 0
60, 0.00000, 52.0238, 26.3541, 52.0488, 26.3502, 52.0402, 26.3445, 0, 0
61, 0.00000, 52.0238, 26.3541, 52.0488, 26.3502, 52.0402, 26.3445, 0, 0
62, 0.00000, 52.0238, 26.3541, 52.0488, 26.3502, 52.0402, 26.3445, 0, 0
63, 0.00000, 52.0238, 26.3541, 52.0488, 26.3502, 52.0402, 26.3445, 0, 0
64, 0.00000, 52.0238, 26.3541, 52.0488, 26.3502, 52.0402, 26.3445, 0, 0
65, 0.00000, 52.0238, 26.3541, 52.0488, 26.3502, 52.0402, 26.3445, 0, 0
66, 0.00000, 52.0238, 26.3541, 52.0488, 26.3502, 52.0402, 26.3445, 0, 0
67, 0.00000, 52.0238, 26.3542, 52.0488, 26.3504, 52.0403, 26.3446, 0, 0
68, 0.00000, 52.0237, 26.3546, 52.0489, 26.3509, 52.0403, 26.345, 0, 0
69, 0.00000, 52.022, 26.3593, 52.0495, 26.3567, 52.0406, 26.3498, 0, 0
70, 0.00000, 52.0172, 26.3726, 52.0512, 26.3733, 52.0414, 26.3634, 0, 0
71, 0.00000, 52.0197, 26.3751, 52.054, 26.376, 52.0442, 26.3658, 0, 0
72, 0.00000, 52.0199, 26.3752, 52.0542, 26.3761, 52.0444, 26.3659, 0, 0
73, 0.00000, 52.0114, 26.3987, 52.0547, 26.4001, 52.0423, 26.3872, 0, 0
74, 0.00000, 52.0168, 26.4022, 52.0601, 26.4035, 52.0478, 26.3906, 0, 0
75, 0.00000, 52.0168, 26.4022, 52.0602, 26.4035, 52.0479, 26.3907, 0, 0
76, 0.00000, 52.0168, 26.4022, 52.0602, 26.4035, 52.0479, 26.3907, 0, 0
77, 0.00000, 52.0168, 26.4022, 52.0602, 26.4035, 52.0479, 26.3907, 0, 0
78, 0.00000, 52.0168, 26.4022, 52.0602, 26.4035, 52.0479, 26.3907, 0, 0
79, 0.00000, 52.0168, 26.4022, 52.0602, 26.4035, 52.0479, 26.3907, 0, 0
80, 0.00000, 52.0168, 26.4022, 52.0602, 26.4035, 52.0479, 26.3907, 0, 0
81, 0.00000, 52.0168, 26.4022, 52.0602, 26.4035, 52.0479, 26.3907, 0, 0
82, 0.00000, 52.0168, 26.4022, 52.0602, 26.4035, 52.0479, 26.3907, 0, 0
83, 0.00000, 52.0168, 26.4022, 52.0602, 26.4035, 52.0479, 26.3907, 0, 0
84, 0.00000, 52.0168, 26.4022, 52.0602, 26.4035, 52.0479, 26.3907, 0, 0
85, 0.00000, 52.0168, 26.4022, 52.0602, 26.4035, 52.0479, 26.3907, 0, 0
86, 0.00000, 52.0168, 26.4022, 52.0602, 26.4035, 52.0479, 26.3907, 0, 0
87, 0.00000, 52.0168, 26.4022, 52.0602, 26.4035, 52.0479, 26.3907, 0, 0
88, 0.00000, 52.0168, 26.4022, 52.0602, 26.4035, 52.0479, 26.3907, 0, 0
89, 0.00000, 52.0168, 26.4022, 52.0602, 26.4035, 52.0479, 26.3907, 0, 0
90, 0.00000, 52.0168, 26.4022, 52.0602, 26.4035, 52.0479, 26.3907, 0, 0
91, 0.00000, 52.0168, 26.4022, 52.0602, 26.4035, 52.0479, 26.3907, 0, 0
92, 0.00000, 52.0168, 26.4022, 52.0602, 26.4035, 52.0479, 26.3907, 0, 0
93, 0.00000, 52.0168, 26.4022, 52.0602, 26.4035, 52.0479, 26.3907, 0, 0
94, 0.00000, 52.0168, 26.4022, 52.0602, 26.4035, 52.0479, 26.3907, 0, 0
95, 0.00000, 52.0168, 26.4022, 52.0602, 26.4035, 52.0479, 26.3907, 0, 0
96, 0.00000, 52.0168, 26.4022, 52.0602, 26.4035, 52.0479, 26.3907, 0, 0
