hour, t(sec), P1 (kW), Q1 (kvar), P2 (kW), Q2 (kvar), P3 (kW), Q3 (kvar), P4 (kW), Q4 (kvar)
1, 0.00000, 11.6004, 5.73041, 11.6054, 5.73068, 11.6037, 5.72903, 0, 0
2, 0.00000, 11.6005, 5.73045, 11.6055, 5.73072, 11.6038, 5.72908, 0, 0
3, 0.00000, 11.6005, 5.73045, 11.6055, 5.73072, 11.6038, 5.72908, 0, 0
4, 0.00000, 11.6005, 5.73045, 11.6055, 5.73072, 11.6038, 5.72908, 0, 0
5, 0.00000, 11.6005, 5.73045, 11.6055, 5.73072, 11.6038, 5.72908, 0, 0
6, 0.00000, 11.6005, 5.73045, 11.6055, 5.73072, 11.6038, 5.72908, 0, 0
7, 0.00000, 11.6005, 5.73045, 11.6055, 5.73072, 11.6038, 5.72908, 0, 0
8, 0.00000, 11.6005, 5.73045, 11.6055, 5.73072, 11.6038, 5.72908, 0, 0
9, 0.00000, 11.6005, 5.73045, 11.6055, 5.73072, 11.6038, 5.72908, 0, 0
10, 0.00000, 11.6005, 5.73045, 11.6055, 5.73072, 11.6038, 5.72908, 0, 0
11, 0.00000, 11.6005, 5.73045, 11.6055, 5.73072, 11.6038, 5.72908, 0, 0
12, 0.00000, 11.6005, 5.73045, 11.6055, 5.73072, 11.6038, 5.72908, 0, 0
13, 0.00000, 11.6005, 5.73045, 11.6055, 5.73072, 11.6038, 5.72908, 0, 0
14, 0.00000, 11.6005, 5.73045, 11.6055, 5.73072, 11.6038, 5.72908, 0, 0
15, 0.00000, 11.6005, 5.73045, 11.6055, 5.73072, 11.6038, 5.72908, 0, 0
16, 0.00000, 11.6005, 5.73045, 11.6055, 5.73072, 11.6038, 5.72908, 0, 0
17, 0.00000, 11.6005, 5.73045, 11.6055, 5.73072, 11.6038, 5.72908, 0, 0
18, 0.00000, 11.6005, 5.73045, 11.6055, 5.73072, 11.6038, 5.72908, 0, 0
19, 0.00000, 11.6005, 5.73045, 11.6055, 5.73072, 11.6038, 5.72908, 0, 0
20, 0.00000, 11.6005, 5.73045, 11.6055, 5.73072, 11.6038, 5.72908, 0, 0
21, 0.00000, 11.6005, 5.73045, 11.6055, 5.73072, 11.6038, 5.72908, 0, 0
22, 0.00000, 11.6005, 5.73045, 11.6055, 5.73072, 11.6038, 5.72908, 0, 0
23, 0.00000, 11.6009, 5.73089, 11.6058, 5.73108, 11.6041, 5.7295, 0, 0
24, 0.00000, 8.21718, 5.63778, 8.22066, 5.63835, 8.21953, 5.63705, 0, 0
25, 0.00000, 5.59432, 5.90704, 5.59669, 5.90783, 5.596, 5.90679, 0, 0
26, 0.00000, 3.91594, 5.88601, 3.91781, 5.88698, 3.91734, 5.88603, 0, 0
27, 0.00000, 3.06519, 5.87954, 3.06673, 5.8804, 3.06635, 5.87958, 0, 0
28, 0.00000, 3.06524, 5.87988, 3.06674, 5.88067, 3.06637, 5.87989, 0, 0
29, 0.00000, 3.06527, 5.88007, 3.06676, 5.88082, 3.06638, 5.88005, 0, 0
30, 0.00000, 3.0653, 5.88026, 3.06677, 5.88098, 3.06639, 5.88023, 0, 0
31, 0.00000, 3.06532, 5.88035, 3.06677, 5.88105, 3.0664, 5.88031, 0, 0
32, 0.00000, 3.06534, 5.88054, 3.06678, 5.8812, 3.0664, 5.88048, 0, 0
33, 0.00000, 3.06535, 5.88048, 3.06679, 5.88115, 3.06641, 5.88042, 0, 0
34, 0.00000, 3.06535, 5.88055, 3.06679, 5.88121, 3.06641, 5.88049, 0, 0
35, 0.00000, 3.06529, 5.88015, 3.06677, 5.88089, 3.06639, 5.88013, 0, 0
36, 0.00000, 3.0653, 5.88024, 3.06677, 5.88096, 3.06639, 5.88021, 0, 0
37, 0.00000, 3.06536, 5.88056, 3.06679, 5.88122, 3.06641, 5.8805, 0, 0
38, 0.00000, 3.06536, 5.88056, 3.06679, 5.88122, 3.06641, 5.8805, 0, 0
39, 0.00000, 3.06536, 5.88056, 3.06679, 5.88122, 3.06641, 5.8805, 0, 0
40, 0.00000, 3.06536, 5.88056, 3.06679, 5.88122, 3.06641, 5.8805, 0, 0
41, 0.00000, 3.06536, 5.88056, 3.06679, 5.88122, 3.06641, 5.8805, 0, 0
42, 0.00000, 3.06536, 5.88056, 3.06679, 5.88122, 3.06641, 5.8805, 0, 0
43, 0.00000, 3.06536, 5.88056, 3.06679, 5.88122, 3.06641, 5.8805, 0, 0
44, 0.00000, 3.06536, 5.88056, 3.06679, 5.88122, 3.06641, 5.8805, 0, 0
45, 0.00000, 3.06536, 5.88056, 3.06679, 5.88122, 3.06641, 5.8805, 0, 0
46, 0.00000, 3.06536, 5.88056, 3.06679, 5.88122, 3.06641, 5.8805, 0, 0
47, 0.00000, 3.06536, 5.88056, 3.06679, 5.88122, 3.06641, 5.8805, 0, 0
48, 0.00000, 3.06536, 5.88056, 3.06679, 5.88122, 3.06641, 5.8805, 0, 0
49, 0.00000, 4.17686, 6.36696, 4.17867, 6.36761, 4.17816, 6.36678, 0, 0
50, 0.00000, 4.17689, 6.36697, 4.1787, 6.36762, 4.17819, 6.36679, 0, 0
51, 0.00000, 4.17689, 6.36697, 4.1787, 6.36762, 4.17819, 6.36679, 0, 0
52, 0.00000, 4.17689, 6.36697, 4.1787, 6.36762, 4.17819, 6.36679, 0, 0
53, 0.00000, 4.17689, 6.36697, 4.1787, 6.36762, 4.17819, 6.36679, 0, 0
54, 0.00000, 4.17689, 6.36697, 4.1787, 6.36762, 4.17819, 6.36679, 0, 0
55, 0.00000, 4.17689, 6.36697, 4.1787, 6.36762, 4.17819, 6.36679, 0, 0
56, 0.00000, 4.17689, 6.36697, 4.1787, 6.36762, 4.17819, 6.36679, 0, 0
57, 0.00000, 4.17689, 6.36697, 4.1787, 6.36762, 4.17819, 6.36679, 0, 0
58, 0.00000, 4.17689, 6.36697, 4.1787, 6.36762, 4.17819, 6.36679, 0, 0
59, 0.00000, 4.17689, 6.36697, 4.1787, 6.36762, 4.17819, 6.36679, 0, 0
60, 0.00000, 4.17689, 6.36697, 4.1787, 6.36762, 4.17819, 6.36679, 0, 0
61, 0.00000, 4.17689, 6.36697, 4.1787, 6.36762, 4.17819, 6.36679, 0, 0
62, 0.00000, 4.17689, 6.36697, 4.1787, 6.36762, 4.17819, 6.36679, 0, 0
63, 0.00000, 4.17689, 6.36697, 4.1787, 6.36762, 4.17819, 6.36679, 0, 0
64, 0.00000, 4.17689, 6.36697, 4.1787, 6.36762, 4.17819, 6.36679, 0, 0
65, 0.00000, 4.17689, 6.36697, 4.1787, 6.36762, 4.17819, 6.36679, 0, 0
66, 0.00000, 4.17688, 6.36694, 4.1787, 6.3676, 4.17819, 6.36676, 0, 0
67, 0.00000, 4.17684, 6.36666, 4.1787, 6.36738, 4.17818, 6.36652, 0, 0
68, 0.00000, 4.17677, 6.36631, 4.17867, 6.3671, 4.17816, 6.3662, 0, 0
69, 0.00000, 4.17651, 6.36502, 4.17859, 6.36608, 4.17808, 6.36504, 0, 0
70, 0.00000, 13.4787, 6.59119, 13.4844, 6.59137, 13.4825, 6.58955, 0, 0
71, 0.00000, 13.4792, 6.59122, 13.485, 6.59148, 13.483, 6.58958, 0, 0
72, 0.00000, 13.4792, 6.59123, 13.485, 6.5915, 13.4831, 6.58959, 0, 0
73, 0.00000, 18.7751, 9.06921, 18.7853, 9.06951, 18.782, 9.06629, 0, 0
74, 0.00000, 18.7761, 9.06985, 18.7862, 9.07015, 18.7829, 9.06693, 0, 0
75, 0.00000, 18.7761, 9.06985, 18.7862, 9.07015, 18.7829, 9.06694, 0, 0
76, 0.00000, 18.7761, 9.06985, 18.7862, 9.07015, 18.7829, 9.06694, 0, 0
77, 0.00000, 18.7761, 9.06985, 18.7862, 9.07015, 18.7829, 9.06694, 0, 0
78, 0.00000, 18.7761, 9.06985, 18.7862, 9.07015, 18.7829, 9.06694, 0, 0
79, 0.00000, 18.7761, 9.06985, 18.7862, 9.07015, 18.7829, 9.06694, 0, 0
80, 0.00000, 18.7761, 9.06985, 18.7862, 9.07015, 18.7829, 9.06694, 0, 0
81, 0.00000, 18.7761, 9.06985, 18.7862, 9.07015, 18.7829, 9.06694, 0, 0
82, 0.00000, 18.7761, 9.06985, 18.7862, 9.07015, 18.7829, 9.06694, 0, 0
83, 0.00000, 18.7761, 9.06985, 18.7862, 9.07015, 18.7829, 9.06694, 0, 0
84, 0.00000, 18.7761, 9.06985, 18.7862, 9.07015, 18.7829, 9.06694, 0, 0
85, 0.00000, 18.7761, 9.06985, 18.7862, 9.07015, 18.7829, 9.06694, 0, 0
86, 0.00000, 18.7761, 9.06985, 18.7862, 9.07015, 18.7829, 9.06694, 0, 0
87, 0.00000, 18.7761, 9.06985, 18.7862, 9.07015, 18.7829, 9.06694, 0, 0
88, 0.00000, 18.7761, 9.06985, 18.7862, 9.07015, 18.7829, 9.06694, 0, 0
89, 0.00000, 18.7761, 9.06985, 18.7862, 9.07015, 18.7829, 9.06694, 0, 0
90, 0.00000, 18.7761, 9.06985, 18.7862, 9.07015, 18.7829, 9.06694, 0, 0
91, 0.00000, 18.7761, 9.06985, 18.7862, 9.07015, 18.7829, 9.06694, 0, 0
92, 0.00000, 18.7761, 9.06985, 18.7862, 9.07015, 18.7829, 9.06694, 0, 0
93, 0.00000, 18.7761, 9.06985, 18.7862, 9.07015, 18.7829, 9.06694, 0, 0
94, 0.00000, 18.7761, 9.06985, 18.7862, 9.07015, 18.7829, 9.06694, 0, 0
95, 0.00000, 18.7761, 9.06985, 18.7862, 9.07015, 18.7829, 9.06694, 0, 0
96, 0.00000, 18.7761, 9.06985, 18.7862, 9.07015, 18.7829, 9.06694, 0, 0
