hour, t(sec), P1 (kW), Q1 (kvar), P2 (kW), Q2 (kvar), P3 (kW), Q3 (kvar), P4 (kW), Q4 (kvar)
1, 0.00000, 17.08, 8.77147, 17.0875, 8.77186, 17.0851, 8.76942, 0, 0
2, 0.00000, 17.0803, 8.77162, 17.0878, 8.77201, 17.0854, 8.76956, 0, 0
3, 0.00000, 17.0803, 8.77162, 17.0878, 8.77201, 17.0854, 8.76956, 0, 0
4, 0.00000, 17.0803, 8.77162, 17.0878, 8.77201, 17.0854, 8.76956, 0, 0
5, 0.00000, 17.0803, 8.77162, 17.0878, 8.77201, 17.0854, 8.76956, 0, 0
6, 0.00000, 17.0803, 8.77162, 17.0878, 8.77201, 17.0854, 8.76956, 0, 0
7, 0.00000, 17.0803, 8.77162, 17.0878, 8.77201, 17.0854, 8.76956, 0, 0
8, 0.00000, 17.0803, 8.77162, 17.0878, 8.77201, 17.0854, 8.76956, 0, 0
9, 0.00000, 17.0803, 8.77162, 17.0878, 8.77201, 17.0854, 8.76956, 0, 0
10, 0.00000, 17.0803, 8.77162, 17.0878, 8.77201, 17.0854, 8.76956, 0, 0
11, 0.00000, 17.0803, 8.77162, 17.0878, 8.77201, 17.0854, 8.76956, 0, 0
12, 0.00000, 17.0803, 8.77162, 17.0878, 8.77201, 17.0854, 8.76956, 0, 0
13, 0.00000, 17.0803, 8.77162, 17.0878, 8.77201, 17.0854, 8.76956, 0, 0
14, 0.00000, 17.0803, 8.77162, 17.0878, 8.77201, 17.0854, 8.76956, 0, 0
15, 0.00000, 17.0803, 8.77162, 17.0878, 8.77201, 17.0854, 8.76956, 0, 0
16, 0.00000, 17.0803, 8.77162, 17.0878, 8.77201, 17.0854, 8.76956, 0, 0
17, 0.00000, 17.0803, 8.77162, 17.0878, 8.77201, 17.0854, 8.76956, 0, 0
18, 0.00000, 17.0803, 8.77162, 17.0878, 8.77201, 17.0854, 8.76956, 0, 0
19, 0.00000, 17.0803, 8.77162, 17.0878, 8.77201, 17.0854, 8.76956, 0, 0
20, 0.00000, 17.0803, 8.77162, 17.0878, 8.77201, 17.0854, 8.76956, 0, 0
21, 0.00000, 17.0803, 8.77162, 17.0878, 8.77201, 17.0854, 8.76956, 0, 0
22, 0.00000, 17.0803, 8.77162, 17.0878, 8.77201, 17.0854, 8.76956, 0, 0
23, 0.00000, 17.081, 8.77208, 17.0883, 8.77236, 17.0859, 8.77001, 0, 0
24, 0.00000, 13.6672, 8.62258, 13.673, 8.62315, 13.6711, 8.62118, 0, 0
25, 0.00000, 9.45999, 8.11575, 9.46377, 8.1165, 9.46263, 8.11505, 0, 0
26, 0.00000, 7.77129, 8.07547, 7.7745, 8.07636, 7.77359, 8.07504, 0, 0
27, 0.00000, 2.80075, 8.00522, 2.80259, 8.00657, 2.80227, 8.0055, 0, 0
28, 0.00000, 2.80083, 8.00562, 2.80264, 8.00688, 2.80231, 8.00585, 0, 0
29, 0.00000, 2.80086, 8.0058, 2.80265, 8.00702, 2.80231, 8.00601, 0, 0
30, 0.00000, 2.80088, 8.00599, 2.80265, 8.00716, 2.80231, 8.00617, 0, 0
31, 0.00000, 2.8009, 8.00608, 2.80266, 8.00722, 2.80232, 8.00625, 0, 0
32, 0.00000, 2.80091, 8.00626, 2.80265, 8.00735, 2.80231, 8.0064, 0, 0
33, 0.00000, 2.80093, 8.00621, 2.80268, 8.00732, 2.80234, 8.00636, 0, 0
34, 0.00000, 2.80092, 8.00627, 2.80267, 8.00737, 2.80232, 8.00641, 0, 0
35, 0.00000, 2.80088, 8.00589, 2.80267, 8.00709, 2.80233, 8.00609, 0, 0
36, 0.00000, 2.80088, 8.00597, 2.80266, 8.00714, 2.80232, 8.00615, 0, 0
37, 0.00000, 2.80093, 8.00628, 2.80267, 8.00738, 2.80233, 8.00642, 0, 0
38, 0.00000, 2.80093, 8.00628, 2.80268, 8.00738, 2.80233, 8.00642, 0, 0
39, 0.00000, 2.80093, 8.00628, 2.80268, 8.00738, 2.80233, 8.00642, 0, 0
40, 0.00000, 2.80093, 8.00628, 2.80268, 8.00738, 2.80233, 8.00642, 0, 0
41, 0.00000, 2.80093, 8.00628, 2.80268, 8.00738, 2.80233, 8.00642, 0, 0
42, 0.00000, 2.80093, 8.00628, 2.80268, 8.00738, 2.80233, 8.00642, 0, 0
43, 0.00000, 2.80093, 8.00628, 2.80268, 8.00738, 2.80233, 8.00642, 0, 0
44, 0.00000, 2.80093, 8.00628, 2.80268, 8.00738, 2.80233, 8.00642, 0, 0
45, 0.00000, 2.80093, 8.00628, 2.80268, 8.00738, 2.80233, 8.00642, 0, 0
46, 0.00000, 2.80093, 8.00628, 2.80268, 8.00738, 2.80233, 8.00642, 0, 0
47, 0.00000, 2.80093, 8.00628, 2.80268, 8.00738, 2.80233, 8.00642, 0, 0
48, 0.00000, 2.80093, 8.00628, 2.80268, 8.00738, 2.80233, 8.00642, 0, 0
49, 0.00000, 4.41009, 8.7622, 4.41238, 8.76329, 4.41185, 8.76217, 0, 0
50, 0.00000, 4.41015, 8.76222, 4.41244, 8.76331, 4.41191, 8.76219, 0, 0
51, 0.00000, 4.41015, 8.76222, 4.41244, 8.76331, 4.41191, 8.76219, 0, 0
52, 0.00000, 4.41015, 8.76222, 4.41244, 8.76331, 4.41191, 8.76219, 0, 0
53, 0.00000, 4.41015, 8.76222, 4.41244, 8.76331, 4.41191, 8.76219, 0, 0
54, 0.00000, 4.41015, 8.76222, 4.41244, 8.76331, 4.41191, 8.76219, 0, 0
55, 0.00000, 4.41015, 8.76222, 4.41244, 8.76331, 4.41191, 8.76219, 0, 0
56, 0.00000, 4.41015, 8.76222, 4.41244, 8.76331, 4.41191, 8.76219, 0, 0
57, 0.00000, 4.41015, 8.76222, 4.41244, 8.76331, 4.41191, 8.76219, 0, 0
58, 0.00000, 4.41015, 8.76222, 4.41244, 8.76331, 4.41191, 8.76219, 0, 0
59, 0.00000, 4.41015, 8.76222, 4.41244, 8.76331, 4.41191, 8.76219, 0, 0
60, 0.00000, 4.41015, 8.76222, 4.41244, 8.76331, 4.41191, 8.76219, 0, 0
61, 0.00000, 4.41015, 8.76222, 4.41244, 8.76331, 4.41191, 8.76219, 0, 0
62, 0.00000, 4.41015, 8.76222, 4.41244, 8.76331, 4.41191, 8.76219, 0, 0
63, 0.00000, 4.41015, 8.76222, 4.41244, 8.76331, 4.41191, 8.76219, 0, 0
64, 0.00000, 4.41015, 8.76222, 4.41244, 8.76331, 4.41191, 8.76219, 0, 0
65, 0.00000, 4.41015, 8.76222, 4.41244, 8.76331, 4.41191, 8.76219, 0, 0
66, 0.00000, 4.41015, 8.7622, 4.41244, 8.76329, 4.41191, 8.76217, 0, 0
67, 0.00000, 4.41012, 8.76193, 4.41245, 8.76311, 4.41193, 8.76195, 0, 0
68, 0.00000, 4.41005, 8.76159, 4.41243, 8.76286, 4.41192, 8.76166, 0, 0
69, 0.00000, 7.70461, 8.81521, 7.70803, 8.8163, 7.70711, 8.81484, 0, 0
70, 0.00000, 17.902, 9.18361, 17.9097, 9.1839, 17.9072, 9.18143, 0, 0
71, 0.00000, 17.9031, 9.18415, 17.911, 9.18455, 17.9085, 9.18198, 0, 0
72, 0.00000, 17.9032, 9.18418, 17.9111, 9.18458, 17.9085, 9.18201, 0, 0
73, 0.00000, 27.2784, 14.0166, 27.3018, 14.0249, 27.2863, 14.0235, 0, 0
74, 0.00000, 27.278, 14.0165, 27.3012, 14.0248, 27.2859, 14.0231, 0, 0
75, 0.00000, 27.278, 14.0165, 27.3012, 14.0248, 27.2859, 14.0231, 0, 0
76, 0.00000, 27.278, 14.0165, 27.3012, 14.0248, 27.2859, 14.0231, 0, 0
77, 0.00000, 27.278, 14.0165, 27.3012, 14.0248, 27.2859, 14.0231, 0, 0
78, 0.00000, 27.278, 14.0165, 27.3012, 14.0248, 27.2859, 14.0231, 0, 0
79, 0.00000, 27.278, 14.0165, 27.3012, 14.0248, 27.2859, 14.0231, 0, 0
80, 0.00000, 27.278, 14.0165, 27.3012, 14.0248, 27.2859, 14.0231, 0, 0
81, 0.00000, 27.278, 14.0165, 27.3012, 14.0248, 27.2859, 14.0231, 0, 0
82, 0.00000, 27.278, 14.0165, 27.3012, 14.0248, 27.2859, 14.0231, 0, 0
83, 0.00000, 27.278, 14.0165, 27.3012, 14.0248, 27.2859, 14.0231, 0, 0
84, 0.00000, 27.278, 14.0165, 27.3012, 14.0248, 27.2859, 14.0231, 0, 0
85, 0.00000, 27.278, 14.0165, 27.3012, 14.0248, 27.2859, 14.0231, 0, 0
86, 0.00000, 27.278, 14.0165, 27.3012, 14.0248, 27.2859, 14.0231, 0, 0
87, 0.00000, 27.278, 14.0165, 27.3012, 14.0248, 27.2859, 14.0231, 0, 0
88, 0.00000, 27.278, 14.0165, 27.3012, 14.0248, 27.2859, 14.0231, 0, 0
89, 0.00000, 27.278, 14.0165, 27.3012, 14.0248, 27.2859, 14.0231, 0, 0
90, 0.00000, 27.278, 14.0165, 27.3012, 14.0248, 27.2859, 14.0231, 0, 0
91, 0.00000, 27.278, 14.0165, 27.3012, 14.0248, 27.2859, 14.0231, 0, 0
92, 0.00000, 27.278, 14.0165, 27.3012, 14.0248, 27.2859, 14.0231, 0, 0
93, 0.00000, 27.278, 14.0165, 27.3012, 14.0248, 27.2859, 14.0231, 0, 0
94, 0.00000, 27.278, 14.0165, 27.3012, 14.0248, 27.2859, 14.0231, 0, 0
95, 0.00000, 27.278, 14.0165, 27.3012, 14.0248, 27.2859, 14.0231, 0, 0
96, 0.00000, 27.278, 14.0165, 27.3012, 14.0248, 27.2859, 14.0231, 0, 0
