hour, t(sec), P1 (kW), Q1 (kvar), P2 (kW), Q2 (kvar), P3 (kW), Q3 (kvar), P4 (kW), Q4 (kvar)
1, 0.00000, 16.2158, 8.34292, 16.2176, 8.34302, 16.217, 8.34242, 0, 0
2, 0.00000, 16.2159, 8.34298, 16.2177, 8.34308, 16.2171, 8.34248, 0, 0
3, 0.00000, 16.2159, 8.34298, 16.2177, 8.34308, 16.2171, 8.34248, 0, 0
4, 0.00000, 16.2159, 8.34298, 16.2177, 8.34308, 16.2171, 8.34248, 0, 0
5, 0.00000, 16.2159, 8.34298, 16.2177, 8.34308, 16.2171, 8.34248, 0, 0
6, 0.00000, 16.2159, 8.34298, 16.2177, 8.34308, 16.2171, 8.34248, 0, 0
7, 0.00000, 16.2159, 8.34298, 16.2177, 8.34308, 16.2171, 8.34248, 0, 0
8, 0.00000, 16.2159, 8.34298, 16.2177, 8.34308, 16.2171, 8.34248, 0, 0
9, 0.00000, 16.2159, 8.34298, 16.2177, 8.34308, 16.2171, 8.34248, 0, 0
10, 0.00000, 16.2159, 8.34298, 16.2177, 8.34308, 16.2171, 8.34248, 0, 0
11, 0.00000, 16.2159, 8.34298, 16.2177, 8.34308, 16.2171, 8.34248, 0, 0
12, 0.00000, 16.2159, 8.34298, 16.2177, 8.34308, 16.2171, 8.34248, 0, 0
13, 0.00000, 16.2159, 8.34298, 16.2177, 8.34308, 16.2171, 8.34248, 0, 0
14, 0.00000, 16.2159, 8.34298, 16.2177, 8.34308, 16.2171, 8.34248, 0, 0
15, 0.00000, 16.2159, 8.34298, 16.2177, 8.34308, 16.2171, 8.34248, 0, 0
16, 0.00000, 16.2159, 8.34298, 16.2177, 8.34308, 16.2171, 8.34248, 0, 0
17, 0.00000, 16.2159, 8.34298, 16.2177, 8.34308, 16.2171, 8.34248, 0, 0
18, 0.00000, 16.2159, 8.34298, 16.2177, 8.34308, 16.2171, 8.34248, 0, 0
19, 0.00000, 16.2159, 8.34298, 16.2177, 8.34308, 16.2171, 8.34248, 0, 0
20, 0.00000, 16.2159, 8.34298, 16.2177, 8.34308, 16.2171, 8.34248, 0, 0
21, 0.00000, 16.2159, 8.34298, 16.2177, 8.34308, 16.2171, 8.34248, 0, 0
22, 0.00000, 16.2159, 8.34298, 16.2177, 8.34308, 16.2171, 8.34248, 0, 0
23, 0.00000, 16.216, 8.34308, 16.2178, 8.34316, 16.2172, 8.34257, 0, 0
24, 0.00000, 12.8082, 8.20521, 12.8096, 8.20537, 12.8092, 8.20488, 0, 0
25, 0.00000, 8.51966, 7.66902, 8.52058, 7.66924, 8.5203, 7.66887, 0, 0
26, 0.00000, 6.83365, 7.6339, 6.83442, 7.63415, 6.83421, 7.63382, 0, 0
27, 0.00000, 4.12002, 7.59456, 4.12056, 7.59484, 4.12043, 7.59457, 0, 0
28, 0.00000, 4.12004, 7.59467, 4.12057, 7.59493, 4.12045, 7.59466, 0, 0
29, 0.00000, 4.12005, 7.5947, 4.12057, 7.59495, 4.12044, 7.59469, 0, 0
30, 0.00000, 4.12005, 7.59472, 4.12057, 7.59497, 4.12044, 7.59471, 0, 0
31, 0.00000, 4.12005, 7.59473, 4.12057, 7.59497, 4.12045, 7.59471, 0, 0
32, 0.00000, 4.12005, 7.59474, 4.12057, 7.59498, 4.12044, 7.59473, 0, 0
33, 0.00000, 4.12005, 7.59474, 4.12058, 7.59498, 4.12045, 7.59472, 0, 0
34, 0.00000, 4.12005, 7.59474, 4.12057, 7.59498, 4.12045, 7.59473, 0, 0
35, 0.00000, 4.12005, 7.59471, 4.12058, 7.59496, 4.12045, 7.5947, 0, 0
36, 0.00000, 4.12005, 7.59472, 4.12057, 7.59496, 4.12045, 7.59471, 0, 0
37, 0.00000, 4.12005, 7.59474, 4.12058, 7.59499, 4.12045, 7.59473, 0, 0
38, 0.00000, 4.12005, 7.59474, 4.12058, 7.59499, 4.12045, 7.59473, 0, 0
39, 0.00000, 4.12005, 7.59474, 4.12058, 7.59499, 4.12045, 7.59473, 0, 0
40, 0.00000, 4.12005, 7.59474, 4.12058, 7.59499, 4.12045, 7.59473, 0, 0
41, 0.00000, 4.12005, 7.59474, 4.12058, 7.59499, 4.12045, 7.59473, 0, 0
42, 0.00000, 4.12005, 7.59474, 4.12058, 7.59499, 4.12045, 7.59473, 0, 0
43, 0.00000, 4.12005, 7.59474, 4.12058, 7.59499, 4.12045, 7.59473, 0, 0
44, 0.00000, 4.12005, 7.59474, 4.12058, 7.59499, 4.12045, 7.59473, 0, 0
45, 0.00000, 4.12005, 7.59474, 4.12058, 7.59499, 4.12045, 7.59473, 0, 0
46, 0.00000, 4.12005, 7.59474, 4.12058, 7.59499, 4.12045, 7.59473, 0, 0
47, 0.00000, 4.12005, 7.59474, 4.12058, 7.59499, 4.12045, 7.59473, 0, 0
48, 0.00000, 4.12005, 7.59474, 4.12058, 7.59499, 4.12045, 7.59473, 0, 0
49, 0.00000, 5.23601, 8.12084, 5.23665, 8.12109, 5.23648, 8.1208, 0, 0
50, 0.00000, 5.23604, 8.12085, 5.23668, 8.1211, 5.23651, 8.1208, 0, 0
51, 0.00000, 5.23604, 8.12085, 5.23668, 8.1211, 5.23651, 8.1208, 0, 0
52, 0.00000, 5.23604, 8.12085, 5.23668, 8.1211, 5.23651, 8.1208, 0, 0
53, 0.00000, 5.23604, 8.12085, 5.23668, 8.1211, 5.23651, 8.1208, 0, 0
54, 0.00000, 5.23604, 8.12085, 5.23668, 8.1211, 5.23651, 8.1208, 0, 0
55, 0.00000, 5.23604, 8.12085, 5.23668, 8.1211, 5.23651, 8.1208, 0, 0
56, 0.00000, 5.23604, 8.12085, 5.23668, 8.1211, 5.23651, 8.1208, 0, 0
57, 0.00000, 5.23604, 8.12085, 5.23668, 8.1211, 5.23651, 8.1208, 0, 0
58, 0.00000, 5.23604, 8.12085, 5.23668, 8.1211, 5.23651, 8.1208, 0, 0
59, 0.00000, 5.23604, 8.12085, 5.23668, 8.1211, 5.23651, 8.1208, 0, 0
60, 0.00000, 5.23604, 8.12085, 5.23668, 8.1211, 5.23651, 8.1208, 0, 0
61, 0.00000, 5.23604, 8.12085, 5.23668, 8.1211, 5.23651, 8.1208, 0, 0
62, 0.00000, 5.23604, 8.12085, 5.23668, 8.1211, 5.23651, 8.1208, 0, 0
63, 0.00000, 5.23604, 8.12085, 5.23668, 8.1211, 5.23651, 8.1208, 0, 0
64, 0.00000, 5.23604, 8.12085, 5.23668, 8.1211, 5.23651, 8.1208, 0, 0
65, 0.00000, 5.23604, 8.12085, 5.23668, 8.1211, 5.23651, 8.1208, 0, 0
66, 0.00000, 5.23604, 8.12085, 5.23668, 8.1211, 5.23652, 8.1208, 0, 0
67, 0.00000, 5.23604, 8.12082, 5.23668, 8.12108, 5.23652, 8.12078, 0, 0
68, 0.00000, 5.23603, 8.12078, 5.23668, 8.12105, 5.23652, 8.12074, 0, 0
69, 0.00000, 6.26979, 8.13642, 6.27057, 8.13672, 6.27037, 8.13637, 0, 0
70, 0.00000, 16.4426, 8.45565, 16.4445, 8.45575, 16.4439, 8.45512, 0, 0
71, 0.00000, 16.4432, 8.45597, 16.4452, 8.45609, 16.4446, 8.45544, 0, 0
72, 0.00000, 16.4433, 8.45598, 16.4452, 8.45609, 16.4446, 8.45545, 0, 0
73, 0.00000, 22.6195, 11.5816, 22.6229, 11.5817, 22.6218, 11.5806, 0, 0
74, 0.00000, 22.621, 11.5826, 22.6244, 11.5827, 22.6233, 11.5816, 0, 0
75, 0.00000, 22.621, 11.5826, 22.6244, 11.5827, 22.6233, 11.5816, 0, 0
76, 0.00000, 22.621, 11.5826, 22.6244, 11.5827, 22.6233, 11.5816, 0, 0
77, 0.00000, 22.621, 11.5826, 22.6244, 11.5827, 22.6233, 11.5816, 0, 0
78, 0.00000, 22.621, 11.5826, 22.6244, 11.5827, 22.6233, 11.5816, 0, 0
79, 0.00000, 22.621, 11.5826, 22.6244, 11.5827, 22.6233, 11.5816, 0, 0
80, 0.00000, 22.621, 11.5826, 22.6244, 11.5827, 22.6233, 11.5816, 0, 0
81, 0.00000, 22.621, 11.5826, 22.6244, 11.5827, 22.6233, 11.5816, 0, 0
82, 0.00000, 22.621, 11.5826, 22.6244, 11.5827, 22.6233, 11.5816, 0, 0
83, 0.00000, 22.621, 11.5826, 22.6244, 11.5827, 22.6233, 11.5816, 0, 0
84, 0.00000, 22.621, 11.5826, 22.6244, 11.5827, 22.6233, 11.5816, 0, 0
85, 0.00000, 22.621, 11.5826, 22.6244, 11.5827, 22.6233, 11.5816, 0, 0
86, 0.00000, 22.621, 11.5826, 22.6244, 11.5827, 22.6233, 11.5816, 0, 0
87, 0.00000, 22.621, 11.5826, 22.6244, 11.5827, 22.6233, 11.5816, 0, 0
88, 0.00000, 22.621, 11.5826, 22.6244, 11.5827, 22.6233, 11.5816, 0, 0
89, 0.00000, 22.621, 11.5826, 22.6244, 11.5827, 22.6233, 11.5816, 0, 0
90, 0.00000, 22.621, 11.5826, 22.6244, 11.5827, 22.6233, 11.5816, 0, 0
91, 0.00000, 22.621, 11.5826, 22.6244, 11.5827, 22.6233, 11.5816, 0, 0
92, 0.00000, 22.621, 11.5826, 22.6244, 11.5827, 22.6233, 11.5816, 0, 0
93, 0.00000, 22.621, 11.5826, 22.6244, 11.5827, 22.6233, 11.5816, 0, 0
94, 0.00000, 22.621, 11.5826, 22.6244, 11.5827, 22.6233, 11.5816, 0, 0
95, 0.00000, 22.621, 11.5826, 22.6244, 11.5827, 22.6233, 11.5816, 0, 0
96, 0.00000, 22.621, 11.5826, 22.6244, 11.5827, 22.6233, 11.5816, 0, 0
