hour, t(sec), P1 (kW), Q1 (kvar), P2 (kW), Q2 (kvar), P3 (kW), Q3 (kvar), P4 (kW), Q4 (kvar)
1, 0.00000, 0.597193, 6.47108, 0.597754, 6.47347, 0.597107, 6.4721, 0, 0
2, 0.00000, 0.597193, 6.47108, 0.597754, 6.47347, 0.597107, 6.4721, 0, 0
3, 0.00000, 0.597193, 6.47108, 0.597754, 6.47347, 0.597107, 6.4721, 0, 0
4, 0.00000, 0.597193, 6.47108, 0.597754, 6.47347, 0.597107, 6.4721, 0, 0
5, 0.00000, 0.597193, 6.47108, 0.597754, 6.47347, 0.597107, 6.4721, 0, 0
6, 0.00000, 0.597193, 6.47108, 0.597754, 6.47347, 0.597107, 6.4721, 0, 0
7, 0.00000, 0.597193, 6.47108, 0.597754, 6.47347, 0.597107, 6.4721, 0, 0
8, 0.00000, 0.597193, 6.47108, 0.597754, 6.47347, 0.597107, 6.4721, 0, 0
9, 0.00000, 0.597193, 6.47108, 0.597754, 6.47347, 0.597107, 6.4721, 0, 0
10, 0.00000, 0.597193, 6.47108, 0.597754, 6.47347, 0.597107, 6.4721, 0, 0
11, 0.00000, 0.597193, 6.47108, 0.597754, 6.47347, 0.597107, 6.4721, 0, 0
12, 0.00000, 0.597193, 6.47108, 0.597754, 6.47347, 0.597107, 6.4721, 0, 0
13, 0.00000, 0.597193, 6.47108, 0.597754, 6.47347, 0.597107, 6.4721, 0, 0
14, 0.00000, 0.597193, 6.47108, 0.597754, 6.47347, 0.597107, 6.4721, 0, 0
15, 0.00000, 0.597193, 6.47108, 0.597754, 6.47347, 0.597107, 6.4721, 0, 0
16, 0.00000, 0.597193, 6.47108, 0.597754, 6.47347, 0.597107, 6.4721, 0, 0
17, 0.00000, 0.597193, 6.47108, 0.597754, 6.47347, 0.597107, 6.4721, 0, 0
18, 0.00000, 0.597193, 6.47108, 0.597754, 6.47347, 0.597107, 6.4721, 0, 0
19, 0.00000, 0.597193, 6.47108, 0.597754, 6.47347, 0.597107, 6.4721, 0, 0
20, 0.00000, 0.597193, 6.47108, 0.597754, 6.47347, 0.597107, 6.4721, 0, 0
21, 0.00000, 0.597193, 6.47108, 0.597754, 6.47347, 0.597107, 6.4721, 0, 0
22, 0.00000, 0.597193, 6.47108, 0.597754, 6.47347, 0.597107, 6.4721, 0, 0
23, 0.00000, 0.597283, 6.47207, 0.597839, 6.47442, 0.597201, 6.47307, 0, 0
24, 0.00000, 0.597646, 6.47606, 0.598177, 6.47824, 0.597578, 6.47694, 0, 0
25, 0.00000, 0.598225, 6.48244, 0.598718, 6.48434, 0.598182, 6.48313, 0, 0
26, 0.00000, 0.598441, 6.48482, 0.598919, 6.48662, 0.598407, 6.48544, 0, 0
27, 0.00000, 0.598971, 6.49065, 0.599412, 6.49219, 0.598958, 6.49109, 0, 0
28, 0.00000, 0.599093, 6.49199, 0.599525, 6.49347, 0.599085, 6.49239, 0, 0
29, 0.00000, 0.599128, 6.49237, 0.599558, 6.49384, 0.599121, 6.49277, 0, 0
30, 0.00000, 0.599148, 6.49259, 0.599577, 6.49405, 0.599141, 6.49298, 0, 0
31, 0.00000, 0.599154, 6.49266, 0.599583, 6.49412, 0.599148, 6.49305, 0, 0
32, 0.00000, 0.599169, 6.49282, 0.599597, 6.49427, 0.599163, 6.4932, 0, 0
33, 0.00000, 0.599163, 6.49275, 0.599591, 6.49421, 0.599157, 6.49314, 0, 0
34, 0.00000, 0.599169, 6.49282, 0.599597, 6.49427, 0.599163, 6.4932, 0, 0
35, 0.00000, 0.599136, 6.49246, 0.599566, 6.49393, 0.599129, 6.49285, 0, 0
36, 0.00000, 0.599146, 6.49257, 0.599575, 6.49403, 0.599139, 6.49296, 0, 0
37, 0.00000, 0.599169, 6.49282, 0.599597, 6.49427, 0.599163, 6.4932, 0, 0
38, 0.00000, 0.599169, 6.49282, 0.599597, 6.49427, 0.599163, 6.4932, 0, 0
39, 0.00000, 0.599169, 6.49282, 0.599597, 6.49427, 0.599163, 6.4932, 0, 0
40, 0.00000, 0.599169, 6.49282, 0.599597, 6.49427, 0.599163, 6.4932, 0, 0
41, 0.00000, 0.599169, 6.49282, 0.599597, 6.49427, 0.599163, 6.4932, 0, 0
42, 0.00000, 0.599169, 6.49282, 0.599597, 6.49427, 0.599163, 6.4932, 0, 0
43, 0.00000, 0.599169, 6.49282, 0.599597, 6.49427, 0.599163, 6.4932, 0, 0
44, 0.00000, 0.599169, 6.49282, 0.599597, 6.49427, 0.599163, 6.4932, 0, 0
45, 0.00000, 0.599169, 6.49282, 0.599597, 6.49427, 0.599163, 6.4932, 0, 0
46, 0.00000, 0.599169, 6.49282, 0.599597, 6.49427, 0.599163, 6.4932, 0, 0
47, 0.00000, 0.599169, 6.49282, 0.599597, 6.49427, 0.599163, 6.4932, 0, 0
48, 0.00000, 0.599169, 6.49282, 0.599597, 6.49427, 0.599163, 6.4932, 0, 0
49, 0.00000, 0.598733, 6.48813, 0.599192, 6.48972, 0.598722, 6.48857, 0, 0
50, 0.00000, 0.598733, 6.48813, 0.599192, 6.48971, 0.598722, 6.48857, 0, 0
51, 0.00000, 0.598733, 6.48813, 0.599192, 6.48971, 0.598722, 6.48857, 0, 0
52, 0.00000, 0.598733, 6.48813, 0.599192, 6.48971, 0.598722, 6.48857, 0, 0
53, 0.00000, 0.598733, 6.48813, 0.599192, 6.48971, 0.598722, 6.48857, 0, 0
54, 0.00000, 0.598733, 6.48813, 0.599192, 6.48971, 0.598722, 6.48857, 0, 0
55, 0.00000, 0.598733, 6.48813, 0.599192, 6.48971, 0.598722, 6.48857, 0, 0
56, 0.00000, 0.598733, 6.48813, 0.599192, 6.48971, 0.598722, 6.48857, 0, 0
57, 0.00000, 0.598733, 6.48813, 0.599192, 6.48971, 0.598722, 6.48857, 0, 0
58, 0.00000, 0.598733, 6.48813, 0.599192, 6.48971, 0.598722, 6.48857, 0, 0
59, 0.00000, 0.598733, 6.48813, 0.599192, 6.48971, 0.598722, 6.48857, 0, 0
60, 0.00000, 0.598733, 6.48813, 0.599192, 6.48971, 0.598722, 6.48857, 0, 0
61, 0.00000, 0.598733, 6.48813, 0.599192, 6.48971, 0.598722, 6.48857, 0, 0
62, 0.00000, 0.598733, 6.48813, 0.599192, 6.48971, 0.598722, 6.48857, 0, 0
63, 0.00000, 0.598733, 6.48813, 0.599192, 6.48971, 0.598722, 6.48857, 0, 0
64, 0.00000, 0.598733, 6.48813, 0.599192, 6.48971, 0.598722, 6.48857, 0, 0
65, 0.00000, 0.598733, 6.48813, 0.599192, 6.48971, 0.598722, 6.48857, 0, 0
66, 0.00000, 0.598731, 6.4881, 0.59919, 6.48969, 0.59872, 6.48855, 0, 0
67, 0.00000, 0.59871, 6.48787, 0.59917, 6.48947, 0.598698, 6.48832, 0, 0
68, 0.00000, 0.598657, 6.48729, 0.59912, 6.48891, 0.598644, 6.48776, 0, 0
69, 0.00000, 0.598174, 6.48198, 0.598669, 6.48382, 0.598141, 6.4826, 0, 0
70, 0.00000, 0.59683, 6.46719, 0.597418, 6.46968, 0.596742, 6.46825, 0, 0
71, 0.00000, 0.596738, 6.46618, 0.597333, 6.46872, 0.596647, 6.46727, 0, 0
72, 0.00000, 0.596738, 6.46618, 0.597333, 6.46872, 0.596647, 6.46727, 0, 0
73, 0.00000, 0.594494, 6.442, 0.59524, 6.4452, 0.594377, 6.44338, 0, 0
74, 0.00000, 0.594493, 6.442, 0.59524, 6.44519, 0.594376, 6.44338, 0, 0
75, 0.00000, 0.594493, 6.442, 0.59524, 6.44519, 0.594376, 6.44338, 0, 0
76, 0.00000, 0.594493, 6.442, 0.59524, 6.44519, 0.594376, 6.44338, 0, 0
77, 0.00000, 0.594493, 6.442, 0.59524, 6.44519, 0.594376, 6.44338, 0, 0
78, 0.00000, 0.594493, 6.442, 0.59524, 6.44519, 0.594376, 6.44338, 0, 0
79, 0.00000, 0.594493, 6.442, 0.59524, 6.44519, 0.594376, 6.44338, 0, 0
80, 0.00000, 0.594493, 6.442, 0.59524, 6.44519, 0.594376, 6.44338, 0, 0
81, 0.00000, 0.594493, 6.442, 0.59524, 6.44519, 0.594376, 6.44338, 0, 0
82, 0.00000, 0.594493, 6.442, 0.59524, 6.44519, 0.594376, 6.44338, 0, 0
83, 0.00000, 0.594493, 6.442, 0.59524, 6.44519, 0.594376, 6.44338, 0, 0
84, 0.00000, 0.594493, 6.442, 0.59524, 6.44519, 0.594376, 6.44338, 0, 0
85, 0.00000, 0.594493, 6.442, 0.59524, 6.44519, 0.594376, 6.44338, 0, 0
86, 0.00000, 0.594493, 6.442, 0.59524, 6.44519, 0.594376, 6.44338, 0, 0
87, 0.00000, 0.594493, 6.442, 0.59524, 6.44519, 0.594376, 6.44338, 0, 0
88, 0.00000, 0.594493, 6.442, 0.59524, 6.44519, 0.594376, 6.44338, 0, 0
89, 0.00000, 0.594493, 6.442, 0.59524, 6.44519, 0.594376, 6.44338, 0, 0
90, 0.00000, 0.594493, 6.442, 0.59524, 6.44519, 0.594376, 6.44338, 0, 0
91, 0.00000, 0.594493, 6.442, 0.59524, 6.44519, 0.594376, 6.44338, 0, 0
92, 0.00000, 0.594493, 6.442, 0.59524, 6.44519, 0.594376, 6.44338, 0, 0
93, 0.00000, 0.594493, 6.442, 0.59524, 6.44519, 0.594376, 6.44338, 0, 0
94, 0.00000, 0.594493, 6.442, 0.59524, 6.44519, 0.594376, 6.44338, 0, 0
95, 0.00000, 0.594493, 6.442, 0.59524, 6.44519, 0.594376, 6.44338, 0, 0
96, 0.00000, 0.594493, 6.442, 0.59524, 6.44519, 0.594376, 6.44338, 0, 0
