hour, t(sec), P1 (kW), Q1 (kvar), P2 (kW), Q2 (kvar), P3 (kW), Q3 (kvar), P4 (kW), Q4 (kvar)
1, 0.00000, 21.1723, 10.2176, 21.1842, 10.218, 21.1804, 10.2142, 0, 0
2, 0.00000, 21.1729, 10.2179, 21.1848, 10.2183, 21.1811, 10.2145, 0, 0
3, 0.00000, 21.1729, 10.2179, 21.1848, 10.2183, 21.1811, 10.2145, 0, 0
4, 0.00000, 21.1729, 10.2179, 21.1848, 10.2183, 21.1811, 10.2145, 0, 0
5, 0.00000, 21.1729, 10.2179, 21.1848, 10.2183, 21.1811, 10.2145, 0, 0
6, 0.00000, 21.1729, 10.2179, 21.1848, 10.2183, 21.1811, 10.2145, 0, 0
7, 0.00000, 21.1729, 10.2179, 21.1848, 10.2183, 21.1811, 10.2145, 0, 0
8, 0.00000, 21.1729, 10.2179, 21.1848, 10.2183, 21.1811, 10.2145, 0, 0
9, 0.00000, 21.1729, 10.2179, 21.1848, 10.2183, 21.1811, 10.2145, 0, 0
10, 0.00000, 21.1729, 10.2179, 21.1848, 10.2183, 21.1811, 10.2145, 0, 0
11, 0.00000, 21.1729, 10.2179, 21.1848, 10.2183, 21.1811, 10.2145, 0, 0
12, 0.00000, 21.1729, 10.2179, 21.1848, 10.2183, 21.1811, 10.2145, 0, 0
13, 0.00000, 21.1729, 10.2179, 21.1848, 10.2183, 21.1811, 10.2145, 0, 0
14, 0.00000, 21.1729, 10.2179, 21.1848, 10.2183, 21.1811, 10.2145, 0, 0
15, 0.00000, 21.1729, 10.2179, 21.1848, 10.2183, 21.1811, 10.2145, 0, 0
16, 0.00000, 21.1729, 10.2179, 21.1848, 10.2183, 21.1811, 10.2145, 0, 0
17, 0.00000, 21.1729, 10.2179, 21.1848, 10.2183, 21.1811, 10.2145, 0, 0
18, 0.00000, 21.1729, 10.2179, 21.1848, 10.2183, 21.1811, 10.2145, 0, 0
19, 0.00000, 21.1729, 10.2179, 21.1848, 10.2183, 21.1811, 10.2145, 0, 0
20, 0.00000, 21.1729, 10.2179, 21.1848, 10.2183, 21.1811, 10.2145, 0, 0
21, 0.00000, 21.1729, 10.2179, 21.1848, 10.2183, 21.1811, 10.2145, 0, 0
22, 0.00000, 21.1729, 10.2179, 21.1848, 10.2183, 21.1811, 10.2145, 0, 0
23, 0.00000, 21.1735, 10.2182, 21.1852, 10.2185, 21.1815, 10.2148, 0, 0
24, 0.00000, 17.7372, 10.0252, 17.7468, 10.0259, 17.7438, 10.0227, 0, 0
25, 0.00000, 14.32, 9.8684, 14.3274, 9.86922, 14.3251, 9.86664, 0, 0
26, 0.00000, 12.6182, 9.80318, 12.6247, 9.80414, 12.6228, 9.80179, 0, 0
27, 0.00000, 10.5808, 9.73689, 10.5861, 9.73778, 10.5845, 9.73582, 0, 0
28, 0.00000, 10.5808, 9.73708, 10.5859, 9.73786, 10.5844, 9.73597, 0, 0
29, 0.00000, 10.5808, 9.73712, 10.5859, 9.73788, 10.5843, 9.73601, 0, 0
30, 0.00000, 10.5808, 9.73714, 10.5859, 9.73789, 10.5843, 9.73602, 0, 0
31, 0.00000, 10.5808, 9.73714, 10.5859, 9.73789, 10.5843, 9.73602, 0, 0
32, 0.00000, 10.5808, 9.73715, 10.5859, 9.73789, 10.5843, 9.73603, 0, 0
33, 0.00000, 10.5808, 9.73715, 10.5859, 9.7379, 10.5843, 9.73603, 0, 0
34, 0.00000, 10.5808, 9.73715, 10.5859, 9.7379, 10.5843, 9.73603, 0, 0
35, 0.00000, 10.5808, 9.73713, 10.5859, 9.73788, 10.5843, 9.73602, 0, 0
36, 0.00000, 10.5808, 9.73714, 10.5859, 9.73789, 10.5843, 9.73602, 0, 0
37, 0.00000, 10.5808, 9.73715, 10.5859, 9.7379, 10.5843, 9.73603, 0, 0
38, 0.00000, 10.5808, 9.73715, 10.5859, 9.7379, 10.5843, 9.73604, 0, 0
39, 0.00000, 10.5808, 9.73715, 10.5859, 9.7379, 10.5843, 9.73604, 0, 0
40, 0.00000, 10.5808, 9.73715, 10.5859, 9.7379, 10.5843, 9.73604, 0, 0
41, 0.00000, 10.5808, 9.73715, 10.5859, 9.7379, 10.5843, 9.73604, 0, 0
42, 0.00000, 10.5808, 9.73715, 10.5859, 9.7379, 10.5843, 9.73604, 0, 0
43, 0.00000, 10.5808, 9.73715, 10.5859, 9.7379, 10.5843, 9.73604, 0, 0
44, 0.00000, 10.5808, 9.73715, 10.5859, 9.7379, 10.5843, 9.73604, 0, 0
45, 0.00000, 10.5808, 9.73715, 10.5859, 9.7379, 10.5843, 9.73604, 0, 0
46, 0.00000, 10.5808, 9.73715, 10.5859, 9.7379, 10.5843, 9.73604, 0, 0
47, 0.00000, 10.5808, 9.73715, 10.5859, 9.7379, 10.5843, 9.73604, 0, 0
48, 0.00000, 10.5808, 9.73715, 10.5859, 9.7379, 10.5843, 9.73604, 0, 0
49, 0.00000, 10.5805, 9.73645, 10.586, 9.73736, 10.5843, 9.73532, 0, 0
50, 0.00000, 10.5806, 9.73651, 10.5861, 9.73742, 10.5845, 9.73538, 0, 0
51, 0.00000, 10.5806, 9.73651, 10.5861, 9.73742, 10.5845, 9.73538, 0, 0
52, 0.00000, 10.5806, 9.73651, 10.5861, 9.73742, 10.5845, 9.73538, 0, 0
53, 0.00000, 10.5806, 9.73651, 10.5861, 9.73742, 10.5845, 9.73538, 0, 0
54, 0.00000, 10.5806, 9.73651, 10.5861, 9.73742, 10.5845, 9.73538, 0, 0
55, 0.00000, 10.5806, 9.73651, 10.5861, 9.73742, 10.5845, 9.73538, 0, 0
56, 0.00000, 10.5806, 9.73651, 10.5861, 9.73742, 10.5845, 9.73538, 0, 0
57, 0.00000, 10.5806, 9.73651, 10.5861, 9.73742, 10.5845, 9.73538, 0, 0
58, 0.00000, 10.5806, 9.73651, 10.5861, 9.73742, 10.5845, 9.73538, 0, 0
59, 0.00000, 10.5806, 9.73651, 10.5861, 9.73742, 10.5845, 9.73538, 0, 0
60, 0.00000, 10.5806, 9.73651, 10.5861, 9.73742, 10.5845, 9.73538, 0, 0
61, 0.00000, 10.5806, 9.73651, 10.5861, 9.73742, 10.5845, 9.73538, 0, 0
62, 0.00000, 10.5806, 9.73651, 10.5861, 9.73742, 10.5845, 9.73538, 0, 0
63, 0.00000, 10.5806, 9.73651, 10.5861, 9.73742, 10.5845, 9.73538, 0, 0
64, 0.00000, 10.5806, 9.73651, 10.5861, 9.73742, 10.5845, 9.73538, 0, 0
65, 0.00000, 10.5806, 9.73651, 10.5861, 9.73742, 10.5845, 9.73538, 0, 0
66, 0.00000, 10.5806, 9.73651, 10.5861, 9.73742, 10.5845, 9.73538, 0, 0
67, 0.00000, 10.5806, 9.7365, 10.5861, 9.73741, 10.5845, 9.73536, 0, 0
68, 0.00000, 10.5806, 9.73643, 10.5862, 9.73737, 10.5845, 9.73531, 0, 0
69, 0.00000, 10.9209, 9.74597, 10.927, 9.74727, 10.9252, 9.74492, 0, 0
70, 0.00000, 21.171, 10.2171, 21.1835, 10.2175, 21.1796, 10.2135, 0, 0
71, 0.00000, 21.173, 10.2182, 21.1857, 10.2187, 21.1817, 10.2146, 0, 0
72, 0.00000, 21.1731, 10.2182, 21.1857, 10.2187, 21.1818, 10.2146, 0, 0
73, 0.00000, 21.1719, 10.2187, 21.188, 10.2194, 21.1829, 10.2142, 0, 0
74, 0.00000, 21.1738, 10.2197, 21.1898, 10.2203, 21.1848, 10.2152, 0, 0
75, 0.00000, 21.1738, 10.2197, 21.1898, 10.2203, 21.1848, 10.2152, 0, 0
76, 0.00000, 21.1738, 10.2197, 21.1898, 10.2203, 21.1848, 10.2152, 0, 0
77, 0.00000, 21.1738, 10.2197, 21.1898, 10.2203, 21.1848, 10.2152, 0, 0
78, 0.00000, 21.1738, 10.2197, 21.1898, 10.2203, 21.1848, 10.2152, 0, 0
79, 0.00000, 21.1738, 10.2197, 21.1898, 10.2203, 21.1848, 10.2152, 0, 0
80, 0.00000, 21.1738, 10.2197, 21.1898, 10.2203, 21.1848, 10.2152, 0, 0
81, 0.00000, 21.1738, 10.2197, 21.1898, 10.2203, 21.1848, 10.2152, 0, 0
82, 0.00000, 21.1738, 10.2197, 21.1898, 10.2203, 21.1848, 10.2152, 0, 0
83, 0.00000, 21.1738, 10.2197, 21.1898, 10.2203, 21.1848, 10.2152, 0, 0
84, 0.00000, 21.1738, 10.2197, 21.1898, 10.2203, 21.1848, 10.2152, 0, 0
85, 0.00000, 21.1738, 10.2197, 21.1898, 10.2203, 21.1848, 10.2152, 0, 0
86, 0.00000, 21.1738, 10.2197, 21.1898, 10.2203, 21.1848, 10.2152, 0, 0
87, 0.00000, 21.1738, 10.2197, 21.1898, 10.2203, 21.1848, 10.2152, 0, 0
88, 0.00000, 21.1738, 10.2197, 21.1898, 10.2203, 21.1848, 10.2152, 0, 0
89, 0.00000, 21.1738, 10.2197, 21.1898, 10.2203, 21.1848, 10.2152, 0, 0
90, 0.00000, 21.1738, 10.2197, 21.1898, 10.2203, 21.1848, 10.2152, 0, 0
91, 0.00000, 21.1738, 10.2197, 21.1898, 10.2203, 21.1848, 10.2152, 0, 0
92, 0.00000, 21.1738, 10.2197, 21.1898, 10.2203, 21.1848, 10.2152, 0, 0
93, 0.00000, 21.1738, 10.2197, 21.1898, 10.2203, 21.1848, 10.2152, 0, 0
94, 0.00000, 21.1738, 10.2197, 21.1898, 10.2203, 21.1848, 10.2152, 0, 0
95, 0.00000, 21.1738, 10.2197, 21.1898, 10.2203, 21.1848, 10.2152, 0, 0
96, 0.00000, 21.1738, 10.2197, 21.1898, 10.2203, 21.1848, 10.2152, 0, 0
