hour, t(sec), P1 (kW), Q1 (kvar), P2 (kW), Q2 (kvar), P3 (kW), Q3 (kvar), P4 (kW), Q4 (kvar)
1, 0.00000, 48.1786, 26.6457, 48.1969, 26.6472, 48.1911, 26.6411, 0, 0
2, 0.00000, 48.179, 26.6459, 48.1973, 26.6475, 48.1915, 26.6414, 0, 0
3, 0.00000, 48.179, 26.6459, 48.1973, 26.6475, 48.1915, 26.6414, 0, 0
4, 0.00000, 48.179, 26.6459, 48.1973, 26.6475, 48.1915, 26.6414, 0, 0
5, 0.00000, 48.179, 26.6459, 48.1973, 26.6475, 48.1915, 26.6414, 0, 0
6, 0.00000, 48.179, 26.6459, 48.1973, 26.6475, 48.1915, 26.6414, 0, 0
7, 0.00000, 48.179, 26.6459, 48.1973, 26.6475, 48.1915, 26.6414, 0, 0
8, 0.00000, 48.179, 26.6459, 48.1973, 26.6475, 48.1915, 26.6414, 0, 0
9, 0.00000, 48.179, 26.6459, 48.1973, 26.6475, 48.1915, 26.6414, 0, 0
10, 0.00000, 48.179, 26.6459, 48.1973, 26.6475, 48.1915, 26.6414, 0, 0
11, 0.00000, 48.179, 26.6459, 48.1973, 26.6475, 48.1915, 26.6414, 0, 0
12, 0.00000, 48.179, 26.6459, 48.1973, 26.6475, 48.1915, 26.6414, 0, 0
13, 0.00000, 48.179, 26.6459, 48.1973, 26.6475, 48.1915, 26.6414, 0, 0
14, 0.00000, 48.179, 26.6459, 48.1973, 26.6475, 48.1915, 26.6414, 0, 0
15, 0.00000, 48.179, 26.6459, 48.1973, 26.6475, 48.1915, 26.6414, 0, 0
16, 0.00000, 48.179, 26.6459, 48.1973, 26.6475, 48.1915, 26.6414, 0, 0
17, 0.00000, 48.179, 26.6459, 48.1973, 26.6475, 48.1915, 26.6414, 0, 0
18, 0.00000, 48.179, 26.6459, 48.1973, 26.6475, 48.1915, 26.6414, 0, 0
19, 0.00000, 48.179, 26.6459, 48.1973, 26.6475, 48.1915, 26.6414, 0, 0
20, 0.00000, 48.179, 26.6459, 48.1973, 26.6475, 48.1915, 26.6414, 0, 0
21, 0.00000, 48.179, 26.6459, 48.1973, 26.6475, 48.1915, 26.6414, 0, 0
22, 0.00000, 48.179, 26.6459, 48.1973, 26.6475, 48.1915, 26.6414, 0, 0
23, 0.00000, 48.1806, 26.6472, 48.1984, 26.6484, 48.1927, 26.6425, 0, 0
24, 0.00000, 48.1799, 26.6474, 48.1966, 26.648, 48.191, 26.6427, 0, 0
25, 0.00000, 48.1811, 26.6494, 48.1955, 26.6489, 48.1905, 26.6446, 0, 0
26, 0.00000, 48.1809, 26.6496, 48.1947, 26.6488, 48.1898, 26.6448, 0, 0
27, 0.00000, 48.1816, 26.651, 48.1938, 26.6492, 48.1892, 26.6461, 0, 0
28, 0.00000, 48.1817, 26.6513, 48.1935, 26.6493, 48.1888, 26.6463, 0, 0
29, 0.00000, 48.1817, 26.6514, 48.1933, 26.6493, 48.1887, 26.6465, 0, 0
30, 0.00000, 48.1818, 26.6516, 48.1931, 26.6494, 48.1886, 26.6466, 0, 0
31, 0.00000, 48.1819, 26.6517, 48.1931, 26.6494, 48.1886, 26.6467, 0, 0
32, 0.00000, 48.1819, 26.6519, 48.1929, 26.6494, 48.1884, 26.6469, 0, 0
33, 0.00000, 48.1819, 26.6518, 48.193, 26.6495, 48.1885, 26.6468, 0, 0
34, 0.00000, 48.1819, 26.6519, 48.1929, 26.6495, 48.1884, 26.6469, 0, 0
35, 0.00000, 48.1818, 26.6515, 48.1932, 26.6493, 48.1887, 26.6465, 0, 0
36, 0.00000, 48.1818, 26.6516, 48.1931, 26.6494, 48.1886, 26.6466, 0, 0
37, 0.00000, 48.1819, 26.6519, 48.1929, 26.6495, 48.1885, 26.6469, 0, 0
38, 0.00000, 48.182, 26.6519, 48.1929, 26.6495, 48.1885, 26.6469, 0, 0
39, 0.00000, 48.182, 26.6519, 48.1929, 26.6495, 48.1885, 26.6469, 0, 0
40, 0.00000, 48.182, 26.6519, 48.1929, 26.6495, 48.1885, 26.6469, 0, 0
41, 0.00000, 48.182, 26.6519, 48.1929, 26.6495, 48.1885, 26.6469, 0, 0
42, 0.00000, 48.182, 26.6519, 48.1929, 26.6495, 48.1885, 26.6469, 0, 0
43, 0.00000, 48.182, 26.6519, 48.1929, 26.6495, 48.1885, 26.6469, 0, 0
44, 0.00000, 48.182, 26.6519, 48.1929, 26.6495, 48.1885, 26.6469, 0, 0
45, 0.00000, 48.182, 26.6519, 48.1929, 26.6495, 48.1885, 26.6469, 0, 0
46, 0.00000, 48.182, 26.6519, 48.1929, 26.6495, 48.1885, 26.6469, 0, 0
47, 0.00000, 48.182, 26.6519, 48.1929, 26.6495, 48.1885, 26.6469, 0, 0
48, 0.00000, 48.182, 26.6519, 48.1929, 26.6495, 48.1885, 26.6469, 0, 0
49, 0.00000, 48.1815, 26.6512, 48.1933, 26.6489, 48.1886, 26.6461, 0, 0
50, 0.00000, 48.1817, 26.6514, 48.1935, 26.649, 48.1888, 26.6462, 0, 0
51, 0.00000, 48.1817, 26.6514, 48.1935, 26.649, 48.1888, 26.6462, 0, 0
52, 0.00000, 48.1817, 26.6514, 48.1935, 26.649, 48.1888, 26.6462, 0, 0
53, 0.00000, 48.1817, 26.6514, 48.1935, 26.649, 48.1888, 26.6462, 0, 0
54, 0.00000, 48.1817, 26.6514, 48.1935, 26.649, 48.1888, 26.6462, 0, 0
55, 0.00000, 48.1817, 26.6514, 48.1935, 26.649, 48.1888, 26.6462, 0, 0
56, 0.00000, 48.1817, 26.6514, 48.1935, 26.649, 48.1888, 26.6462, 0, 0
57, 0.00000, 48.1817, 26.6514, 48.1935, 26.649, 48.1888, 26.6462, 0, 0
58, 0.00000, 48.1817, 26.6514, 48.1935, 26.649, 48.1888, 26.6462, 0, 0
59, 0.00000, 48.1817, 26.6514, 48.1935, 26.649, 48.1888, 26.6462, 0, 0
60, 0.00000, 48.1817, 26.6514, 48.1935, 26.649, 48.1888, 26.6462, 0, 0
61, 0.00000, 48.1817, 26.6514, 48.1935, 26.649, 48.1888, 26.6462, 0, 0
62, 0.00000, 48.1817, 26.6514, 48.1935, 26.649, 48.1888, 26.6462, 0, 0
63, 0.00000, 48.1817, 26.6514, 48.1935, 26.649, 48.1888, 26.6462, 0, 0
64, 0.00000, 48.1817, 26.6514, 48.1935, 26.649, 48.1888, 26.6462, 0, 0
65, 0.00000, 48.1817, 26.6514, 48.1935, 26.649, 48.1888, 26.6462, 0, 0
66, 0.00000, 48.1817, 26.6513, 48.1935, 26.649, 48.1888, 26.6462, 0, 0
67, 0.00000, 48.1816, 26.6511, 48.1937, 26.6489, 48.1889, 26.6459, 0, 0
68, 0.00000, 48.1813, 26.6507, 48.1939, 26.6488, 48.1891, 26.6455, 0, 0
69, 0.00000, 48.1804, 26.6492, 48.1947, 26.6482, 48.1895, 26.6442, 0, 0
70, 0.00000, 48.1782, 26.6457, 48.1962, 26.6469, 48.1904, 26.641, 0, 0
71, 0.00000, 48.1789, 26.6457, 48.1974, 26.6473, 48.1915, 26.6411, 0, 0
72, 0.00000, 48.1789, 26.6458, 48.1974, 26.6474, 48.1916, 26.6412, 0, 0
73, 0.00000, 48.1762, 26.642, 48.1993, 26.6442, 48.1921, 26.6364, 0, 0
74, 0.00000, 48.1774, 26.6428, 48.2006, 26.6449, 48.1933, 26.6371, 0, 0
75, 0.00000, 48.1774, 26.6428, 48.2006, 26.6449, 48.1933, 26.6371, 0, 0
76, 0.00000, 48.1774, 26.6428, 48.2006, 26.6449, 48.1933, 26.6371, 0, 0
77, 0.00000, 48.1774, 26.6428, 48.2006, 26.6449, 48.1933, 26.6371, 0, 0
78, 0.00000, 48.1774, 26.6428, 48.2006, 26.6449, 48.1933, 26.6371, 0, 0
79, 0.00000, 48.1774, 26.6428, 48.2006, 26.6449, 48.1933, 26.6371, 0, 0
80, 0.00000, 48.1774, 26.6428, 48.2006, 26.6449, 48.1933, 26.6371, 0, 0
81, 0.00000, 48.1774, 26.6428, 48.2006, 26.6449, 48.1933, 26.6371, 0, 0
82, 0.00000, 48.1774, 26.6428, 48.2006, 26.6449, 48.1933, 26.6371, 0, 0
83, 0.00000, 48.1774, 26.6428, 48.2006, 26.6449, 48.1933, 26.6371, 0, 0
84, 0.00000, 48.1774, 26.6428, 48.2006, 26.6449, 48.1933, 26.6371, 0, 0
85, 0.00000, 48.1774, 26.6428, 48.2006, 26.6449, 48.1933, 26.6371, 0, 0
86, 0.00000, 48.1774, 26.6428, 48.2006, 26.6449, 48.1933, 26.6371, 0, 0
87, 0.00000, 48.1774, 26.6428, 48.2006, 26.6449, 48.1933, 26.6371, 0, 0
88, 0.00000, 48.1774, 26.6428, 48.2006, 26.6449, 48.1933, 26.6371, 0, 0
89, 0.00000, 48.1774, 26.6428, 48.2006, 26.6449, 48.1933, 26.6371, 0, 0
90, 0.00000, 48.1774, 26.6428, 48.2006, 26.6449, 48.1933, 26.6371, 0, 0
91, 0.00000, 48.1774, 26.6428, 48.2006, 26.6449, 48.1933, 26.6371, 0, 0
92, 0.00000, 48.1774, 26.6428, 48.2006, 26.6449, 48.1933, 26.6371, 0, 0
93, 0.00000, 48.1774, 26.6428, 48.2006, 26.6449, 48.1933, 26.6371, 0, 0
94, 0.00000, 48.1774, 26.6428, 48.2006, 26.6449, 48.1933, 26.6371, 0, 0
95, 0.00000, 48.1774, 26.6428, 48.2006, 26.6449, 48.1933, 26.6371, 0, 0
96, 0.00000, 48.1774, 26.6428, 48.2006, 26.6449, 48.1933, 26.6371, 0, 0
