hour, t(sec), P1 (kW), Q1 (kvar), P2 (kW), Q2 (kvar), P3 (kW), Q3 (kvar), P4 (kW), Q4 (kvar)
1, 0.00000, 0.320781, 0.767209, 0.320968, 0.767559, 0.320832, 0.767334, 0, 0
2, 0.00000, 0.320781, 0.767209, 0.320969, 0.767559, 0.320833, 0.767335, 0, 0
3, 0.00000, 0.320781, 0.767209, 0.320969, 0.767559, 0.320833, 0.767335, 0, 0
4, 0.00000, 0.320781, 0.767209, 0.320969, 0.767559, 0.320833, 0.767335, 0, 0
5, 0.00000, 0.320781, 0.767209, 0.320969, 0.767559, 0.320833, 0.767335, 0, 0
6, 0.00000, 0.320781, 0.767209, 0.320969, 0.767559, 0.320833, 0.767335, 0, 0
7, 0.00000, 0.320781, 0.767209, 0.320969, 0.767559, 0.320833, 0.767335, 0, 0
8, 0.00000, 0.320781, 0.767209, 0.320969, 0.767559, 0.320833, 0.767335, 0, 0
9, 0.00000, 0.320781, 0.767209, 0.320969, 0.767559, 0.320833, 0.767335, 0, 0
10, 0.00000, 0.320781, 0.767209, 0.320969, 0.767559, 0.320833, 0.767335, 0, 0
11, 0.00000, 0.320781, 0.767209, 0.320969, 0.767559, 0.320833, 0.767335, 0, 0
12, 0.00000, 0.320781, 0.767209, 0.320969, 0.767559, 0.320833, 0.767335, 0, 0
13, 0.00000, 0.320781, 0.767209, 0.320969, 0.767559, 0.320833, 0.767335, 0, 0
14, 0.00000, 0.320781, 0.767209, 0.320969, 0.767559, 0.320833, 0.767335, 0, 0
15, 0.00000, 0.320781, 0.767209, 0.320969, 0.767559, 0.320833, 0.767335, 0, 0
16, 0.00000, 0.320781, 0.767209, 0.320969, 0.767559, 0.320833, 0.767335, 0, 0
17, 0.00000, 0.320781, 0.767209, 0.320969, 0.767559, 0.320833, 0.767335, 0, 0
18, 0.00000, 0.320781, 0.767209, 0.320969, 0.767559, 0.320833, 0.767335, 0, 0
19, 0.00000, 0.320781, 0.767209, 0.320969, 0.767559, 0.320833, 0.767335, 0, 0
20, 0.00000, 0.320781, 0.767209, 0.320969, 0.767559, 0.320833, 0.767335, 0, 0
21, 0.00000, 0.320781, 0.767209, 0.320969, 0.767559, 0.320833, 0.767335, 0, 0
22, 0.00000, 0.320781, 0.767209, 0.320969, 0.767559, 0.320833, 0.767335, 0, 0
23, 0.00000, 0.320841, 0.767593, 0.321023, 0.76793, 0.320891, 0.76771, 0, 0
24, 0.00000, 0.320961, 0.768412, 0.321133, 0.768719, 0.321008, 0.76851, 0, 0
25, 0.00000, 0.328927, 0.773618, 0.329079, 0.773871, 0.328969, 0.773684, 0, 0
26, 0.00000, 0.328987, 0.774033, 0.329134, 0.774271, 0.329028, 0.77409, 0, 0
27, 0.00000, 0.329168, 0.775247, 0.329299, 0.775442, 0.329204, 0.775276, 0, 0
28, 0.00000, 0.329214, 0.775558, 0.329341, 0.775742, 0.329249, 0.775581, 0, 0
29, 0.00000, 0.329239, 0.775728, 0.329364, 0.775906, 0.329274, 0.775747, 0, 0
30, 0.00000, 0.329266, 0.775909, 0.329388, 0.776081, 0.3293, 0.775924, 0, 0
31, 0.00000, 0.329278, 0.775987, 0.329399, 0.776156, 0.329311, 0.776001, 0, 0
32, 0.00000, 0.329305, 0.776169, 0.329424, 0.776333, 0.329338, 0.776179, 0, 0
33, 0.00000, 0.329294, 0.776092, 0.329414, 0.776257, 0.329327, 0.776103, 0, 0
34, 0.00000, 0.329305, 0.776169, 0.329424, 0.776333, 0.329338, 0.776179, 0, 0
35, 0.00000, 0.329249, 0.775794, 0.329373, 0.775969, 0.329284, 0.775811, 0, 0
36, 0.00000, 0.329263, 0.775883, 0.329385, 0.776055, 0.329296, 0.775898, 0, 0
37, 0.00000, 0.329305, 0.77617, 0.329424, 0.776333, 0.329338, 0.776179, 0, 0
38, 0.00000, 0.329305, 0.77617, 0.329424, 0.776333, 0.329338, 0.776179, 0, 0
39, 0.00000, 0.329305, 0.77617, 0.329424, 0.776333, 0.329338, 0.776179, 0, 0
40, 0.00000, 0.329305, 0.77617, 0.329424, 0.776333, 0.329338, 0.776179, 0, 0
41, 0.00000, 0.329305, 0.77617, 0.329424, 0.776333, 0.329338, 0.776179, 0, 0
42, 0.00000, 0.329305, 0.77617, 0.329424, 0.776333, 0.329338, 0.776179, 0, 0
43, 0.00000, 0.329305, 0.77617, 0.329424, 0.776333, 0.329338, 0.776179, 0, 0
44, 0.00000, 0.329305, 0.77617, 0.329424, 0.776333, 0.329338, 0.776179, 0, 0
45, 0.00000, 0.329305, 0.77617, 0.329424, 0.776333, 0.329338, 0.776179, 0, 0
46, 0.00000, 0.329305, 0.77617, 0.329424, 0.776333, 0.329338, 0.776179, 0, 0
47, 0.00000, 0.329305, 0.77617, 0.329424, 0.776333, 0.329338, 0.776179, 0, 0
48, 0.00000, 0.329305, 0.77617, 0.329424, 0.776333, 0.329338, 0.776179, 0, 0
49, 0.00000, 0.356199, 0.787781, 0.356333, 0.787958, 0.356238, 0.787794, 0, 0
50, 0.00000, 0.356199, 0.787781, 0.356333, 0.787958, 0.356238, 0.787794, 0, 0
51, 0.00000, 0.356199, 0.787781, 0.356333, 0.787958, 0.356238, 0.787794, 0, 0
52, 0.00000, 0.356199, 0.787781, 0.356333, 0.787958, 0.356238, 0.787794, 0, 0
53, 0.00000, 0.356199, 0.787781, 0.356333, 0.787958, 0.356238, 0.787794, 0, 0
54, 0.00000, 0.356199, 0.787781, 0.356333, 0.787958, 0.356238, 0.787794, 0, 0
55, 0.00000, 0.356199, 0.787781, 0.356333, 0.787958, 0.356238, 0.787794, 0, 0
56, 0.00000, 0.356199, 0.787781, 0.356333, 0.787958, 0.356238, 0.787794, 0, 0
57, 0.00000, 0.356199, 0.787781, 0.356333, 0.787958, 0.356238, 0.787794, 0, 0
58, 0.00000, 0.356199, 0.787781, 0.356333, 0.787958, 0.356238, 0.787794, 0, 0
59, 0.00000, 0.356199, 0.787781, 0.356333, 0.787958, 0.356238, 0.787794, 0, 0
60, 0.00000, 0.356199, 0.787781, 0.356333, 0.787958, 0.356238, 0.787794, 0, 0
61, 0.00000, 0.356199, 0.787781, 0.356333, 0.787958, 0.356238, 0.787794, 0, 0
62, 0.00000, 0.356199, 0.787781, 0.356333, 0.787958, 0.356238, 0.787794, 0, 0
63, 0.00000, 0.356199, 0.787781, 0.356333, 0.787958, 0.356238, 0.787794, 0, 0
64, 0.00000, 0.356199, 0.787781, 0.356333, 0.787958, 0.356238, 0.787794, 0, 0
65, 0.00000, 0.356199, 0.787781, 0.356333, 0.787958, 0.356238, 0.787794, 0, 0
66, 0.00000, 0.356196, 0.787755, 0.35633, 0.787933, 0.356235, 0.787769, 0, 0
67, 0.00000, 0.356157, 0.787494, 0.356294, 0.787681, 0.356197, 0.787513, 0, 0
68, 0.00000, 0.356108, 0.787169, 0.35625, 0.787368, 0.35615, 0.787195, 0, 0
69, 0.00000, 0.355925, 0.785944, 0.356084, 0.786186, 0.355972, 0.785997, 0, 0
70, 0.00000, 0.355519, 0.783241, 0.355716, 0.78358, 0.355579, 0.783355, 0, 0
71, 0.00000, 0.355464, 0.782856, 0.355666, 0.78321, 0.355525, 0.78298, 0, 0
72, 0.00000, 0.355464, 0.782857, 0.355666, 0.78321, 0.355525, 0.78298, 0, 0
73, 0.00000, 0.482145, 0.836942, 0.482458, 0.837384, 0.482262, 0.83708, 0, 0
74, 0.00000, 0.482148, 0.836943, 0.482461, 0.837385, 0.482265, 0.837081, 0, 0
75, 0.00000, 0.482148, 0.836943, 0.482461, 0.837385, 0.482265, 0.837081, 0, 0
76, 0.00000, 0.482148, 0.836943, 0.482461, 0.837385, 0.482265, 0.837081, 0, 0
77, 0.00000, 0.482148, 0.836943, 0.482461, 0.837385, 0.482265, 0.837081, 0, 0
78, 0.00000, 0.482148, 0.836943, 0.482461, 0.837385, 0.482265, 0.837081, 0, 0
79, 0.00000, 0.482148, 0.836943, 0.482461, 0.837385, 0.482265, 0.837081, 0, 0
80, 0.00000, 0.482148, 0.836943, 0.482461, 0.837385, 0.482265, 0.837081, 0, 0
81, 0.00000, 0.482148, 0.836943, 0.482461, 0.837385, 0.482265, 0.837081, 0, 0
82, 0.00000, 0.482148, 0.836943, 0.482461, 0.837385, 0.482265, 0.837081, 0, 0
83, 0.00000, 0.482148, 0.836943, 0.482461, 0.837385, 0.482265, 0.837081, 0, 0
84, 0.00000, 0.482148, 0.836943, 0.482461, 0.837385, 0.482265, 0.837081, 0, 0
85, 0.00000, 0.482148, 0.836943, 0.482461, 0.837385, 0.482265, 0.837081, 0, 0
86, 0.00000, 0.482148, 0.836943, 0.482461, 0.837385, 0.482265, 0.837081, 0, 0
87, 0.00000, 0.482148, 0.836943, 0.482461, 0.837385, 0.482265, 0.837081, 0, 0
88, 0.00000, 0.482148, 0.836943, 0.482461, 0.837385, 0.482265, 0.837081, 0, 0
89, 0.00000, 0.482148, 0.836943, 0.482461, 0.837385, 0.482265, 0.837081, 0, 0
90, 0.00000, 0.482148, 0.836943, 0.482461, 0.837385, 0.482265, 0.837081, 0, 0
91, 0.00000, 0.482148, 0.836943, 0.482461, 0.837385, 0.482265, 0.837081, 0, 0
92, 0.00000, 0.482148, 0.836943, 0.482461, 0.837385, 0.482265, 0.837081, 0, 0
93, 0.00000, 0.482148, 0.836943, 0.482461, 0.837385, 0.482265, 0.837081, 0, 0
94, 0.00000, 0.482148, 0.836943, 0.482461, 0.837385, 0.482265, 0.837081, 0, 0
95, 0.00000, 0.482148, 0.836943, 0.482461, 0.837385, 0.482265, 0.837081, 0, 0
96, 0.00000, 0.482148, 0.836943, 0.482461, 0.837385, 0.482265, 0.837081, 0, 0
