hour, t(sec), P1 (kW), Q1 (kvar), P2 (kW), Q2 (kvar), P3 (kW), Q3 (kvar), P4 (kW), Q4 (kvar)
1, 0.00000, 0.169078, 0.558818, 0.16929, 0.55928, 0.169103, 0.559032, 0, 0
2, 0.00000, 0.169078, 0.558818, 0.16929, 0.559279, 0.169103, 0.559032, 0, 0
3, 0.00000, 0.169078, 0.558818, 0.16929, 0.559279, 0.169103, 0.559032, 0, 0
4, 0.00000, 0.169078, 0.558818, 0.16929, 0.559279, 0.169103, 0.559032, 0, 0
5, 0.00000, 0.169078, 0.558818, 0.16929, 0.559279, 0.169103, 0.559032, 0, 0
6, 0.00000, 0.169078, 0.558818, 0.16929, 0.559279, 0.169103, 0.559032, 0, 0
7, 0.00000, 0.169078, 0.558818, 0.16929, 0.559279, 0.169103, 0.559032, 0, 0
8, 0.00000, 0.169078, 0.558818, 0.16929, 0.559279, 0.169103, 0.559032, 0, 0
9, 0.00000, 0.169078, 0.558818, 0.16929, 0.559279, 0.169103, 0.559032, 0, 0
10, 0.00000, 0.169078, 0.558818, 0.16929, 0.559279, 0.169103, 0.559032, 0, 0
11, 0.00000, 0.169078, 0.558818, 0.16929, 0.559279, 0.169103, 0.559032, 0, 0
12, 0.00000, 0.169078, 0.558818, 0.16929, 0.559279, 0.169103, 0.559032, 0, 0
13, 0.00000, 0.169078, 0.558818, 0.16929, 0.559279, 0.169103, 0.559032, 0, 0
14, 0.00000, 0.169078, 0.558818, 0.16929, 0.559279, 0.169103, 0.559032, 0, 0
15, 0.00000, 0.169078, 0.558818, 0.16929, 0.559279, 0.169103, 0.559032, 0, 0
16, 0.00000, 0.169078, 0.558818, 0.16929, 0.559279, 0.169103, 0.559032, 0, 0
17, 0.00000, 0.169078, 0.558818, 0.16929, 0.559279, 0.169103, 0.559032, 0, 0
18, 0.00000, 0.169078, 0.558818, 0.16929, 0.559279, 0.169103, 0.559032, 0, 0
19, 0.00000, 0.169078, 0.558818, 0.16929, 0.559279, 0.169103, 0.559032, 0, 0
20, 0.00000, 0.169078, 0.558818, 0.16929, 0.559279, 0.169103, 0.559032, 0, 0
21, 0.00000, 0.169078, 0.558818, 0.16929, 0.559279, 0.169103, 0.559032, 0, 0
22, 0.00000, 0.169078, 0.558818, 0.16929, 0.559279, 0.169103, 0.559032, 0, 0
23, 0.00000, 0.169123, 0.558968, 0.169333, 0.559424, 0.169148, 0.559178, 0, 0
24, 0.00000, 0.169351, 0.559725, 0.16955, 0.56015, 0.169374, 0.559913, 0, 0
25, 0.00000, 0.169697, 0.560873, 0.16988, 0.561251, 0.169717, 0.561025, 0, 0
26, 0.00000, 0.169836, 0.561336, 0.170012, 0.561696, 0.169856, 0.561475, 0, 0
27, 0.00000, 0.170172, 0.562452, 0.170333, 0.562767, 0.170189, 0.562559, 0, 0
28, 0.00000, 0.170253, 0.562722, 0.17041, 0.563026, 0.17027, 0.562821, 0, 0
29, 0.00000, 0.170274, 0.56279, 0.17043, 0.563092, 0.17029, 0.562887, 0, 0
30, 0.00000, 0.17028, 0.562809, 0.170435, 0.56311, 0.170296, 0.562906, 0, 0
31, 0.00000, 0.170282, 0.562815, 0.170437, 0.563116, 0.170298, 0.562912, 0, 0
32, 0.00000, 0.170286, 0.562829, 0.170441, 0.56313, 0.170302, 0.562925, 0, 0
33, 0.00000, 0.170284, 0.562824, 0.170439, 0.563124, 0.1703, 0.56292, 0, 0
34, 0.00000, 0.170286, 0.562829, 0.170441, 0.56313, 0.170302, 0.562925, 0, 0
35, 0.00000, 0.170276, 0.562798, 0.170432, 0.563099, 0.170293, 0.562895, 0, 0
36, 0.00000, 0.170279, 0.562807, 0.170435, 0.563108, 0.170295, 0.562904, 0, 0
37, 0.00000, 0.170286, 0.562829, 0.170441, 0.56313, 0.170302, 0.562925, 0, 0
38, 0.00000, 0.170286, 0.562829, 0.170441, 0.56313, 0.170302, 0.562925, 0, 0
39, 0.00000, 0.170286, 0.562829, 0.170441, 0.56313, 0.170302, 0.562925, 0, 0
40, 0.00000, 0.170286, 0.562829, 0.170441, 0.56313, 0.170302, 0.562925, 0, 0
41, 0.00000, 0.170286, 0.562829, 0.170441, 0.56313, 0.170302, 0.562925, 0, 0
42, 0.00000, 0.170286, 0.562829, 0.170441, 0.56313, 0.170302, 0.562925, 0, 0
43, 0.00000, 0.170286, 0.562829, 0.170441, 0.56313, 0.170302, 0.562925, 0, 0
44, 0.00000, 0.170286, 0.562829, 0.170441, 0.56313, 0.170302, 0.562925, 0, 0
45, 0.00000, 0.170286, 0.562829, 0.170441, 0.56313, 0.170302, 0.562925, 0, 0
46, 0.00000, 0.170286, 0.562829, 0.170441, 0.56313, 0.170302, 0.562925, 0, 0
47, 0.00000, 0.170286, 0.562829, 0.170441, 0.56313, 0.170302, 0.562925, 0, 0
48, 0.00000, 0.170286, 0.562829, 0.170441, 0.56313, 0.170302, 0.562925, 0, 0
49, 0.00000, 0.169996, 0.561872, 0.170163, 0.5622, 0.170013, 0.561981, 0, 0
50, 0.00000, 0.169996, 0.561872, 0.170163, 0.562199, 0.170013, 0.561981, 0, 0
51, 0.00000, 0.169996, 0.561872, 0.170163, 0.562199, 0.170013, 0.561981, 0, 0
52, 0.00000, 0.169996, 0.561872, 0.170163, 0.562199, 0.170013, 0.561981, 0, 0
53, 0.00000, 0.169996, 0.561872, 0.170163, 0.562199, 0.170013, 0.561981, 0, 0
54, 0.00000, 0.169996, 0.561872, 0.170163, 0.562199, 0.170013, 0.561981, 0, 0
55, 0.00000, 0.169996, 0.561872, 0.170163, 0.562199, 0.170013, 0.561981, 0, 0
56, 0.00000, 0.169996, 0.561872, 0.170163, 0.562199, 0.170013, 0.561981, 0, 0
57, 0.00000, 0.169996, 0.561872, 0.170163, 0.562199, 0.170013, 0.561981, 0, 0
58, 0.00000, 0.169996, 0.561872, 0.170163, 0.562199, 0.170013, 0.561981, 0, 0
59, 0.00000, 0.169996, 0.561872, 0.170163, 0.562199, 0.170013, 0.561981, 0, 0
60, 0.00000, 0.169996, 0.561872, 0.170163, 0.562199, 0.170013, 0.561981, 0, 0
61, 0.00000, 0.169996, 0.561872, 0.170163, 0.562199, 0.170013, 0.561981, 0, 0
62, 0.00000, 0.169996, 0.561872, 0.170163, 0.562199, 0.170013, 0.561981, 0, 0
63, 0.00000, 0.169996, 0.561872, 0.170163, 0.562199, 0.170013, 0.561981, 0, 0
64, 0.00000, 0.169996, 0.561872, 0.170163, 0.562199, 0.170013, 0.561981, 0, 0
65, 0.00000, 0.169996, 0.561872, 0.170163, 0.562199, 0.170013, 0.561981, 0, 0
66, 0.00000, 0.169995, 0.56187, 0.170162, 0.562197, 0.170013, 0.561979, 0, 0
67, 0.00000, 0.169989, 0.56185, 0.170156, 0.562178, 0.170007, 0.561959, 0, 0
68, 0.00000, 0.169963, 0.561765, 0.170132, 0.562095, 0.169981, 0.561876, 0, 0
69, 0.00000, 0.169658, 0.56075, 0.169841, 0.561121, 0.169678, 0.560891, 0, 0
70, 0.00000, 0.168795, 0.557885, 0.169019, 0.558372, 0.168822, 0.55811, 0, 0
71, 0.00000, 0.168749, 0.557733, 0.168975, 0.558225, 0.168776, 0.557962, 0, 0
72, 0.00000, 0.168749, 0.557733, 0.168975, 0.558225, 0.168776, 0.557962, 0, 0
73, 0.00000, 0.167338, 0.553079, 0.167622, 0.553698, 0.167372, 0.553368, 0, 0
74, 0.00000, 0.167338, 0.553077, 0.167621, 0.553696, 0.167372, 0.553366, 0, 0
75, 0.00000, 0.167338, 0.553077, 0.167621, 0.553696, 0.167372, 0.553366, 0, 0
76, 0.00000, 0.167338, 0.553077, 0.167621, 0.553696, 0.167372, 0.553366, 0, 0
77, 0.00000, 0.167338, 0.553077, 0.167621, 0.553696, 0.167372, 0.553366, 0, 0
78, 0.00000, 0.167338, 0.553077, 0.167621, 0.553696, 0.167372, 0.553366, 0, 0
79, 0.00000, 0.167338, 0.553077, 0.167621, 0.553696, 0.167372, 0.553366, 0, 0
80, 0.00000, 0.167338, 0.553077, 0.167621, 0.553696, 0.167372, 0.553366, 0, 0
81, 0.00000, 0.167338, 0.553077, 0.167621, 0.553696, 0.167372, 0.553366, 0, 0
82, 0.00000, 0.167338, 0.553077, 0.167621, 0.553696, 0.167372, 0.553366, 0, 0
83, 0.00000, 0.167338, 0.553077, 0.167621, 0.553696, 0.167372, 0.553366, 0, 0
84, 0.00000, 0.167338, 0.553077, 0.167621, 0.553696, 0.167372, 0.553366, 0, 0
85, 0.00000, 0.167338, 0.553077, 0.167621, 0.553696, 0.167372, 0.553366, 0, 0
86, 0.00000, 0.167338, 0.553077, 0.167621, 0.553696, 0.167372, 0.553366, 0, 0
87, 0.00000, 0.167338, 0.553077, 0.167621, 0.553696, 0.167372, 0.553366, 0, 0
88, 0.00000, 0.167338, 0.553077, 0.167621, 0.553696, 0.167372, 0.553366, 0, 0
89, 0.00000, 0.167338, 0.553077, 0.167621, 0.553696, 0.167372, 0.553366, 0, 0
90, 0.00000, 0.167338, 0.553077, 0.167621, 0.553696, 0.167372, 0.553366, 0, 0
91, 0.00000, 0.167338, 0.553077, 0.167621, 0.553696, 0.167372, 0.553366, 0, 0
92, 0.00000, 0.167338, 0.553077, 0.167621, 0.553696, 0.167372, 0.553366, 0, 0
93, 0.00000, 0.167338, 0.553077, 0.167621, 0.553696, 0.167372, 0.553366, 0, 0
94, 0.00000, 0.167338, 0.553077, 0.167621, 0.553696, 0.167372, 0.553366, 0, 0
95, 0.00000, 0.167338, 0.553077, 0.167621, 0.553696, 0.167372, 0.553366, 0, 0
96, 0.00000, 0.167338, 0.553077, 0.167621, 0.553696, 0.167372, 0.553366, 0, 0
